date Sun Aug 23 04:45:11 PM 2026
base hex timestamps absolute
// version 7.0.0
0.000000 1 2e1 Rx d 8 45 80 00 00 82 b1 8a 6a 
0.000300 1 2c1 Rx d 8 21 23 0d 0a 02 00 00 00 
0.000500 1 545 Rx d 8 40 01 27 a0 9e dd f9 c6 
0.000700 1 677 Rx d 8 00 00 00 00 00 00 00 00 
0.002000 1 419 Rx d 1 00 
0.002300 1 31e Rx d 8 01 00 00 00 00 00 00 00 
0.002400 1 41d Rx d 1 00 
0.002700 1 21d Rx d 8 04 00 35 00 00 00 00 00 
0.002900 1 20c Rx d 8 00 a0 5a 1e 00 e0 08 00 
0.003100 1 379 Rx d 8 03 c0 0b 48 33 b5 24 00 
0.003300 1 43d Rx d 6 00 00 ff 1f 40 00 
0.003600 1 25d Rx d 8 36 41 01 16 04 f0 d7 03 
0.003800 1 282 Rx d 8 08 00 00 00 fc 23 0b 24 
0.004000 1 20e Rx d 3 16 06 00 
0.004200 1 27d Rx d 8 00 00 00 00 00 00 00 00 
0.004400 1 29d Rx d 5 00 00 00 20 00 
0.004600 1 2bd Rx d 4 00 00 00 00 
0.004800 1 132 Rx d 6 f1 88 f7 ff 27 40 
0.005000 1 129 Rx d 8 86 23 a7 1f 00 20 ff 3f 
0.005200 1 243 Rx d 8 02 d4 41 12 00 2f 00 00 
0.005500 1 340 Rx d 8 09 00 00 00 00 00 00 00 
0.005700 1 23a Rx d 8 08 00 00 00 00 00 00 00 
0.006000 1 3c2 Rx d 8 00 55 55 55 00 00 59 45 
0.006200 1 3e2 Rx d 7 00 00 80 0a 10 c0 04 
0.006400 1 401 Rx d 8 01 2a 2e 81 a7 81 e9 80 
0.006700 1 448 Rx d 7 00 00 10 10 00 00 00 
0.006900 1 45a Rx d 8 a0 c9 c9 c9 3f 4c 00 70 
0.007100 1 49d Rx d 7 00 00 00 00 00 00 00 
0.007700 1 7aa Rx d 8 08 00 00 00 14 01 1b 0e 
0.008000 1 261 Rx d 8 00 10 b9 00 c0 4c 00 cb 
0.008200 1 441 Rx d 8 63 85 89 00 32 00 30 3c 
0.008900 1 4e3 Rx d 8 d5 07 6b 51 00 0a 00 00 
0.009500 1 139 Rx d 1 00 
0.010000 1 201 Rx d 8 01 04 18 01 00 00 80 c4 
0.010500 1 1f8 Rx d 4 00 00 00 00 
0.012000 1 381 Rx d 8 e0 c3 e5 92 b9 5c b2 10 
0.014100 1 3ae Rx d 8 00 40 00 08 00 00 f0 39 
0.014700 1 132 Rx d 6 e5 88 f8 ff 24 40 
0.014900 1 129 Rx d 8 00 24 a7 1f 00 20 ff 3f 
0.015200 1 241 Rx d 7 28 28 0c 0a 0a 53 00 
0.015400 1 263 Rx d 8 02 00 00 00 00 00 00 00 
0.015600 1 343 Rx d 8 00 92 60 ae 9e 00 00 00 
0.015900 1 789 Rx d 4 54 11 60 c7 
0.016100 1 2e1 Rx d 8 10 21 04 00 12 00 20 08 
0.016600 1 37a Rx d 8 03 00 00 00 00 00 00 00 
0.017600 1 289 Rx d 8 b0 08 03 82 a1 00 3d 0f 
0.018700 1 727 Rx d 2 08 00 
0.019200 1 420 Rx d 8 28 01 40 4b 00 00 80 06 
0.020000 1 2c1 Rx d 8 02 0d 06 05 00 d0 92 c1 
0.020900 1 3c3 Rx d 8 00 00 00 00 00 45 00 00 
0.021000 1 3e3 Rx d 4 00 00 00 00 
0.021300 1 333 Rx d 5 04 10 e8 07 00 
0.021600 1 334 Rx d 8 bf 3f 0a 04 ff 01 c1 04 
0.021800 1 3fd Rx d 8 00 00 00 3c 20 00 01 80 
0.022100 1 3c8 Rx d 8 04 00 00 00 00 00 00 00 
0.023600 1 359 Rx d 8 07 00 00 00 00 00 00 00 
0.023900 1 2d2 Rx d 8 99 29 55 4e 00 00 a1 01 
0.024200 1 212 Rx d 8 58 04 00 00 82 ff 77 62 
0.024400 1 252 Rx d 8 00 00 83 06 00 c8 16 00 
0.024600 1 261 Rx d 8 31 00 b5 00 eb 49 1a 2a 
0.024900 1 129 Rx d 8 17 25 a7 1f 00 20 ff 3f 
0.025100 1 132 Rx d 6 f3 88 f7 ff 27 40 
0.025300 1 243 Rx d 8 03 00 00 00 21 52 0e 00 
0.025500 1 249 Rx d 4 e8 01 00 00 
0.025700 1 234 Rx d 8 1c b0 01 36 d9 04 40 bb 
0.025900 1 292 Rx d 8 61 c2 c9 e7 98 01 00 00 
0.026200 1 221 Rx d 8 40 41 05 05 00 50 b1 af 
0.026400 1 23e Rx d 8 f4 01 3a e0 fa fc 5f a4 
0.026700 1 2f1 Rx d 8 0a b1 01 00 00 00 00 00 
0.026800 1 2f2 Rx d 2 12 01 
0.027000 1 295 Rx d 8 96 00 a1 ff 00 00 00 07 
0.027100 1 35f Rx d 1 00 
0.027400 1 401 Rx d 8 02 2a 39 81 45 81 bc 81 
0.027600 1 42e Rx d 8 00 e0 bf ff fe ef bf ff 
0.027900 1 3a2 Rx d 8 01 10 20 00 07 f0 ff 00 
0.028000 1 2aa Rx d 3 2f 60 3b 
0.028200 1 42f Rx d 7 ce 6a c9 02 fa 00 ff 
0.028500 1 4e2 Rx d 8 45 03 66 41 03 08 00 00 
0.028700 1 553 Rx d 8 00 00 00 00 00 00 60 b8 
0.029600 1 142 Rx d 8 01 00 40 0a c0 1b 00 00 
0.030600 1 38a Rx d 8 00 00 00 00 00 00 00 00 
0.031300 1 39d Rx d 5 05 5d e1 27 00 
0.031600 1 552 Rx d 8 00 00 00 00 00 00 60 b7 
0.032000 1 2e1 Rx d 8 29 ca 2d 9d 1f 28 00 00 
0.032900 1 383 Rx d 8 ab 18 51 00 3f d0 00 0a 
0.033100 1 545 Rx d 8 01 00 00 00 00 10 00 5b 
0.034000 1 788 Rx d 8 02 40 cb 07 00 00 00 00 
0.034700 1 132 Rx d 6 ef 88 f7 ff 23 40 
0.034900 1 129 Rx d 8 a4 26 a7 1f ff 1f ff 3f 
0.035200 1 201 Rx d 8 82 02 00 00 00 00 98 3b 
0.035400 1 263 Rx d 8 03 00 00 00 00 00 00 40 
0.037000 1 3f5 Rx d 8 00 00 3d 08 80 04 00 00 
0.037600 1 39a Rx d 8 fd fd fd fd fd 01 00 00 
0.038500 1 422 Rx d 6 70 00 10 00 00 00 
0.038800 1 423 Rx d 7 00 00 00 00 08 00 00 
0.039100 1 22b Rx d 8 ff ff ff ff ff ff ff ff 
0.040000 1 261 Rx d 8 2a 2b 39 02 80 5c 22 84 
0.040200 1 288 Rx d 8 03 16 54 8c 80 80 71 f4 
0.040500 1 2c1 Rx d 8 0b 17 13 00 00 00 00 00 
0.040700 1 677 Rx d 8 01 00 00 00 00 00 00 00 
0.042000 1 3a1 Rx d 8 eb 88 40 81 3e 00 d0 02 
0.043800 1 2c7 Rx d 8 00 00 00 00 00 00 4b ff 
0.044000 1 2a6 Rx d 8 00 00 6a 18 00 00 00 00 
0.044300 1 2a7 Rx d 8 00 00 00 00 00 7c 05 84 
0.044600 1 219 Rx d 7 03 80 ff ff ff fb 0f 
0.044800 1 132 Rx d 6 ec 88 f7 ff 27 40 
0.045000 1 129 Rx d 8 77 27 a7 1f 01 20 ff 3f 
0.045200 1 243 Rx d 8 04 d8 f1 ff fd 7f 70 73 
0.045500 1 2c3 Rx d 8 55 23 aa c6 03 00 6c a5 
0.045700 1 2c2 Rx d 8 20 40 80 20 01 00 00 fe 
0.045900 1 34a Rx d 8 01 07 00 00 00 00 00 60 
0.046200 1 372 Rx d 8 01 ce 15 04 50 00 28 01 
0.046400 1 401 Rx d 8 03 2a 40 81 09 81 dc 80 
0.046700 1 43b Rx d 8 02 7f 00 ff 00 00 00 00 
0.046900 1 719 Rx d 8 17 00 00 00 00 00 00 00 
0.047200 1 798 Rx d 8 05 00 00 00 00 00 60 11 
0.047400 1 22a Rx d 4 00 00 f9 15 
0.047900 1 2d1 Rx d 2 7f 01 
0.048100 1 2e1 Rx d 8 02 6c 7f 02 3f 63 00 00 
0.048400 1 381 Rx d 8 01 00 00 1a 95 94 94 00 
0.051600 1 2f9 Rx d 8 b0 fb 07 18 00 00 00 00 
0.052000 1 2a8 Rx d 8 02 10 00 00 06 00 a0 62 
0.054100 1 3ae Rx d 8 00 40 00 08 00 00 00 49 
0.054300 1 3cc Rx d 8 03 11 03 19 00 0e 09 00 
0.054600 1 3a8 Rx d 8 03 00 00 00 00 00 00 00 
0.054900 1 129 Rx d 8 64 28 a7 1f ff 1f ff 3f 
0.055100 1 132 Rx d 6 f2 88 f7 ff 28 40 
0.055300 1 263 Rx d 8 04 00 00 00 30 08 00 00 
0.055500 1 2b3 Rx d 8 e9 29 00 4c 04 00 8a 10 
0.055800 1 3c2 Rx d 8 29 55 00 00 00 00 00 80 
0.056000 1 261 Rx d 8 c3 4e 0a 00 00 40 35 86 
0.056300 1 45a Rx d 8 fd 07 f8 ff 03 00 1e 00 
0.057900 1 428 Rx d 7 00 00 10 10 00 00 00 
0.058100 1 441 Rx d 8 47 00 b6 c3 58 00 35 b6 
0.058600 1 3f9 Rx d 8 03 00 00 00 00 00 00 00 
0.059000 1 421 Rx d 7 00 14 00 00 00 d0 48 
0.060000 1 3bd Rx d 8 04 00 00 00 40 04 00 00 
0.060200 1 201 Rx d 8 83 02 00 00 00 00 b8 3b 
0.060500 1 2bf Rx d 7 0a 00 00 00 00 10 00 
0.060700 1 2c1 Rx d 8 04 00 10 11 0a 13 08 14 
0.060900 1 225 Rx d 4 05 45 d2 00 
0.061100 1 3a2 Rx d 8 a2 29 00 00 20 00 00 00 
0.061500 1 1fa Rx d 3 22 c0 01 
0.062300 1 797 Rx d 4 14 09 60 18 
0.064000 1 2e1 Rx d 8 fb 19 e3 99 9b db 09 00 
0.064200 1 25b Rx d 8 d3 c0 02 05 6a 86 80 65 
0.064500 1 2d7 Rx d 4 01 00 00 80 
0.064700 1 132 Rx d 6 f1 88 f7 ff 28 40 
0.065000 1 129 Rx d 8 31 29 a7 1f ff 1f ff 3f 
0.065200 1 243 Rx d 8 00 fc cf 8c bb 02 41 29 
0.065400 1 401 Rx d 8 04 2a 7f 81 1d 81 e5 80 
0.065800 1 339 Rx d 8 00 11 02 00 00 00 40 0f 
0.066000 1 23e Rx d 8 f4 01 3a e0 fa fc 6f b4 
0.066300 1 545 Rx d 8 02 00 13 00 00 00 10 6f 
0.066900 1 283 Rx d 6 00 00 00 00 00 00 
0.068400 1 3e8 Rx d 8 04 00 00 00 00 00 00 00 
0.068500 1 242 Rx d 4 10 15 04 05 
0.070900 1 2a1 Rx d 6 00 00 98 3a 00 00 
0.071300 1 39d Rx d 5 06 5e e1 27 00 
0.071500 1 2f3 Rx d 8 0e 0e 0b 00 00 20 00 00 
0.071700 1 273 Rx d 8 81 e1 10 00 3d 00 10 01 
0.072000 1 261 Rx d 8 24 f2 cf 4d 00 40 44 ac 
0.072200 1 3fd Rx d 8 01 00 02 00 00 08 12 80 
0.072400 1 748 Rx d 5 2e 22 0b 00 00 
0.072700 1 1f9 Rx d 8 00 00 00 00 00 00 00 00 
0.072900 1 3c0 Rx d 8 09 00 00 00 00 00 00 00 
0.074200 1 2ec Rx d 3 2f 60 7d 
0.074700 1 132 Rx d 6 fc 88 f8 ff 2a 40 
0.075000 1 129 Rx d 8 87 2a a7 1f 00 20 ff 3f 
0.075200 1 263 Rx d 8 00 d0 e7 89 d4 07 55 1f 
0.075300 1 229 Rx d 3 6d 03 00 
0.075600 1 234 Rx d 8 36 e1 03 80 43 00 54 cc 
0.075700 1 249 Rx d 4 2a 02 00 00 
0.076000 1 360 Rx d 8 02 00 00 00 00 00 00 00 
0.076200 1 221 Rx d 8 41 01 55 51 01 02 c0 ce 
0.076500 1 330 Rx d 8 0d ff 00 00 c1 c3 b5 3d 
0.076700 1 54f Rx d 8 00 00 00 00 00 00 00 00 
0.077200 1 7aa Rx d 8 09 ef 06 ef 06 01 00 00 
0.078000 1 295 Rx d 8 c8 00 ab ff 00 00 00 08 
0.078900 1 103 Rx d 8 22 b3 88 04 92 2c 21 02 
0.079500 1 119 Rx d 4 00 00 00 00 
0.079800 1 142 Rx d 8 28 00 02 60 00 00 01 00 
0.080000 1 2e1 Rx d 8 04 00 00 80 48 44 26 00 
0.080200 1 2c1 Rx d 8 50 28 7e 00 00 8a 02 47 
0.080500 1 677 Rx d 8 02 00 00 00 00 00 00 00 
0.080700 1 7a8 Rx d 8 02 40 cf 07 00 07 00 00 
0.082600 1 102 Rx d 8 22 b3 88 04 8a 0c 21 08 
0.083200 1 414 Rx d 8 10 00 00 00 00 20 20 20 
0.083400 1 113 Rx d 3 01 97 01 
0.083600 1 318 Rx d 8 1a 08 09 08 17 2d 37 c9 
0.083900 1 405 Rx d 8 10 00 00 00 00 4c 52 57 
0.084100 1 381 Rx d 8 22 62 f6 f7 0d 10 01 00 
0.084300 1 55a Rx d 8 04 00 00 00 00 00 00 00 
0.084500 1 409 Rx d 1 00 
0.084600 1 666 Rx d 4 00 00 a0 00 
0.084900 1 129 Rx d 8 1f 2b a7 1f ff 1f ff 3f 
0.085100 1 123 Rx d 8 01 00 00 00 00 3f 00 00 
0.085300 1 132 Rx d 6 f7 88 f7 ff 27 40 
0.085500 1 201 Rx d 8 f0 d1 01 80 22 8f 41 05 
0.085800 1 243 Rx d 8 01 fc 70 00 73 00 7c 7c 
0.086000 1 401 Rx d 8 05 2a 21 81 29 81 79 81 
0.086100 1 7f4 Rx d 1 01 
0.086400 1 228 Rx d 8 03 16 54 8c 80 80 71 94 
0.086600 1 7ff Rx d 8 01 a5 4e 43 42 4c 7b 00 
0.086800 1 439 Rx d 8 02 00 40 00 00 14 00 00 
0.087100 1 31a Rx d 8 60 fc ff 02 00 00 30 aa 
0.087300 1 458 Rx d 7 00 00 00 00 40 00 00 
0.088000 1 261 Rx d 8 05 22 fb c8 9a 42 50 0c 
0.088200 1 2c4 Rx d 8 68 36 40 c9 61 ff e2 ac 
0.088700 1 204 Rx d 8 01 00 00 ff 00 00 00 10 
0.088900 1 22b Rx d 8 ff ff ff ff ff ff ff ff 
0.089100 1 400 Rx d 7 00 e0 fb be ef fb 00 
0.089300 1 264 Rx d 6 38 00 00 00 a0 00 
0.089600 1 224 Rx d 8 04 08 00 48 19 01 10 08 
0.089900 1 122 Rx d 8 01 00 00 00 00 3f 00 00 
0.090100 1 2b4 Rx d 6 64 05 b6 0d c1 00 
0.090900 1 3a3 Rx d 8 00 e0 00 00 38 03 fc 01 
0.092000 1 3a1 Rx d 8 e8 42 0d 8a 01 28 e2 8c 
0.092400 1 78a Rx d 8 01 00 05 00 9d 0d 07 00 
0.092600 1 7b8 Rx d 8 05 00 49 6a 05 03 60 3a 
0.093600 1 3a2 Rx d 8 a0 85 f2 f3 04 80 44 74 
0.094100 1 39b Rx d 8 00 06 df e0 b0 c8 07 e2 
0.094400 1 3ae Rx d 8 00 40 00 08 00 00 10 59 
0.094700 1 132 Rx d 6 f6 88 f8 ff 27 40 
0.094900 1 129 Rx d 8 bb 2c a7 1f 01 20 ff 3f 
0.095200 1 263 Rx d 8 01 d0 c7 a9 9c c7 54 1f 
0.095600 1 42a Rx d 8 f9 6b fe 9a bf e6 af 55 
0.095900 1 719 Rx d 8 00 03 14 14 14 20 24 00 
0.096100 1 2e1 Rx d 8 45 80 00 00 82 b1 8a 6a 
0.096400 1 682 Rx d 8 00 00 00 40 05 02 60 87 
0.096700 1 272 Rx d 8 09 80 63 00 00 00 00 00 
0.096900 1 393 Rx d 8 09 80 63 00 00 00 00 00 
0.098400 1 2e8 Rx d 8 02 10 00 00 06 00 a0 a2 
0.099000 1 545 Rx d 8 f0 00 22 70 9e da 29 6d 
0.100000 1 2c1 Rx d 8 21 23 0d 0a 02 00 00 00 
0.102000 1 419 Rx d 1 00 
0.102300 1 75d Rx d 8 03 00 80 00 00 00 00 00 
0.102500 1 31e Rx d 8 02 00 00 00 00 00 00 00 
0.102800 1 379 Rx d 8 04 00 5c 15 51 00 00 00 
0.103000 1 20c Rx d 8 00 a0 5a 1e 00 e0 08 00 
0.103300 1 21d Rx d 8 04 00 35 00 00 00 00 00 
0.103400 1 41d Rx d 1 00 
0.103600 1 25d Rx d 8 36 41 01 16 04 f0 d8 03 
0.103900 1 282 Rx d 8 08 00 00 00 fc 23 0b 24 
0.104000 1 20e Rx d 3 17 07 00 
0.104200 1 261 Rx d 8 00 10 b9 00 c0 4c 60 2b 
0.104500 1 27d Rx d 8 00 00 00 00 00 00 00 00 
0.104700 1 29d Rx d 5 00 00 00 20 00 
0.104900 1 129 Rx d 8 6d 2d a7 1f ff 1f ff 3f 
0.105100 1 132 Rx d 6 f1 88 f7 ff 27 40 
0.105300 1 243 Rx d 8 02 d4 41 12 00 2f 00 00 
0.105500 1 2bd Rx d 4 00 00 00 00 
0.105800 1 340 Rx d 8 0a 04 00 00 00 00 00 00 
0.106000 1 372 Rx d 8 02 89 00 3c 80 01 bc 59 
0.106200 1 23e Rx d 8 f4 01 3a e0 fa fc 7f c4 
0.106500 1 3c2 Rx d 8 00 55 55 55 00 00 59 45 
0.106700 1 401 Rx d 8 06 2a 54 81 ae 81 15 81 
0.107000 1 40a Rx d 8 01 00 01 00 00 00 30 40 
0.107200 1 43d Rx d 6 00 00 ff 1f 40 00 
0.107400 1 448 Rx d 7 00 00 10 10 00 00 00 
0.107600 1 45a Rx d 8 a0 c9 c9 c9 3f 4c 00 70 
0.107900 1 49d Rx d 7 00 00 00 00 00 00 00 
0.108100 1 441 Rx d 8 63 85 89 00 32 00 38 44 
0.108900 1 4e3 Rx d 8 06 00 00 00 00 00 00 00 
0.109500 1 139 Rx d 1 00 
0.110000 1 201 Rx d 8 01 04 18 01 00 00 80 c4 
0.110500 1 1f8 Rx d 4 00 00 00 00 
0.111300 1 39d Rx d 5 07 5f e1 27 00 
0.112000 1 2e1 Rx d 8 10 21 04 00 12 00 20 08 
0.114700 1 132 Rx d 6 f4 88 f8 ff 28 40 
0.114900 1 129 Rx d 8 db 2e a7 1f 00 20 ff 3f 
0.115200 1 241 Rx d 7 28 28 0c 0a 0a 53 00 
0.115400 1 263 Rx d 8 02 00 00 00 00 00 00 00 
0.115600 1 2b3 Rx d 8 0a 0e 00 00 00 00 00 00 
0.115900 1 343 Rx d 8 00 92 60 7e 9e 00 00 00 
0.116000 1 789 Rx d 4 54 11 70 d7 
0.116600 1 37a Rx d 8 00 00 00 00 00 00 00 00 
0.117600 1 289 Rx d 8 b0 08 03 c2 94 00 3d 0f 
0.119200 1 420 Rx d 8 28 01 40 4b 00 00 00 07 
0.120000 1 261 Rx d 8 31 00 c2 00 eb 49 7a 97 
0.120300 1 2c1 Rx d 8 02 0d 06 05 00 d0 92 c1 
0.120500 1 381 Rx d 8 03 8a be 07 00 10 04 00 
0.120800 1 677 Rx d 8 03 00 00 00 00 00 00 00 
0.121000 1 3c3 Rx d 8 55 55 55 01 00 80 43 00 
0.121500 1 294 Rx d 8 14 c1 40 00 00 00 00 00 
0.121900 1 2d2 Rx d 8 99 29 55 4e 00 00 a1 01 
0.122100 1 212 Rx d 8 58 04 00 00 82 ff 77 62 
0.122400 1 252 Rx d 8 00 00 83 06 00 c8 16 00 
0.122600 1 292 Rx d 8 61 c2 c9 e7 98 01 00 00 
0.122700 1 2f2 Rx d 2 12 01 
0.123000 1 312 Rx d 8 70 e4 66 04 53 b1 15 14 
0.123200 1 392 Rx d 8 00 10 00 00 00 00 00 00 
0.123500 1 3c8 Rx d 8 05 00 00 00 00 00 00 00 
0.123700 1 359 Rx d 8 08 04 00 00 c0 3c 37 33 
0.124000 1 3fd Rx d 8 02 00 00 00 00 00 00 90 
0.124200 1 712 Rx d 8 00 2a 6a 0b 7a 0b 74 0b 
0.124600 1 4e2 Rx d 8 06 00 00 00 00 00 00 00 
0.124900 1 129 Rx d 8 87 2f a7 1f 01 20 ff 3f 
0.125100 1 132 Rx d 6 01 89 f7 ff 24 40 
0.125300 1 243 Rx d 8 03 00 00 00 21 52 0e 00 
0.125500 1 234 Rx d 8 1c b0 01 36 d9 04 60 db 
0.125700 1 249 Rx d 4 d3 03 00 00 
0.125900 1 401 Rx d 8 07 2a 02 81 07 81 86 81 
0.126200 1 221 Rx d 8 40 41 05 05 00 50 d1 cf 
0.126400 1 2f1 Rx d 8 2b 46 00 89 00 00 00 00 
0.126700 1 3a2 Rx d 8 01 10 20 00 07 f0 ff 00 
0.126900 1 553 Rx d 8 00 00 00 00 00 00 70 c8 
0.127800 1 2aa Rx d 3 2f 70 4b 
0.128100 1 2e1 Rx d 8 29 ca 2d 9d 1f 28 00 00 
0.129000 1 295 Rx d 8 2b 48 00 00 00 00 00 09 
0.129600 1 142 Rx d 8 01 00 40 0a c0 1b 00 00 
0.130600 1 38a Rx d 8 01 00 00 00 00 00 00 00 
0.131600 1 552 Rx d 8 00 00 00 00 00 00 70 c7 
0.132000 1 545 Rx d 8 01 00 00 00 00 10 30 8b 
0.132900 1 383 Rx d 8 ab 18 51 00 3f d0 00 0a 
0.133900 1 788 Rx d 8 f4 d4 a1 63 00 00 80 00 
0.134200 1 3ae Rx d 8 00 40 00 08 00 00 20 69 
0.134700 1 132 Rx d 6 f6 88 f7 ff 25 40 
0.134900 1 129 Rx d 8 cf 20 a7 1f 00 20 ff 3f 
0.135200 1 201 Rx d 8 82 02 00 00 00 00 98 3b 
0.135400 1 263 Rx d 8 03 00 00 00 00 00 00 40 
0.136000 1 261 Rx d 8 2a 2b 39 02 80 5c 82 e4 
0.137000 1 3f5 Rx d 8 00 00 3d 08 80 04 00 00 
0.137600 1 39a Rx d 8 fc fd fd fd fd fd fd 01 
0.138600 1 422 Rx d 6 70 00 10 00 00 00 
0.138900 1 423 Rx d 7 00 00 00 00 08 00 00 
0.139100 1 22b Rx d 8 ff ff ff ff ff ff ff ff 
0.140000 1 2c1 Rx d 8 0b 17 13 00 00 00 00 00 
0.140200 1 288 Rx d 8 03 16 54 8c 80 80 81 04 
0.142000 1 3a1 Rx d 8 eb 88 40 8d 3e 00 f0 2e 
0.143800 1 2c7 Rx d 8 00 00 00 00 00 00 4b ff 
0.144000 1 2a6 Rx d 8 00 00 6a 18 00 00 00 00 
0.144300 1 2a7 Rx d 8 00 00 00 00 00 7c 05 84 
0.144500 1 2e1 Rx d 8 02 6c 7f 02 3f 63 00 00 
0.144700 1 219 Rx d 7 04 74 74 00 00 00 00 
0.145000 1 129 Rx d 8 b1 21 a7 1f ff 1f ff 3f 
0.145200 1 132 Rx d 6 f5 88 f7 ff 23 40 
0.145400 1 243 Rx d 8 04 d8 f1 ff fd 7f 70 73 
0.145600 1 2c2 Rx d 8 55 63 a9 c6 03 00 6c a5 
0.145900 1 2c3 Rx d 8 00 00 40 20 01 00 40 ff 
0.146100 1 23e Rx d 8 f4 01 3a e0 fa fc 8f d4 
0.146300 1 401 Rx d 8 08 2a 31 81 2d 81 0d 81 
0.146600 1 719 Rx d 8 01 00 00 00 00 00 00 00 
0.146800 1 798 Rx d 8 76 05 00 00 00 00 70 97 
0.147300 1 22a Rx d 4 00 00 f9 15 
0.147500 1 399 Rx d 3 00 00 00 
0.147900 1 2d1 Rx d 2 7f 01 
0.151300 1 39d Rx d 5 f8 50 e1 27 00 
0.151600 1 2f9 Rx d 8 b0 fb 07 20 00 00 00 00 
0.152000 1 261 Rx d 8 c3 4e 0a 00 00 40 95 e6 
0.152200 1 2a8 Rx d 8 02 10 00 00 06 00 b0 72 
0.152900 1 2e3 Rx d 7 20 00 00 d2 02 0b 40 
0.154600 1 2e2 Rx d 8 f7 13 50 3f 6d e6 d2 54 
0.154800 1 132 Rx d 6 f3 88 f7 ff 28 40 
0.155000 1 129 Rx d 8 91 22 a7 1f 00 20 ff 3f 
0.155300 1 263 Rx d 8 04 00 00 00 30 08 00 00 
0.155500 1 3c2 Rx d 8 29 55 00 00 00 00 00 80 
0.155800 1 45a Rx d 8 fd 07 f8 ff 03 00 1e 00 
0.156000 1 381 Rx d 8 04 94 8f 8d 97 94 95 69 
0.157900 1 428 Rx d 7 00 00 10 10 00 00 00 
0.158200 1 441 Rx d 8 47 00 b6 c3 58 00 3d be 
0.158400 1 7aa Rx d 8 0a 40 06 40 06 00 58 00 
0.158600 1 3f9 Rx d 8 04 00 00 00 00 00 00 00 
0.159000 1 421 Rx d 7 00 14 00 00 00 d0 48 
0.159600 1 3a2 Rx d 8 92 29 00 00 20 00 00 00 
0.160000 1 321 Rx d 8 30 be a8 8e 01 8e 10 e7 
0.160200 1 201 Rx d 8 83 02 00 00 00 00 b8 3b 
0.160500 1 2c1 Rx d 8 04 00 10 11 0a 13 08 14 
0.160700 1 2e1 Rx d 8 fb 19 e5 99 9b da 09 00 
0.160900 1 225 Rx d 4 05 45 d2 00 
0.161100 1 677 Rx d 8 04 00 00 00 00 00 00 00 
0.161300 1 718 Rx d 7 03 00 00 00 00 00 00 
0.161600 1 1fa Rx d 3 22 c0 01 
0.162300 1 797 Rx d 4 14 09 70 28 
0.164100 1 25b Rx d 8 d3 c0 02 05 6a 86 90 75 
0.164700 1 132 Rx d 6 f3 88 f7 ff 24 40 
0.164900 1 129 Rx d 8 2b 23 a7 1f 01 20 ff 3f 
0.165200 1 243 Rx d 8 00 fc cf 8c bb 02 41 29 
0.165400 1 372 Rx d 8 03 00 17 50 00 01 00 00 
0.165600 1 401 Rx d 8 09 2a 1c 81 64 81 7c 81 
0.165900 1 339 Rx d 8 00 11 02 00 00 00 40 0f 
0.166100 1 545 Rx d 8 02 00 13 00 00 00 40 9f 
0.166900 1 283 Rx d 6 00 00 00 00 00 00 
0.168000 1 261 Rx d 8 24 f2 cf 4d 00 40 a4 0c 
0.168400 1 3e8 Rx d 8 05 00 00 00 00 00 00 00 
0.168600 1 242 Rx d 4 10 15 04 05 
0.170900 1 2a1 Rx d 6 00 00 98 3a 00 00 
0.172000 1 61d Rx d 8 07 1b 8e 2e ac 36 0a 14 
0.172200 1 238 Rx d 8 f0 27 9c dc 1f 00 66 4e 
0.172600 1 1f9 Rx d 8 00 00 00 00 00 00 00 00 
0.172900 1 3c0 Rx d 8 0a 00 10 00 00 00 00 00 
0.174100 1 3ae Rx d 8 00 40 00 08 00 00 30 79 
0.174300 1 2ec Rx d 3 2f 70 8d 
0.174700 1 132 Rx d 6 eb 88 f8 ff 2a 40 
0.174900 1 129 Rx d 8 ad 24 a7 1f 01 20 ff 3f 
0.175200 1 263 Rx d 8 00 d0 e7 89 d4 07 55 1f 
0.175300 1 229 Rx d 3 43 04 00 
0.175600 1 234 Rx d 8 37 e1 03 80 43 00 74 ed 
0.175700 1 249 Rx d 4 d3 04 00 00 
0.176000 1 2b3 Rx d 8 0b ff 9f f0 2f 80 14 00 
0.176200 1 221 Rx d 8 41 01 55 51 01 02 e0 ee 
0.176400 1 2e1 Rx d 8 04 00 00 80 48 44 26 00 
0.176700 1 360 Rx d 8 03 00 00 00 00 00 00 00 
0.176900 1 54f Rx d 8 00 00 00 00 00 00 00 00 
0.178900 1 103 Rx d 8 22 b3 88 04 92 2c 21 02 
0.179500 1 119 Rx d 4 00 00 00 00 
0.179800 1 142 Rx d 8 28 00 02 60 00 00 01 00 
0.180000 1 2c1 Rx d 8 50 28 7e 00 00 8a 02 47 
0.180300 1 295 Rx d 8 96 00 a1 ff 00 00 00 0a 
0.180500 1 7a8 Rx d 8 f0 cc 91 63 00 00 82 00 
0.182600 1 102 Rx d 8 22 b3 88 04 8a 0c 21 08 
0.183200 1 113 Rx d 3 01 97 01 
0.183300 1 7f4 Rx d 1 01 
0.183500 1 7ff Rx d 8 02 53 26 2c 8c 51 a3 90 
0.183800 1 318 Rx d 8 1a 08 09 08 17 2d 39 cb 
0.184000 1 458 Rx d 7 00 00 00 00 40 00 00 
0.184200 1 261 Rx d 8 05 22 fb c8 9a 42 b0 6c 
0.184300 1 409 Rx d 1 00 
0.184800 1 132 Rx d 6 f8 88 f7 ff 29 40 
0.185000 1 123 Rx d 8 00 00 12 92 d2 00 00 80 
0.185200 1 129 Rx d 8 17 25 a7 1f 00 20 ff 3f 
0.185500 1 201 Rx d 8 f0 d1 01 80 22 8f 41 05 
0.185700 1 243 Rx d 8 01 fc 70 00 73 00 7c 7c 
0.186000 1 320 Rx d 8 01 00 00 08 00 00 00 00 
0.186200 1 23e Rx d 8 f4 01 3a e0 fa fc 9f e4 
0.186400 1 228 Rx d 8 03 16 54 8c 80 80 81 a4 
0.186700 1 401 Rx d 8 0a 2a 79 81 2e 81 54 81 
0.186900 1 439 Rx d 8 02 00 40 00 00 14 00 00 
0.187100 1 70b Rx d 8 04 1d 19 0f 0e 07 08 23 
0.187800 1 2c4 Rx d 8 49 d9 fd 2e a9 9c e5 89 
0.188300 1 204 Rx d 8 01 00 00 ff 00 00 00 10 
0.188700 1 264 Rx d 6 38 00 00 00 a0 00 
0.188900 1 22b Rx d 8 ff ff ff ff ff ff ff ff 
0.189200 1 224 Rx d 8 04 08 00 48 19 01 10 08 
0.189400 1 2b4 Rx d 6 62 05 b5 0d c4 00 
0.189600 1 400 Rx d 7 00 e0 fb be ef fb 00 
0.189800 1 122 Rx d 8 00 00 12 92 12 00 00 00 
0.190100 1 3c4 Rx d 8 1a 2d 30 35 2d 41 00 00 
0.190900 1 3a3 Rx d 8 00 e0 00 00 38 03 fc 01 
0.191300 1 39d Rx d 5 f9 51 e1 27 00 
0.192000 1 2e1 Rx d 8 45 80 00 00 82 b1 8a 6a 
0.192200 1 381 Rx d 8 05 5b 45 ff 00 63 c8 28 
0.192400 1 3a1 Rx d 8 e8 42 0d 8a 01 28 02 ac 
0.192700 1 3a2 Rx d 8 a0 85 f2 f3 04 80 44 74 
0.192900 1 7b8 Rx d 8 06 00 00 00 00 00 70 90 
0.193500 1 78a Rx d 8 01 00 06 00 02 00 00 00 
0.194700 1 132 Rx d 6 e9 88 f8 ff 25 40 
0.195000 1 129 Rx d 8 a4 26 a7 1f ff 1f ff 3f 
0.195200 1 263 Rx d 8 01 d0 c7 a9 9c c7 54 1f 
0.195600 1 719 Rx d 8 0e 00 00 00 00 00 00 14 
0.196600 1 272 Rx d 8 06 00 fc e0 07 b0 07 08 
0.196900 1 393 Rx d 8 06 00 fa d0 07 b0 07 08 
0.198000 1 545 Rx d 8 f0 00 27 a0 9e dd 59 d5 
0.198400 1 2e8 Rx d 8 02 10 00 00 06 00 b0 b2 
0.198600 1 682 Rx d 8 00 00 00 40 05 02 70 97 
0.200000 1 261 Rx d 8 00 10 b9 00 c0 4c c0 8b 
0.200200 1 2c1 Rx d 8 21 23 0d 0a 02 00 00 00 
0.200500 1 677 Rx d 8 00 00 00 00 00 00 00 00 
0.202100 1 419 Rx d 1 00 
0.202300 1 31e Rx d 8 03 00 00 00 00 00 00 00 
0.202400 1 41d Rx d 1 00 
0.202700 1 21d Rx d 8 04 00 35 00 00 00 00 00 
0.202900 1 20c Rx d 8 00 a0 5a 1e 00 e0 08 00 
0.203100 1 379 Rx d 8 05 00 24 49 51 00 00 00 
0.203400 1 43d Rx d 6 00 00 ff 1f 40 00 
0.203600 1 25d Rx d 8 36 41 01 16 04 f0 d9 03 
0.203800 1 282 Rx d 8 08 00 00 00 fc 23 0b 24 
0.204000 1 20e Rx d 3 10 00 00 
0.204200 1 27d Rx d 8 00 00 00 00 00 00 00 00 
0.204400 1 29d Rx d 5 00 00 00 20 00 
0.204600 1 2bd Rx d 4 00 00 00 00 
0.204800 1 132 Rx d 6 fa 88 f7 ff 24 40 
0.205000 1 129 Rx d 8 77 27 a7 1f 01 20 ff 3f 
0.205300 1 243 Rx d 8 02 d4 41 12 00 2f 00 00 
0.205500 1 340 Rx d 8 0b 40 00 00 00 00 00 00 
0.205700 1 3c2 Rx d 8 00 55 55 55 00 00 59 45 
0.206000 1 3e2 Rx d 7 00 00 80 0a 10 c0 04 
0.206200 1 401 Rx d 8 0b 2a 32 81 4b 81 46 81 
0.206400 1 448 Rx d 7 00 00 10 10 00 00 00 
0.206700 1 45a Rx d 8 a0 c9 c9 c9 3f 4c 00 70 
0.206900 1 49d Rx d 7 00 00 00 00 00 00 00 
0.207000 1 744 Rx d 1 00 
0.208000 1 2e1 Rx d 8 10 21 04 00 12 00 20 08 
0.208200 1 441 Rx d 8 63 85 89 00 32 00 00 0c 
0.208900 1 4e3 Rx d 8 07 00 00 00 00 00 00 00 
0.209500 1 139 Rx d 1 00 
0.210000 1 201 Rx d 8 01 04 18 01 00 00 80 c4 
0.210500 1 1f8 Rx d 4 00 00 00 00 
0.214700 1 132 Rx d 6 fd 88 f8 ff 27 40 
0.214900 1 129 Rx d 8 a0 28 a7 1f 01 20 ff 3f 
0.215200 1 241 Rx d 7 28 28 0c 0a 0a 53 00 
0.215400 1 263 Rx d 8 02 00 00 00 00 00 00 00 
0.215600 1 343 Rx d 8 00 92 5c 3e 9e 00 00 00 
0.215900 1 3ae Rx d 8 00 40 00 08 00 00 40 89 
0.216100 1 261 Rx d 8 31 00 c1 00 eb 49 da f6 
0.216300 1 789 Rx d 4 54 11 80 e7 
0.216600 1 37a Rx d 8 01 00 00 00 00 00 00 00 
0.217600 1 289 Rx d 8 b0 08 03 02 88 00 3d 0f 
0.219200 1 420 Rx d 8 28 01 40 4b 00 00 80 07 
0.220000 1 2c1 Rx d 8 02 0d 06 05 00 d0 92 c1 
0.220900 1 3c3 Rx d 8 00 00 00 00 00 45 00 00 
0.221000 1 3e3 Rx d 4 00 00 00 00 
0.221500 1 453 Rx d 4 00 00 00 00 
0.221600 1 1bb Rx d 1 02 
0.221900 1 2d2 Rx d 8 99 29 55 4e 00 00 a1 01 
0.222100 1 212 Rx d 8 58 04 00 00 82 ff 77 62 
0.222300 1 252 Rx d 8 00 00 83 06 00 c8 16 00 
0.222600 1 284 Rx d 8 30 00 00 00 40 08 20 1e 
0.222800 1 292 Rx d 8 61 c2 c9 e7 98 01 00 00 
0.223000 1 2f2 Rx d 2 12 01 
0.223100 1 390 Rx d 2 17 06 
0.223300 1 3c8 Rx d 8 06 00 00 00 00 00 00 00 
0.223600 1 712 Rx d 8 01 2a 43 0b 5f 0b 4a 0b 
0.223800 1 359 Rx d 8 09 00 00 00 00 00 00 00 
0.224100 1 2e1 Rx d 8 29 ca 2d 9d 1f 28 00 00 
0.224300 1 782 Rx d 8 21 66 03 74 01 00 00 00 
0.224600 1 4e2 Rx d 8 17 14 00 00 00 00 00 00 
0.224900 1 129 Rx d 8 31 29 a7 1f ff 1f ff 3f 
0.225100 1 132 Rx d 6 ee 88 f7 ff 25 40 
0.225300 1 243 Rx d 8 03 00 00 00 21 52 0e 00 
0.225600 1 234 Rx d 8 1c b0 01 36 d9 04 80 fb 
0.225700 1 249 Rx d 4 83 05 00 00 
0.226000 1 23e Rx d 8 f4 01 3a e0 fa fc af f4 
0.226200 1 221 Rx d 8 40 41 05 05 00 50 f1 ef 
0.226400 1 2f1 Rx d 8 0c 19 00 d0 01 00 00 00 
0.226700 1 372 Rx d 8 04 00 00 00 00 00 fa 10 
0.226900 1 3a2 Rx d 8 01 10 20 00 07 f0 ff 00 
0.227200 1 401 Rx d 8 0c 2a f1 80 f2 80 13 81 
0.227400 1 553 Rx d 8 00 00 00 00 00 00 80 d8 
0.227900 1 2aa Rx d 3 2f 80 5b 
0.228100 1 381 Rx d 8 46 00 00 00 08 01 00 03 
0.229600 1 142 Rx d 8 01 00 40 0a c0 1b 00 00 
0.230600 1 38a Rx d 8 03 00 00 00 00 00 00 00 
0.231000 1 545 Rx d 8 01 00 00 00 00 10 60 bb 
0.231200 1 295 Rx d 8 c8 00 ab ff 00 00 00 0b 
0.231400 1 39d Rx d 5 fa 52 e1 27 00 
0.231700 1 552 Rx d 8 00 00 00 00 00 00 80 d7 
0.232000 1 261 Rx d 8 2a 2b 39 02 80 5c e2 44 
0.232900 1 383 Rx d 8 ab 18 51 00 3f d0 00 0a 
0.233900 1 788 Rx d 8 01 00 00 00 ff a1 c8 13 
0.234700 1 132 Rx d 6 e2 88 f7 ff 25 40 
0.234900 1 129 Rx d 8 87 2a a7 1f 00 20 ff 3f 
0.235200 1 201 Rx d 8 82 02 00 00 00 00 98 3b 
0.235400 1 263 Rx d 8 03 00 00 00 00 00 00 40 
0.235700 1 2b3 Rx d 8 0c 00 40 40 60 4a 53 00 
0.237000 1 3f5 Rx d 8 00 00 3d 08 80 04 00 00 
0.237600 1 7aa Rx d 8 0b 52 00 27 57 00 34 00 
0.237800 1 39a Rx d 8 fd fd fd fd fd 01 00 00 
0.238300 1 7e8 Rx d 8 0d c7 ab cd 3e 00 00 00 
0.238600 1 422 Rx d 6 70 00 10 00 00 00 
0.238900 1 423 Rx d 7 00 00 00 00 08 00 00 
0.239900 1 22b Rx d 8 ff ff ff ff ff ff ff ff 
0.240100 1 288 Rx d 8 03 16 54 8c 80 80 91 14 
0.240400 1 2c1 Rx d 8 0b 17 13 00 00 00 00 00 
0.240600 1 2e1 Rx d 8 02 6c 7f 02 3f 64 00 00 
0.240800 1 677 Rx d 8 01 00 00 00 00 00 00 00 
0.241100 1 709 Rx d 8 00 00 01 04 40 00 01 10 
0.242000 1 3a1 Rx d 8 eb 88 40 77 3e 00 10 38 
0.243800 1 2c7 Rx d 8 00 00 00 00 00 00 4b ff 
0.244000 1 2a6 Rx d 8 00 00 6a 18 00 00 00 00 
0.244300 1 2a7 Rx d 8 00 00 00 00 00 7c 05 84 
0.244600 1 219 Rx d 7 05 00 73 72 72 6a 00 
0.244800 1 132 Rx d 6 e6 88 f7 ff 24 40 
0.245000 1 129 Rx d 8 76 2b a7 1f 00 20 ff 3f 
0.245200 1 243 Rx d 8 04 d8 f1 ff fd 7f 70 73 
0.245500 1 2c3 Rx d 8 55 23 aa c6 03 00 6c a5 
0.245700 1 2c2 Rx d 8 20 40 80 20 01 00 00 fe 
0.246000 1 401 Rx d 8 0d 2a e4 80 60 81 f8 80 
0.246200 1 719 Rx d 8 0c 70 0f 00 50 00 00 00 
0.246400 1 798 Rx d 8 30 82 08 66 08 02 80 56 
0.247200 1 22a Rx d 4 00 00 f9 15 
0.247900 1 2d1 Rx d 2 7f 01 
0.248100 1 261 Rx d 8 c3 4e 0a 00 00 40 f5 46 
0.251600 1 2f9 Rx d 8 b0 fb 07 28 00 00 00 00 
0.252000 1 2a8 Rx d 8 02 10 00 00 06 00 c0 82 
0.254100 1 3ae Rx d 8 00 40 00 08 00 00 50 99 
0.254600 1 3a8 Rx d 8 04 60 03 7d 00 00 00 00 
0.254900 1 129 Rx d 8 16 2c a7 1f 00 20 ff 3f 
0.255100 1 132 Rx d 6 e7 88 f8 ff 27 40 
0.255300 1 263 Rx d 8 04 00 00 00 30 08 00 00 
0.255500 1 3c2 Rx d 8 29 55 00 00 00 00 00 80 
0.255800 1 45a Rx d 8 fd 07 f8 ff 03 00 1e 00 
0.256000 1 2e1 Rx d 8 fb 19 e4 99 9b da 09 00 
0.257900 1 428 Rx d 7 00 00 10 10 00 00 00 
0.258200 1 441 Rx d 8 47 00 b6 c3 58 00 05 86 
0.258600 1 3a2 Rx d 8 92 29 00 00 20 00 00 00 
0.258800 1 3f9 Rx d 8 05 00 00 00 00 00 00 00 
0.259100 1 421 Rx d 7 00 14 00 00 00 d0 48 
0.260000 1 2c1 Rx d 8 04 00 10 11 0a 13 08 14 
0.260200 1 201 Rx d 8 83 02 00 00 00 00 b8 3b 
0.260500 1 2bf Rx d 7 0a 00 00 00 00 10 00 
0.260800 1 225 Rx d 4 05 45 d2 00 
0.261500 1 1fa Rx d 3 22 c0 01 
0.262300 1 797 Rx d 4 14 09 80 38 
0.264000 1 261 Rx d 8 24 f2 cf 4d 00 40 04 6c 
0.264200 1 25b Rx d 8 d3 c0 02 05 6a 86 a0 85 
0.264500 1 381 Rx d 8 07 00 00 54 7d 27 00 00 
0.264700 1 545 Rx d 8 02 00 13 00 00 00 70 cf 
0.264900 1 129 Rx d 8 6d 2d a7 1f ff 1f ff 3f 
0.265100 1 132 Rx d 6 f3 88 f8 ff 27 40 
0.265400 1 243 Rx d 8 00 fc cf 8c bb 02 41 29 
0.265600 1 401 Rx d 8 0e 2a 81 81 32 81 1d 81 
0.265800 1 339 Rx d 8 00 11 02 00 00 00 40 0f 
0.266100 1 23e Rx d 8 f4 01 3a e0 fa fc bf 04 
0.266900 1 283 Rx d 6 00 00 00 00 00 00 
0.268400 1 3e8 Rx d 8 06 00 00 00 00 00 00 00 
0.268500 1 242 Rx d 4 10 15 04 05 
0.270900 1 2a1 Rx d 6 00 00 98 3a 00 00 
0.271200 1 39d Rx d 5 fb 53 e1 27 00 
0.271500 1 285 Rx d 8 41 03 65 01 0d 00 08 00 
0.271700 1 286 Rx d 5 ff ff ff ff 31 
0.271900 1 3d8 Rx d 4 60 00 68 00 
0.272100 1 2e1 Rx d 8 04 00 00 80 48 44 26 00 
0.272300 1 353 Rx d 8 7b 0f 39 80 07 14 fe 01 
0.272600 1 373 Rx d 8 0b 4a 46 00 00 de 06 1f 
0.272800 1 1f9 Rx d 8 00 00 00 00 00 00 00 00 
0.273100 1 3c0 Rx d 8 00 00 00 00 00 00 00 00 
0.274200 1 2ec Rx d 3 2f 80 9d 
0.274700 1 132 Rx d 6 ed 88 f8 ff 28 40 
0.274900 1 129 Rx d 8 b2 2e a7 1f ff 1f ff 3f 
0.275200 1 263 Rx d 8 00 d0 e7 89 d4 07 55 1f 
0.275300 1 229 Rx d 3 41 05 00 
0.275600 1 234 Rx d 8 36 e1 03 80 43 00 94 0c 
0.275700 1 249 Rx d 4 4c 06 00 00 
0.276000 1 360 Rx d 8 04 00 00 00 00 00 00 00 
0.276200 1 221 Rx d 8 41 01 55 51 01 02 00 0e 
0.276500 1 54f Rx d 8 00 00 00 00 00 00 00 00 
0.278900 1 103 Rx d 8 22 b3 88 04 92 2c 21 02 
0.279100 1 38b Rx d 8 fe fe 77 0f 38 00 25 03 
0.279400 1 3ae Rx d 8 00 40 00 08 00 00 61 aa 
0.279600 1 119 Rx d 4 00 00 00 00 
0.279800 1 142 Rx d 8 28 00 02 60 00 00 01 00 
0.280000 1 261 Rx d 8 05 22 fb c8 9a 42 10 cc 
0.280300 1 2c1 Rx d 8 50 28 7e 00 00 8a 02 47 
0.280500 1 677 Rx d 8 02 00 00 00 00 00 00 00 
0.280700 1 7a8 Rx d 8 01 00 00 00 ff a1 c8 13 
0.282600 1 102 Rx d 8 22 b3 88 04 8a 0c 21 08 
0.283200 1 113 Rx d 3 01 97 01 
0.283400 1 318 Rx d 8 1a 08 09 08 17 2d 3b cd 
0.283600 1 458 Rx d 7 00 00 00 00 40 00 00 
0.283800 1 7f4 Rx d 1 01 
0.284000 1 7ff Rx d 8 03 33 08 00 e0 22 16 00 
0.284100 1 409 Rx d 1 00 
0.284800 1 132 Rx d 6 f6 88 f7 ff 27 40 
0.285000 1 123 Rx d 8 01 00 00 00 00 3f 00 00 
0.285300 1 129 Rx d 8 2a 2f a7 1f 00 20 ff 3f 
0.285500 1 201 Rx d 8 e0 d1 01 80 22 8f 41 05 
0.285700 1 243 Rx d 8 01 fc 70 00 73 00 7c 7c 
0.286000 1 372 Rx d 8 05 46 3b 0d 00 00 00 00 
0.286200 1 401 Rx d 8 0f 2a f4 80 79 81 d1 81 
0.286400 1 228 Rx d 8 03 16 54 8c 80 80 91 b4 
0.286700 1 439 Rx d 8 02 00 40 00 00 14 00 00 
0.286900 1 31a Rx d 8 60 fc ff 02 00 00 40 ba 
0.287900 1 2c4 Rx d 8 0a 00 00 80 4c 68 02 00 
0.288200 1 2e1 Rx d 8 45 80 00 00 82 b1 8a 6a 
0.288400 1 204 Rx d 8 01 00 00 ff 00 00 00 10 
0.288800 1 264 Rx d 6 38 00 00 00 a0 00 
0.289100 1 22b Rx d 8 ff ff ff ff ff ff ff ff 
0.289300 1 400 Rx d 7 00 e0 fb be ef fb 00 
0.289500 1 224 Rx d 8 04 08 00 48 19 01 10 08 
0.289800 1 122 Rx d 8 01 00 00 00 00 3f 00 00 
0.290000 1 2b4 Rx d 6 64 05 b6 0d c7 00 
0.290200 1 319 Rx d 8 0d 00 00 00 6c 8b 23 ac 
0.290900 1 3a3 Rx d 8 00 d0 00 00 38 03 fc 01 
0.291600 1 3a2 Rx d 8 a0 85 f2 f3 04 80 44 74 
0.292000 1 3a1 Rx d 8 e8 42 0d 8a 01 28 22 cc 
0.292400 1 7b8 Rx d 8 50 22 09 8c 9c 02 80 3f 
0.293500 1 78a Rx d 8 01 00 00 00 20 13 10 0d 
0.294700 1 132 Rx d 6 eb 88 f7 ff 27 40 
0.295000 1 129 Rx d 8 62 20 a7 1f 01 20 ff 3f 
0.295200 1 263 Rx d 8 01 d0 c7 a9 9c c7 54 1f 
0.295400 1 2b3 Rx d 8 0d 05 a0 94 62 42 59 a2 
0.295700 1 42a Rx d 8 f9 6b fe 9a bf e6 af 55 
0.295900 1 3db Rx d 8 0b 38 0f 00 00 03 00 00 
0.296100 1 261 Rx d 8 00 10 ba 00 c0 4c 20 ec 
0.296400 1 43b Rx d 8 03 7f 00 ff 00 00 00 00 
0.296600 1 272 Rx d 8 09 80 63 00 00 00 00 00 
0.296900 1 719 Rx d 8 0d 00 00 00 00 00 00 00 
0.297100 1 393 Rx d 8 09 80 63 00 00 00 00 00 
0.297300 1 545 Rx d 8 f0 00 27 60 9e d9 89 c1 
0.298400 1 682 Rx d 8 00 00 00 40 05 02 80 a7 
0.298600 1 2e8 Rx d 8 02 10 00 00 06 00 c0 c2 
0.300000 1 2c1 Rx d 8 21 23 0d 0a 02 00 00 00 
0.300200 1 381 Rx d 8 28 74 4d 82 00 00 00 00 
0.302100 1 419 Rx d 1 00 
0.302300 1 75d Rx d 8 04 00 00 00 00 00 00 00 
0.302500 1 21d Rx d 8 04 00 35 00 00 00 00 00 
0.302800 1 379 Rx d 8 06 00 a5 14 52 00 00 00 
0.303000 1 20c Rx d 8 00 a0 5a 1e 00 e0 08 00 
0.303100 1 41d Rx d 1 00 
0.303400 1 25d Rx d 8 36 41 01 16 04 f0 d8 03 
0.303600 1 43d Rx d 6 00 00 ff 1f 40 00 
0.303800 1 27d Rx d 8 00 00 00 00 00 00 00 00 
0.304000 1 20e Rx d 3 11 01 00 
0.304200 1 282 Rx d 8 08 00 00 00 fc 23 0b 24 
0.304400 1 29d Rx d 5 00 00 00 20 00 
0.304600 1 2bd Rx d 4 00 00 00 00 
0.304800 1 132 Rx d 6 f8 88 f7 ff 28 40 
0.305000 1 129 Rx d 8 b1 21 a7 1f ff 1f ff 3f 
0.305300 1 243 Rx d 8 02 d4 41 12 00 2f 00 00 
0.305500 1 2e1 Rx d 8 10 21 04 00 12 00 20 08 
0.305700 1 340 Rx d 8 00 00 00 00 00 00 00 00 
0.306000 1 23e Rx d 8 f4 01 3a e0 fa fc cf 14 
0.306200 1 3c2 Rx d 8 00 55 55 55 00 00 59 45 
0.306500 1 401 Rx d 8 10 2a 6c 81 f4 80 51 81 
0.306700 1 40a Rx d 8 01 00 01 00 00 00 40 50 
0.306900 1 407 Rx d 8 0c 01 00 00 00 00 00 00 
0.307200 1 448 Rx d 7 00 00 10 10 00 00 00 
0.307400 1 45a Rx d 8 a0 c9 c9 c9 3f 4c 00 70 
0.307600 1 49d Rx d 7 00 00 00 00 00 00 00 
0.307900 1 7aa Rx d 8 0c 00 00 00 00 00 00 39 
0.308100 1 441 Rx d 8 63 85 89 00 32 00 08 14 
0.308900 1 4e3 Rx d 8 20 f5 04 00 00 00 28 34 
0.309500 1 139 Rx d 1 00 
0.310000 1 201 Rx d 8 01 04 18 01 00 00 80 c4 
0.310600 1 1f8 Rx d 4 00 00 00 00 
0.311300 1 39d Rx d 5 fc 54 e1 27 00 
0.312000 1 261 Rx d 8 31 00 c6 00 eb 49 3a 5b 
0.314700 1 132 Rx d 6 fa 88 f7 ff 27 40 
0.314900 1 129 Rx d 8 91 22 a7 1f 00 20 ff 3f 
0.315200 1 241 Rx d 7 27 28 cc 09 0a 53 00 
0.315400 1 263 Rx d 8 02 00 00 00 00 00 00 00 
0.315600 1 343 Rx d 8 00 92 5c 3e 9e 00 00 00 
0.315900 1 3e9 Rx d 8 f1 80 02 00 00 00 90 ef 
0.316100 1 752 Rx d 8 07 00 00 00 00 a5 00 00 
0.316300 1 789 Rx d 4 54 11 90 f7 
0.316600 1 37a Rx d 8 02 00 00 00 00 00 00 00 
0.317600 1 289 Rx d 8 b0 08 03 c2 a5 00 3d 0f 
0.319200 1 420 Rx d 8 28 01 40 4b 00 00 00 00 
0.320100 1 2e1 Rx d 8 29 ca 2d 9d 1f 28 00 00 
0.320300 1 2c1 Rx d 8 02 0d 06 05 00 d0 92 c1 
0.320600 1 3ae Rx d 8 00 40 00 08 00 00 71 ba 
0.320800 1 677 Rx d 8 03 00 00 00 00 00 00 00 
0.321000 1 3c3 Rx d 8 55 55 55 01 00 80 43 00 
0.321300 1 212 Rx d 8 58 04 00 00 82 ff 77 62 
0.321500 1 252 Rx d 8 00 00 83 06 00 c8 16 00 
0.321700 1 292 Rx d 8 61 c2 c9 e7 98 01 00 00 
0.322000 1 2d2 Rx d 8 9a 29 55 4e 00 00 a1 01 
0.322100 1 2f2 Rx d 2 12 01 
0.322300 1 352 Rx d 8 02 db 05 da 05 48 40 49 
0.322600 1 355 Rx d 7 80 ec 00 bc 94 00 00 
0.322800 1 3c8 Rx d 8 00 00 00 00 00 00 00 00 
0.323000 1 285 Rx d 8 02 d5 00 00 00 00 de 00 
0.323300 1 313 Rx d 8 02 64 64 05 00 00 80 65 
0.323500 1 712 Rx d 8 02 2a 3e 0b 53 0b 54 0b 
0.323800 1 359 Rx d 8 0a 00 00 00 00 00 00 00 
0.324600 1 4e2 Rx d 8 20 0e 02 00 00 00 a8 15 
0.324900 1 129 Rx d 8 86 23 a7 1f 00 20 ff 3f 
0.325100 1 132 Rx d 6 dd 88 f7 ff 25 40 
0.325300 1 243 Rx d 8 03 00 00 00 21 52 0e 00 
0.325500 1 234 Rx d 8 1c b0 01 36 d9 04 a0 1b 
0.325700 1 249 Rx d 4 5e 07 00 00 
0.325900 1 3a2 Rx d 8 01 10 20 00 07 f0 ff 00 
0.326200 1 221 Rx d 8 40 41 05 05 00 50 11 0f 
0.326400 1 2f1 Rx d 8 0d 00 00 00 00 00 00 00 
0.326700 1 401 Rx d 8 11 2a 4d 81 0d 81 f5 80 
0.326900 1 553 Rx d 8 00 00 00 00 00 00 90 e8 
0.327900 1 2aa Rx d 3 2f 90 6b 
0.328100 1 261 Rx d 8 2a 2b 39 02 80 5c 42 a4 
0.329600 1 142 Rx d 8 01 00 40 0a c0 1b 00 00 
0.330000 1 545 Rx d 8 01 00 00 00 00 10 90 eb 
0.330600 1 38a Rx d 8 00 00 00 00 00 00 00 00 
0.331600 1 552 Rx d 8 00 00 00 00 00 00 90 e7 
0.332900 1 383 Rx d 8 ab 18 51 00 3f d0 00 0a 
0.333200 1 414 Rx d 8 11 20 20 20 20 20 20 20 
0.333500 1 405 Rx d 8 11 33 45 37 46 41 35 4d 
0.333700 1 55a Rx d 8 05 00 00 00 00 00 00 00 
0.333900 1 666 Rx d 4 00 00 a0 00 
0.334100 1 788 Rx d 8 02 40 cc 07 00 00 00 00 
0.334700 1 132 Rx d 6 ef 88 f8 ff 27 40 
0.334900 1 129 Rx d 8 00 24 a7 1f 00 20 ff 3f 
0.335200 1 201 Rx d 8 82 02 00 00 00 00 98 3b 
0.335400 1 263 Rx d 8 03 00 00 00 00 00 00 40 
0.336000 1 2e1 Rx d 8 02 6c 7f 02 3f 64 00 00 
0.336200 1 381 Rx d 8 09 00 00 82 00 00 00 6d 
0.337000 1 3f5 Rx d 8 00 00 3d 08 80 04 00 00 
0.337700 1 39a Rx d 8 fc fd fd fd fd fd fd 01 
0.338600 1 422 Rx d 6 70 00 10 00 00 00 
0.338900 1 423 Rx d 7 00 00 00 00 08 00 00 
0.339900 1 22b Rx d 8 ff ff ff ff ff ff ff ff 
0.340100 1 288 Rx d 8 03 16 54 8c 80 80 a1 24 
0.340400 1 2c1 Rx d 8 0b 17 13 00 00 00 00 00 
0.342000 1 3a1 Rx d 8 eb 88 40 81 3e 00 30 62 
0.343800 1 2c7 Rx d 8 00 00 00 00 00 00 4b ff 
0.344000 1 261 Rx d 8 c3 4e 0a 00 00 40 55 a6 
0.344300 1 2a6 Rx d 8 00 00 6a 18 00 00 00 00 
0.344500 1 2a7 Rx d 8 00 00 00 00 00 7c 05 84 
0.344700 1 219 Rx d 7 00 80 ff ff ff f8 0f 
0.345000 1 129 Rx d 8 17 25 a7 1f 00 20 ff 3f 
0.345200 1 132 Rx d 6 ef 88 f7 ff 27 40 
0.345400 1 243 Rx d 8 04 d8 f1 ff fd 7f 70 73 
0.345600 1 2c2 Rx d 8 55 63 a9 c6 03 00 6c a5 
0.345900 1 2c3 Rx d 8 00 00 40 20 01 00 40 ff 
0.346100 1 372 Rx d 8 06 0a d3 18 17 a3 cf 00 
0.346300 1 23e Rx d 8 f4 01 3a e0 fa fc df 24 
0.346600 1 401 Rx d 8 12 2a ec 80 26 81 f9 80 
0.346800 1 719 Rx d 8 13 00 00 00 00 00 00 00 
0.347000 1 798 Rx d 8 c1 d7 02 45 14 01 90 30 
0.347200 1 22a Rx d 4 00 00 e9 15 
0.347900 1 2d1 Rx d 2 7f 01 
0.348600 1 262 Rx d 8 0b 00 d5 de 00 f0 d2 12 
0.350700 1 743 Rx d 1 00 
0.351300 1 39d Rx d 5 fd 55 e1 27 00 
0.351600 1 2f9 Rx d 8 b0 fb 07 01 9f a0 6f b2 
0.352000 1 2e1 Rx d 8 fb 19 e4 99 9b d6 09 00 
0.352200 1 2a8 Rx d 8 02 10 00 00 06 00 d0 92 
0.352900 1 2e3 Rx d 7 03 00 00 dc 02 0b 00 
0.354600 1 2e2 Rx d 8 08 2e 00 00 00 00 00 00 
0.354900 1 129 Rx d 8 60 26 a7 1f 01 20 ff 3f 
0.355100 1 132 Rx d 6 e3 88 f7 ff 25 40 
0.355300 1 1fb Rx d 8 05 02 00 00 00 00 00 00 
0.355600 1 263 Rx d 8 04 00 00 00 30 08 00 00 
0.355800 1 2b3 Rx d 8 ae 55 00 fc bf 3f 19 00 
0.356000 1 3c2 Rx d 8 29 55 00 00 00 00 00 80 
0.356300 1 45a Rx d 8 fd 07 f8 ff 03 00 1e 00 
0.357600 1 3a2 Rx d 8 92 29 00 00 20 00 00 00 
0.357900 1 428 Rx d 7 00 00 10 10 00 00 00 
0.358200 1 441 Rx d 8 47 00 b6 c3 58 00 0d 8e 
0.358600 1 3f9 Rx d 8 06 00 00 00 00 00 00 00 
0.359000 1 421 Rx d 7 00 14 00 00 00 d0 48 
0.359200 1 3ae Rx d 8 00 40 00 08 00 00 81 ca 
0.360000 1 7bc Rx d 8 00 01 00 01 00 00 00 00 
0.360300 1 201 Rx d 8 83 02 00 00 00 00 b8 3b 
0.360500 1 261 Rx d 8 24 f2 cf 4d 00 40 64 cc 
0.360700 1 2c1 Rx d 8 04 00 10 11 0a 13 08 14 
0.360900 1 225 Rx d 4 05 45 d2 00 
0.361100 1 443 Rx d 6 6c 01 ff 03 00 00 
0.361400 1 677 Rx d 8 04 00 00 00 00 00 00 00 
0.361600 1 718 Rx d 7 04 00 00 00 00 00 00 
0.361700 1 1fa Rx d 3 22 c0 01 
0.362300 1 797 Rx d 4 14 09 90 48 
0.363000 1 545 Rx d 8 02 00 13 00 00 00 a0 ff 
0.364100 1 25b Rx d 8 d3 c0 02 05 6a 86 b0 95 
0.364700 1 132 Rx d 6 eb 88 f8 ff 28 40 
0.364900 1 129 Rx d 8 77 27 a7 1f 01 20 ff 3f 
0.365200 1 243 Rx d 8 00 fc cf 8c bb 02 41 29 
0.365400 1 401 Rx d 8 13 2a f8 80 fd 80 ea 80 
0.365800 1 339 Rx d 8 00 11 02 00 00 00 40 0f 
0.366900 1 283 Rx d 6 00 00 00 00 00 00 
0.368000 1 2e1 Rx d 8 04 00 00 80 48 44 26 00 
0.368400 1 3e8 Rx d 8 00 00 00 00 00 00 00 00 
0.368600 1 242 Rx d 4 10 15 04 05 
0.370900 1 2a1 Rx d 6 00 00 98 3a 00 00 
0.372000 1 381 Rx d 8 0a e0 e1 01 00 08 85 00 
0.372400 1 2d3 Rx d 8 0d 01 75 02 21 08 0e 51 
0.372600 1 3df Rx d 8 00 00 00 00 01 d0 00 1b 
0.372900 1 1f9 Rx d 8 00 00 00 00 00 00 00 00 
0.373100 1 293 Rx d 8 01 0c 15 90 55 14 2f df 
0.373300 1 3c0 Rx d 8 01 00 00 00 00 00 00 01 
0.373600 1 285 Rx d 8 03 47 86 48 95 00 00 00 
0.374200 1 2ec Rx d 3 2f 90 ad 
0.374700 1 132 Rx d 6 ec 88 f7 ff 28 40 
0.375000 1 129 Rx d 8 0d 28 a7 1f 00 20 ff 3f 
0.375200 1 263 Rx d 8 00 d0 e7 89 d4 07 55 1f 
0.375300 1 229 Rx d 3 dd 06 00 
0.375600 1 234 Rx d 8 36 e1 03 80 43 00 b4 2c 
0.375700 1 249 Rx d 4 3f 08 00 00 
0.376000 1 360 Rx d 8 05 00 00 00 00 00 00 00 
0.376200 1 221 Rx d 8 41 01 55 51 01 02 20 2e 
0.376500 1 261 Rx d 8 05 22 fb c8 9a 42 70 2c 
0.376700 1 54f Rx d 8 00 00 00 00 00 00 00 00 
0.378900 1 103 Rx d 8 22 b3 88 04 92 2c 21 02 
0.379600 1 119 Rx d 4 00 00 00 00 
0.379800 1 142 Rx d 8 28 00 02 60 00 00 01 00 
0.380000 1 2c1 Rx d 8 50 28 7e 00 00 8a 02 47 
0.380300 1 7a8 Rx d 8 02 40 cc 07 00 07 00 00 
0.382600 1 102 Rx d 8 22 b3 88 04 8a 0c 21 08 
0.383200 1 113 Rx d 3 01 97 01 
0.383400 1 318 Rx d 8 1a 08 09 08 17 2d 3d cf 
0.383600 1 458 Rx d 7 00 00 00 00 40 00 00 
0.383800 1 7f4 Rx d 1 01 
0.384000 1 7ff Rx d 8 04 21 fb a8 60 20 a4 20 
0.384200 1 2e1 Rx d 8 45 80 00 00 82 b1 8a 6a 
0.384400 1 409 Rx d 1 00 
0.384800 1 132 Rx d 6 ec 88 f7 ff 25 40 
0.385000 1 123 Rx d 8 00 00 12 92 d2 00 00 80 
0.385200 1 129 Rx d 8 f5 29 a7 1f 01 20 ff 3f 
0.385500 1 201 Rx d 8 f0 d1 01 80 22 8f 41 05 
0.385700 1 243 Rx d 8 01 fc 70 00 73 00 7c 7c 
0.386000 1 320 Rx d 8 02 00 00 00 00 00 00 00 
0.386200 1 23e Rx d 8 f4 01 3a e0 fa fc ef 34 
0.386400 1 228 Rx d 8 03 16 54 8c 80 80 a1 c4 
0.386700 1 401 Rx d 8 14 2a 78 81 fd 80 f1 80 
0.386900 1 439 Rx d 8 02 00 40 00 00 14 00 00 
0.387900 1 2c4 Rx d 8 0b 40 00 00 3b 47 01 00 
0.388400 1 204 Rx d 8 01 00 00 ff 00 00 00 10 
0.388600 1 7aa Rx d 8 c0 eb 8e 3c 00 08 8c 29 
0.388800 1 264 Rx d 6 38 00 00 00 a0 00 
0.389100 1 22b Rx d 8 ff ff ff ff ff ff ff ff 
0.389300 1 224 Rx d 8 04 08 00 48 19 01 10 08 
0.389500 1 400 Rx d 7 00 e0 fb be ef fb 00 
0.389800 1 122 Rx d 8 00 00 12 92 12 00 00 00 
0.390000 1 2b4 Rx d 6 61 05 b5 0d bf 00 
0.390600 1 3a2 Rx d 8 a0 85 72 f5 04 80 44 74 
0.390900 1 3a3 Rx d 8 00 e0 00 00 38 03 fc 01 
0.391400 1 39d Rx d 5 fe 56 e1 27 00 
0.392000 1 261 Rx d 8 00 10 ba 00 c0 4c 80 4c 
0.392200 1 3a1 Rx d 8 e8 42 0d 8a 01 28 42 ec 
0.392500 1 7b8 Rx d 8 99 d7 02 9e 04 00 90 be 
0.393200 1 78a Rx d 8 01 00 01 00 e4 5d 9c 5d 
0.394700 1 132 Rx d 6 f3 88 f8 ff 27 40 
0.395000 1 129 Rx d 8 87 2a a7 1f 00 20 ff 3f 
0.395200 1 263 Rx d 8 01 d0 c7 a9 9c c7 54 1f 
0.395600 1 719 Rx d 8 03 00 00 00 00 00 00 00 
0.396000 1 545 Rx d 8 f0 00 22 70 9e da b9 fd 
0.396600 1 272 Rx d 8 06 00 fc e0 07 b0 07 08 
0.396900 1 682 Rx d 8 00 00 00 40 05 02 90 b7 
0.397100 1 393 Rx d 8 06 00 fa d0 07 b0 07 08 
0.398400 1 2e8 Rx d 8 02 10 00 00 06 00 d0 d2 
0.399100 1 3ae Rx d 8 00 40 00 08 00 00 91 da 
0.400000 1 2e1 Rx d 8 10 21 04 00 12 00 20 08 
0.400200 1 2c1 Rx d 8 21 23 0d 0a 02 00 00 00 
0.400500 1 677 Rx d 8 00 00 00 00 00 00 00 00 
0.402000 1 41d Rx d 1 00 
0.402100 1 419 Rx d 1 00 
0.402400 1 21d Rx d 8 04 00 35 00 00 00 00 00 
0.402600 1 43d Rx d 6 00 00 ff 1f 40 00 
0.402800 1 25d Rx d 8 36 41 01 16 04 f0 d8 03 
0.403100 1 20c Rx d 8 00 a0 5a 1e 00 e0 08 00 
0.403300 1 379 Rx d 8 07 40 01 17 00 40 03 06 
0.403600 1 27d Rx d 8 00 00 00 00 00 00 00 00 
0.403800 1 282 Rx d 8 08 00 00 00 fc 23 0b 24 
0.403900 1 20e Rx d 3 12 02 00 
0.404100 1 29d Rx d 5 00 00 00 20 00 
0.404300 1 2bd Rx d 4 00 00 00 00 
0.404600 1 340 Rx d 8 01 00 00 00 00 00 00 00 
0.404700 1 132 Rx d 6 e8 88 f8 ff 27 40 
0.405000 1 129 Rx d 8 76 2b a7 1f 00 20 ff 3f 
0.405200 1 243 Rx d 8 02 d4 41 12 00 2f 00 00 
0.405500 1 372 Rx d 8 07 00 00 00 00 00 00 00 
0.405700 1 3c2 Rx d 8 00 55 55 55 00 00 59 45 
0.405900 1 3e2 Rx d 7 00 00 80 0a 10 c0 04 
0.406200 1 401 Rx d 8 15 2a 00 81 f5 80 99 81 
0.406400 1 448 Rx d 7 00 00 10 10 00 00 00 
0.406600 1 45a Rx d 8 a0 c9 c9 c9 3f 4c 00 70 
0.406900 1 49d Rx d 7 00 00 00 00 00 00 00 
0.407100 1 6e8 Rx d 8 30 62 00 12 04 00 00 00 
0.408000 1 261 Rx d 8 31 00 d9 00 eb 49 9a ce 
0.408200 1 381 Rx d 8 0b 00 00 c8 00 00 3c 06 
0.408500 1 441 Rx d 8 63 85 89 00 32 00 10 1c 
0.408900 1 4e3 Rx d 8 01 e3 06 01 00 00 28 29 
0.409500 1 139 Rx d 1 00 
0.410000 1 201 Rx d 8 01 04 18 01 00 00 80 c4 
0.410500 1 1f8 Rx d 4 00 00 00 00 
0.414700 1 132 Rx d 6 ef 88 f8 ff 28 40 
0.414900 1 129 Rx d 8 16 2c a7 1f 00 20 ff 3f 
0.415200 1 241 Rx d 7 28 28 0c 0a 0a 53 00 
0.415400 1 263 Rx d 8 02 00 00 00 00 00 00 00 
0.415600 1 2b3 Rx d 8 af 02 80 02 e2 0e 00 00 
0.415900 1 343 Rx d 8 00 92 5c 0e 9f 00 00 00 
0.416100 1 2e1 Rx d 8 29 ca 2d 9d 1f 28 00 00 
0.416300 1 789 Rx d 4 54 11 a0 07 
0.416700 1 37a Rx d 8 03 00 00 00 00 00 00 00 
0.417600 1 289 Rx d 8 b0 08 03 02 a1 00 3d 0f 
0.419200 1 420 Rx d 8 28 01 40 4b 00 00 80 00 
0.420000 1 2c1 Rx d 8 02 0d 06 05 00 d0 92 c1 
0.420900 1 3c3 Rx d 8 00 00 00 00 00 45 00 00 
0.421100 1 3e3 Rx d 4 00 00 00 00 
0.421700 1 253 Rx d 8 00 64 34 85 64 62 00 15 
0.422000 1 212 Rx d 8 58 04 00 00 82 ff 77 62 
0.422200 1 252 Rx d 8 00 00 83 06 00 c8 16 00 
0.422400 1 292 Rx d 8 61 c2 c9 e7 98 01 00 00 
0.422700 1 2d2 Rx d 8 99 29 55 4e 00 00 a1 01 
0.422800 1 2f2 Rx d 2 12 01 
0.423000 1 3c8 Rx d 8 01 00 00 00 00 00 00 00 
0.423200 1 4f3 Rx d 4 00 00 00 00 
0.423300 1 213 Rx d 2 58 6d 
0.423600 1 712 Rx d 8 03 2a 4c 0b 64 0b 6a 0b 
0.423800 1 82 Rx d 8 00 7f ff 80 ff 03 00 80 
0.424100 1 261 Rx d 8 2a 2b 39 02 80 5c a2 04 
0.424300 1 285 Rx d 8 04 53 93 47 8b 00 00 00 
0.424500 1 2d3 Rx d 8 0d 01 75 02 21 08 0e 51 
0.424700 1 359 Rx d 8 0b 7b 53 2f 9b 7b 4a 40 
0.425000 1 129 Rx d 8 04 2d a7 1f 00 20 ff 3f 
0.425200 1 132 Rx d 6 ec 88 f7 ff 27 40 
0.425400 1 243 Rx d 8 03 00 00 00 21 52 0e 00 
0.425700 1 234 Rx d 8 1c b0 01 36 d9 04 c0 3b 
0.425900 1 23e Rx d 8 f4 01 3a e0 fa fc ff 44 
0.426100 1 221 Rx d 8 40 41 05 05 00 50 31 2f 
0.426300 1 249 Rx d 4 5e 09 00 00 
0.426500 1 2f1 Rx d 8 2e 00 40 22 c4 00 50 04 
0.426800 1 3a2 Rx d 8 01 10 20 00 07 f0 ff 00 
0.427000 1 401 Rx d 8 16 2a 75 81 83 81 ff 80 
0.427300 1 4e2 Rx d 8 01 c9 06 00 00 00 a8 28 
0.427500 1 553 Rx d 8 00 00 00 00 00 00 a0 f8 
0.427900 1 2aa Rx d 3 2f a0 7b 
0.429000 1 545 Rx d 8 01 00 00 00 00 10 c0 1b 
0.429600 1 142 Rx d 8 01 00 40 0a c0 1b 00 00 
0.430600 1 38a Rx d 8 01 00 00 00 00 00 00 00 
0.431300 1 39d Rx d 5 ff 57 e1 27 00 
0.431600 1 552 Rx d 8 00 00 00 00 00 00 a0 f7 
0.432000 1 2e1 Rx d 8 02 6c 7f 02 3f 63 00 00 
0.432900 1 383 Rx d 8 ab 18 51 00 3f d0 00 0a 
0.434000 1 788 Rx d 8 f4 d4 a1 63 00 00 80 00 
0.434700 1 132 Rx d 6 ea 88 f7 ff 28 40 
0.434900 1 129 Rx d 8 b2 2e a7 1f ff 1f ff 3f 
0.435200 1 201 Rx d 8 82 02 00 00 00 00 98 3b 
0.435400 1 263 Rx d 8 03 00 00 00 00 00 00 40 
0.437000 1 3f5 Rx d 8 00 00 3d 08 80 04 00 00 
0.437700 1 39a Rx d 8 fd fd fd fd fd 01 00 00 
0.437900 1 3c9 Rx d 8 0a 98 00 05 01 01 00 00 
0.438600 1 422 Rx d 6 70 00 10 00 00 00 
0.438900 1 423 Rx d 7 00 00 00 00 08 00 00 
0.439100 1 22b Rx d 8 ff ff ff ff ff ff ff ff 
0.439400 1 3ae Rx d 8 00 40 00 08 00 00 a1 ea 
0.440000 1 261 Rx d 8 c3 4e 0a 00 00 40 b5 06 
0.440200 1 288 Rx d 8 03 16 54 8c 80 80 b1 34 
0.440500 1 2c1 Rx d 8 0b 17 13 00 00 00 00 00 
0.440700 1 677 Rx d 8 01 00 00 00 00 00 00 00 
0.442000 1 3a1 Rx d 8 eb 88 40 83 3e 00 50 84 
0.443800 1 2c7 Rx d 8 00 00 00 00 00 00 4b ff 
0.444000 1 2a6 Rx d 8 00 00 6a 18 00 00 00 00 
0.444300 1 2a7 Rx d 8 00 00 00 00 00 7c 05 84 
0.444500 1 381 Rx d 8 0c 20 00 19 99 c0 00 06 
0.444700 1 219 Rx d 7 01 80 ff ff ff f9 0f 
0.445000 1 129 Rx d 8 2a 2f a7 1f 00 20 ff 3f 
0.445200 1 132 Rx d 6 f2 88 f7 ff 28 40 
0.445400 1 243 Rx d 8 04 d8 f1 ff fd 7f 70 73 
0.445600 1 2c2 Rx d 8 20 40 80 20 01 00 00 fe 
0.445900 1 2c3 Rx d 8 55 23 aa c6 03 00 6c a5 
0.446100 1 401 Rx d 8 17 2a dc 80 ef 80 36 81 
0.446400 1 719 Rx d 8 14 00 00 00 00 00 00 00 
0.446600 1 798 Rx d 8 ca e3 76 40 18 01 a0 c8 
0.447200 1 22a Rx d 4 00 00 f9 15 
0.447900 1 2d1 Rx d 2 7f 01 
0.448100 1 2e1 Rx d 8 fb 19 e4 99 9b d7 09 00 
0.451600 1 2f9 Rx d 8 b0 fb 07 08 00 00 00 00 
0.452000 1 2a8 Rx d 8 02 10 00 00 06 00 e0 a2 
0.454600 1 3a8 Rx d 8 00 ff 00 7f 00 00 00 00 
0.454900 1 129 Rx d 8 a6 20 a7 1f ff 1f ff 3f 
0.455100 1 132 Rx d 6 f9 88 f8 ff 29 40 
0.455300 1 263 Rx d 8 04 00 00 00 30 00 00 00 
0.455500 1 3c2 Rx d 8 29 55 00 00 00 00 00 80 
0.455800 1 45a Rx d 8 fd 07 f8 ff 03 00 1e 00 
0.456000 1 261 Rx d 8 24 f2 cf 4d 00 40 c4 2c 
0.456600 1 3a2 Rx d 8 92 29 00 00 20 00 00 00 
0.457900 1 428 Rx d 7 00 00 10 10 00 00 00 
0.458200 1 441 Rx d 8 47 00 b6 c3 58 00 15 96 
0.458600 1 3f9 Rx d 8 07 00 00 00 00 00 00 00 
0.459000 1 421 Rx d 7 00 14 00 00 00 d0 48 
0.459900 1 361 Rx d 5 34 0d 20 03 01 
0.460200 1 201 Rx d 8 83 02 00 00 00 00 b8 3b 
0.460400 1 2bf Rx d 7 0a 00 00 00 00 10 00 
0.460600 1 2c1 Rx d 8 04 00 10 11 0a 13 08 14 
0.460800 1 225 Rx d 4 05 45 d2 00 
0.461500 1 1fa Rx d 3 22 c0 01 
0.462000 1 545 Rx d 8 02 00 13 00 00 00 d0 2f 
0.462300 1 797 Rx d 4 14 09 a0 58 
0.464000 1 2e1 Rx d 8 04 00 00 80 48 44 26 00 
0.464200 1 25b Rx d 8 d3 c0 02 05 6a 86 c0 a5 
0.464700 1 132 Rx d 6 eb 88 f8 ff 27 40 
0.464900 1 129 Rx d 8 b1 21 a7 1f ff 1f ff 3f 
0.465200 1 243 Rx d 8 00 fc cf 8c bb 02 41 29 
0.465400 1 372 Rx d 8 08 00 00 00 00 00 00 00 
0.465700 1 401 Rx d 8 18 2a 80 81 13 81 4b 81 
0.465900 1 23e Rx d 8 f4 01 3a e0 fa fc 0f 54 
0.466100 1 339 Rx d 8 00 11 02 00 00 00 40 0f 
0.466900 1 283 Rx d 6 00 00 00 00 00 00 
0.467800 1 7aa Rx d 8 01 b3 0d b4 0d 00 00 2e 
0.468400 1 3e8 Rx d 8 01 00 00 00 00 00 00 00 
0.468600 1 242 Rx d 4 10 15 04 05 
0.471000 1 2a1 Rx d 6 00 00 98 3a 00 00 
0.471300 1 39d Rx d 5 00 58 e1 27 00 
0.472000 1 261 Rx d 8 05 22 fb c8 9a 42 d0 8c 
0.472600 1 473 Rx d 8 00 00 03 00 00 00 00 00 
0.472800 1 1f9 Rx d 8 00 00 00 00 00 00 00 00 
0.473100 1 324 Rx d 8 3f 94 cb 2d a0 01 00 00 
0.473300 1 253 Rx d 8 01 64 34 85 64 62 00 15 
0.473500 1 3b3 Rx d 8 8c 80 04 30 01 00 a8 80 
0.473800 1 3c0 Rx d 8 02 00 00 00 00 00 00 00 
0.473900 1 5f3 Rx d 3 9e 4b 09 
0.474200 1 2ec Rx d 3 2f a0 bd 
0.474700 1 132 Rx d 6 f3 88 f8 ff 28 40 
0.475000 1 129 Rx d 8 91 22 a7 1f 00 20 ff 3f 
0.475200 1 263 Rx d 8 00 d0 e7 89 d4 07 55 1f 
0.475300 1 229 Rx d 3 f9 07 00 
0.475600 1 234 Rx d 8 37 e1 03 80 43 00 d4 4d 
0.475700 1 249 Rx d 4 e2 0a 00 00 
0.476000 1 2b3 Rx d 8 10 00 00 7c 7c 00 00 00 
0.476200 1 221 Rx d 8 41 01 55 51 01 02 40 4e 
0.476500 1 360 Rx d 8 06 00 00 00 00 00 00 00 
0.476700 1 54f Rx d 8 00 00 00 00 00 00 00 00 
0.478900 1 103 Rx d 8 22 b3 88 04 92 2c 21 02 
0.479100 1 3ae Rx d 8 00 40 00 08 00 00 b1 fa 
0.479600 1 119 Rx d 4 00 00 00 00 
0.479800 1 142 Rx d 8 28 00 02 60 00 00 01 00 
0.480100 1 2e1 Rx d 8 45 80 00 00 82 b1 8a 6a 
0.480300 1 2c1 Rx d 8 50 28 7e 00 00 8a 02 47 
0.480600 1 381 Rx d 8 6d 83 01 f7 00 20 7b 03 
0.480800 1 677 Rx d 8 02 00 00 00 00 00 00 00 
0.481000 1 7a8 Rx d 8 f0 cc 91 63 00 00 82 00 
0.482600 1 102 Rx d 8 22 b3 88 04 8a 0c 21 08 
0.483200 1 113 Rx d 3 01 97 01 
0.483300 1 7f4 Rx d 1 01 
0.483600 1 318 Rx d 8 1a 08 09 08 17 2d 3f d1 
0.483800 1 458 Rx d 7 00 00 00 00 40 00 00 
0.484000 1 7ff Rx d 8 05 09 20 41 20 04 81 00 
0.484800 1 132 Rx d 6 ee 88 f8 ff 27 40 
0.485000 1 123 Rx d 8 01 00 00 00 00 3f 00 00 
0.485300 1 129 Rx d 8 ef 23 a7 1f ff 1f ff 3f 
0.485500 1 201 Rx d 8 f0 d1 01 80 22 8f 41 05 
0.485700 1 243 Rx d 8 01 fc 70 00 73 00 7c 7c 
0.486000 1 401 Rx d 8 19 2a 0f 81 44 81 a5 81 
0.486100 1 409 Rx d 1 00 
0.486300 1 228 Rx d 8 03 16 54 8c 80 80 b1 d4 
0.486700 1 439 Rx d 8 02 00 40 00 00 14 00 00 
0.486900 1 31a Rx d 8 60 fc ff 02 00 00 50 ca 
0.488000 1 2c4 Rx d 8 0c 00 00 00 d8 48 01 00 
0.488200 1 261 Rx d 8 00 10 ba 00 c0 4c e0 ac 
0.488500 1 204 Rx d 8 01 00 00 ff 00 00 00 10 
0.488900 1 22b Rx d 8 ff ff ff ff ff ff ff ff 
0.489100 1 264 Rx d 6 38 00 00 00 a0 00 
0.489300 1 400 Rx d 7 00 e0 fb be ef fb 00 
0.489600 1 224 Rx d 8 04 08 00 48 19 01 10 08 
0.489800 1 122 Rx d 8 01 00 00 00 00 3f 00 00 
0.490000 1 2b4 Rx d 6 64 05 b6 0d c4 00 
0.490200 1 3a2 Rx d 8 a0 85 f2 f3 04 80 44 74 
0.490900 1 3a3 Rx d 8 00 e0 00 00 38 03 fc 01 
0.492000 1 3a1 Rx d 8 e8 42 0d 8a 01 28 62 0c 
0.492300 1 3aa Rx d 8 00 00 00 00 00 00 00 00 
0.492500 1 7b8 Rx d 8 8a 1d 14 c1 34 05 a0 6f 
0.492600 1 24a Rx d 1 03 
0.493400 1 77a Rx d 8 00 bd 20 00 e3 0c 5f 61 
0.493600 1 78a Rx d 8 01 00 02 00 66 06 65 06 
0.494700 1 132 Rx d 6 f2 88 f8 ff 29 40 
0.495000 1 129 Rx d 8 69 24 a7 1f ff 1f ff 3f 
0.495200 1 263 Rx d 8 01 d0 c7 a9 9c c7 54 1f 
0.495400 1 545 Rx d 8 f0 00 27 60 9e d9 e9 21 
0.495700 1 42a Rx d 8 f9 6b fe 9a bf e6 af 55 
0.495900 1 719 Rx d 8 15 00 00 00 00 00 00 00 
0.496200 1 2e1 Rx d 8 10 21 04 00 12 00 20 08 
0.496600 1 272 Rx d 8 09 80 63 00 00 00 00 00 
0.496800 1 382 Rx d 5 42 18 27 00 00 
0.497100 1 393 Rx d 8 09 80 63 00 00 00 00 00 
0.497300 1 682 Rx d 8 00 00 00 40 05 02 a0 c7 
0.498400 1 2e8 Rx d 8 02 10 00 00 06 00 e0 e2 
0.500000 1 2c1 Rx d 8 21 23 0d 0a 02 00 00 00 
0.502100 1 419 Rx d 1 00 
0.502300 1 75d Rx d 8 05 00 00 00 00 00 88 04 
0.502600 1 21d Rx d 8 04 00 35 00 00 00 00 00 
0.502800 1 379 Rx d 8 08 00 00 00 00 00 0d 03 
0.503000 1 20c Rx d 8 00 a0 5a 1e 00 e0 08 00 
0.503300 1 25d Rx d 8 36 41 01 16 04 f0 d8 03 
0.503400 1 41d Rx d 1 00 
0.503600 1 27d Rx d 8 00 00 00 00 00 00 00 00 
0.503900 1 282 Rx d 8 08 00 00 00 fc 23 0b 24 
0.504000 1 20e Rx d 3 13 03 00 
0.504300 1 261 Rx d 8 31 00 e4 00 eb 49 fa 39 
0.504400 1 29d Rx d 5 00 00 00 20 00 
0.504600 1 2bd Rx d 4 00 00 00 00 
0.504800 1 132 Rx d 6 e3 88 f8 ff 28 40 
0.505100 1 129 Rx d 8 ba 25 a7 1f 01 20 ff 3f 
0.505300 1 243 Rx d 8 02 d4 41 12 00 2f 00 00 
0.505500 1 340 Rx d 8 02 00 00 00 00 00 00 00 
0.505800 1 3c2 Rx d 8 00 55 55 55 00 00 59 45 
0.506000 1 401 Rx d 8 1a 2a a7 81 25 81 05 81 
0.506300 1 40a Rx d 8 01 00 01 00 00 00 50 60 
0.506500 1 23e Rx d 8 f4 01 3a e0 fa fc 1f 64 
0.506700 1 43d Rx d 6 00 00 ff 1f 40 00 
0.506900 1 448 Rx d 7 00 00 10 10 00 00 00 
0.507200 1 45a Rx d 8 a0 c9 c9 c9 3f 4c 00 70 
0.507400 1 49d Rx d 7 00 00 00 00 00 00 00 
0.508000 1 441 Rx d 8 63 85 89 00 32 00 18 24 
0.508900 1 4e3 Rx d 8 02 7e 00 00 00 00 a8 03 
0.509500 1 139 Rx d 1 00 
0.510000 1 201 Rx d 8 01 04 18 01 00 00 80 c4 
0.510600 1 1f8 Rx d 4 00 00 00 00 
0.511300 1 39d Rx d 5 01 59 e1 27 00 
0.512000 1 2e1 Rx d 8 29 ca 2d 9d 1f 28 00 00 
0.514700 1 132 Rx d 6 f7 88 f7 ff 27 40 
0.514900 1 129 Rx d 8 a4 26 a7 1f ff 1f ff 3f 
0.515200 1 241 Rx d 7 28 28 0c 0a 0a 53 00 
0.515400 1 263 Rx d 8 02 00 00 00 00 00 00 00 
0.515600 1 343 Rx d 8 00 92 64 7e 9e 00 00 00 
0.515900 1 789 Rx d 4 54 11 b0 17 
0.516100 1 381 Rx d 8 8e ef fb 51 01 88 46 00 
0.516600 1 37a Rx d 8 00 00 00 00 00 00 00 00 
0.517600 1 289 Rx d 8 b0 08 03 c2 94 00 3d 0f 
0.519100 1 3ae Rx d 8 00 40 00 08 00 00 c1 0a 
0.519400 1 420 Rx d 8 28 01 40 4b 00 00 00 01 
0.520100 1 261 Rx d 8 2a 2b 39 02 80 5c 02 64 
0.520300 1 2c1 Rx d 8 02 0d 06 05 00 d0 92 c1 
0.520500 1 677 Rx d 8 03 00 00 00 00 00 00 00 
0.520900 1 3c3 Rx d 8 55 55 55 01 00 80 43 00 
0.521100 1 323 Rx d 5 3b 14 21 02 02 
0.521600 1 4f Rx d 8 71 94 5c 91 af 5b 67 1e 
0.521800 1 333 Rx d 5 04 10 e8 07 00 
0.522100 1 212 Rx d 8 58 04 00 00 82 ff 77 62 
0.522300 1 252 Rx d 8 00 00 83 06 00 c8 16 00 
0.522500 1 292 Rx d 8 61 c2 c9 e7 98 01 00 00 
0.522800 1 2d2 Rx d 8 9a 29 55 4e 00 00 a1 01 
0.522900 1 2f2 Rx d 2 12 01 
0.523100 1 334 Rx d 8 bf 3f 0a 04 ff 01 d1 14 
0.523400 1 3a2 Rx d 8 01 10 20 00 07 f0 ff 00 
0.523500 1 3bc Rx d 4 00 00 00 00 
0.523800 1 359 Rx d 8 bc 3f 00 00 0a 00 00 1c 
0.524000 1 3c8 Rx d 8 02 00 00 00 00 00 00 00 
0.524300 1 3fd Rx d 8 00 00 00 3c 20 00 01 80 
0.524500 1 712 Rx d 8 04 00 00 00 00 00 00 00 
0.524800 1 4e2 Rx d 8 02 38 05 00 00 00 28 25 
0.525000 1 129 Rx d 8 77 27 a7 1f 01 20 ff 3f 
0.525200 1 132 Rx d 6 ea 88 f7 ff 25 40 
0.525400 1 243 Rx d 8 03 00 00 00 21 52 0e 00 
0.525700 1 234 Rx d 8 1c b0 01 36 d9 04 e0 5b 
0.525800 1 249 Rx d 4 28 0b 00 00 
0.526100 1 2f1 Rx d 8 0f 9d 19 9b 98 83 39 00 
0.526300 1 221 Rx d 8 40 41 05 05 00 50 51 4f 
0.526600 1 372 Rx d 8 09 00 00 00 00 f8 3f 00 
0.526800 1 401 Rx d 8 1b 2a e7 80 3d 81 6f 81 
0.527000 1 553 Rx d 8 00 00 00 00 00 00 b0 08 
0.527900 1 2aa Rx d 3 2f b0 8b 
0.528100 1 2e1 Rx d 8 02 6c 7f 02 3f 63 00 00 
0.528400 1 545 Rx d 8 01 00 00 00 00 10 f0 4b 
0.529600 1 142 Rx d 8 01 00 40 0a c0 1b 00 00 
0.530600 1 38a Rx d 8 03 00 00 00 00 00 00 00 
0.531600 1 552 Rx d 8 00 00 00 00 00 00 b0 07 
0.532900 1 383 Rx d 8 ab 18 51 00 3f d0 00 0a 
0.534000 1 788 Rx d 8 01 00 00 00 ff a1 c8 13 
0.534700 1 132 Rx d 6 f0 88 f7 ff 24 40 
0.534900 1 129 Rx d 8 a0 28 a7 1f 01 20 ff 3f 
0.535200 1 201 Rx d 8 82 02 00 00 00 00 98 3b 
0.535400 1 263 Rx d 8 03 00 00 00 00 00 00 40 
0.535700 1 2b3 Rx d 8 00 99 94 7c 99 8e 77 86 
0.536000 1 261 Rx d 8 c3 4e 0a 00 00 40 15 66 
0.537000 1 3f5 Rx d 8 00 00 3d 08 80 04 00 00 
0.537700 1 39a Rx d 8 fc fd fd fd fd fd fd 01 
0.537900 1 7aa Rx d 8 62 08 85 f9 3b 07 21 00 
0.538600 1 422 Rx d 6 70 00 10 00 00 00 
0.538900 1 423 Rx d 7 00 00 00 00 08 00 00 
0.539100 1 22b Rx d 8 ff ff ff ff ff ff ff ff 
0.540000 1 2c1 Rx d 8 0b 17 13 00 00 00 00 00 
0.540300 1 288 Rx d 8 03 16 54 8c 80 80 c1 44 
0.542000 1 3a1 Rx d 8 eb 88 40 81 3e 00 70 a2 
0.543800 1 2c7 Rx d 8 00 00 00 00 00 00 4b ff 
0.544000 1 2a6 Rx d 8 00 00 6a 18 00 00 00 00 
0.544300 1 2a7 Rx d 8 00 00 00 00 00 7c 05 84 
0.544500 1 2e1 Rx d 8 fb 19 e4 99 9b d9 09 00 
0.544700 1 219 Rx d 7 02 80 ff ff ff fa 0f 
0.545000 1 129 Rx d 8 58 29 a7 1f 00 20 ff 3f 
0.545200 1 132 Rx d 6 f8 88 f7 ff 27 40 
0.545400 1 243 Rx d 8 04 d8 f1 ff fd 7f 70 73 
0.545600 1 2c3 Rx d 8 00 00 40 20 01 00 40 ff 
0.545900 1 2c2 Rx d 8 55 63 a9 c6 03 00 6c a5 
0.546100 1 34a Rx d 8 02 07 00 00 00 00 00 90 
0.546300 1 23e Rx d 8 f4 01 3a e0 fa fc 2f 74 
0.546600 1 401 Rx d 8 1c 2a 62 81 4c 81 5b 81 
0.546800 1 43b Rx d 8 00 7f 00 ff 00 00 00 00 
0.547100 1 719 Rx d 8 16 00 00 00 00 00 00 00 
0.547300 1 798 Rx d 8 8b 72 48 47 1a 09 b0 0b 
0.547500 1 22a Rx d 4 00 00 f9 15 
0.547900 1 2d1 Rx d 2 7f 01 
0.551300 1 39d Rx d 5 02 5a e1 27 00 
0.551600 1 2f9 Rx d 8 b0 fb 07 10 00 00 00 00 
0.552000 1 261 Rx d 8 24 f2 cf 4d 00 40 24 8c 
0.552200 1 2a8 Rx d 8 02 10 00 00 06 00 f0 b2 
0.552500 1 381 Rx d 8 cf 73 37 64 00 00 3b 06 
0.552700 1 709 Rx d 8 01 80 80 80 80 80 80 80 
0.552900 1 2e3 Rx d 7 94 12 62 00 1c 06 00 
0.554400 1 3cc Rx d 8 03 11 43 19 00 0e 09 00 
0.554700 1 2e2 Rx d 8 00 00 00 bf 02 0b 00 40 
0.554900 1 129 Rx d 8 2a 2a a7 1f 01 20 ff 3f 
0.555100 1 132 Rx d 6 e8 88 f8 ff 27 40 
0.555300 1 263 Rx d 8 04 00 00 00 30 08 00 00 
0.555600 1 3c2 Rx d 8 29 55 00 00 00 00 00 80 
0.555800 1 3a2 Rx d 8 92 29 00 00 20 00 00 00 
0.556100 1 45a Rx d 8 fd 07 f8 ff 03 00 1e 00 
0.558000 1 428 Rx d 7 00 00 10 10 00 00 00 
0.558200 1 441 Rx d 8 47 00 b6 c3 58 00 1d 9e 
0.558600 1 3f9 Rx d 8 08 00 00 00 00 00 00 00 
0.559000 1 421 Rx d 7 00 14 00 00 00 d0 48 
0.559200 1 3ae Rx d 8 00 40 00 08 00 00 d1 1a 
0.560000 1 737 Rx d 7 00 00 00 00 e0 f0 80 
0.560200 1 201 Rx d 8 83 02 00 00 00 00 b8 3b 
0.560500 1 2c1 Rx d 8 04 00 10 11 0a 13 08 14 
0.560700 1 2e1 Rx d 8 04 00 00 80 48 44 26 00 
0.560900 1 225 Rx d 4 05 45 d2 00 
0.561100 1 545 Rx d 8 02 00 14 00 00 00 00 60 
0.561400 1 677 Rx d 8 04 00 00 00 00 00 00 00 
0.561600 1 718 Rx d 7 00 00 00 00 00 00 00 
0.561700 1 1fa Rx d 3 22 c0 01 
0.562300 1 797 Rx d 4 14 09 b0 68 
0.564700 1 132 Rx d 6 f0 88 f7 ff 25 40 
0.564900 1 129 Rx d 8 db 2b a7 1f 01 20 ff 3f 
0.565200 1 243 Rx d 8 00 fc cf 8c bb 02 41 29 
0.565400 1 25b Rx d 8 d3 c0 02 05 6a 86 d0 b5 
0.565600 1 401 Rx d 8 1d 2a 8c 81 54 81 6b 81 
0.565900 1 339 Rx d 8 00 11 02 00 00 00 40 0f 
0.566900 1 283 Rx d 6 00 00 00 00 00 00 
0.568000 1 261 Rx d 8 05 22 fb c8 9a 42 30 ec 
0.568400 1 3e8 Rx d 8 02 00 00 00 00 00 00 00 
0.568600 1 242 Rx d 4 10 15 04 05 
0.571000 1 2a1 Rx d 6 00 00 98 3a 00 00 
0.571200 1 3bb Rx d 3 14 0f 14 
0.571500 1 2f3 Rx d 8 0e 0e 0b 00 00 20 00 00 
0.571700 1 273 Rx d 8 81 e1 10 00 3d 00 10 01 
0.571900 1 33a Rx d 8 92 34 b3 db fd ff 03 45 
0.572700 1 1f9 Rx d 8 00 00 00 00 00 00 00 00 
0.572900 1 3fd Rx d 8 01 00 02 00 00 08 12 80 
0.573200 1 3c0 Rx d 8 03 00 00 00 00 00 00 00 
0.574200 1 2ec Rx d 3 2f b0 cd 
0.574700 1 132 Rx d 6 f2 88 f8 ff 27 40 
0.575000 1 129 Rx d 8 bb 2c a7 1f 01 20 ff 3f 
0.575200 1 263 Rx d 8 00 d0 e7 89 d4 07 55 1f 
0.575300 1 229 Rx d 3 4c 08 00 
0.575600 1 234 Rx d 8 36 e1 03 80 43 00 f4 6c 
0.575700 1 249 Rx d 4 3a 0c 00 00 
0.576000 1 360 Rx d 8 07 00 00 00 00 00 00 00 
0.576200 1 221 Rx d 8 41 01 55 51 01 02 60 6e 
0.576500 1 2e1 Rx d 8 45 80 00 00 82 b1 8a 6a 
0.576700 1 54f Rx d 8 00 00 00 00 00 00 00 00 
0.576900 1 708 Rx d 5 30 22 0d 00 00 
0.578900 1 103 Rx d 8 22 b3 88 04 92 2c 21 02 
0.579600 1 119 Rx d 4 00 00 00 00 
0.579800 1 142 Rx d 8 28 00 02 60 00 00 01 00 
0.580000 1 2c1 Rx d 8 50 28 7e 00 00 8a 02 47 
0.580200 1 739 Rx d 5 28 06 1f 01 00 
0.580500 1 7a8 Rx d 8 01 00 00 00 ff a1 c8 13 
0.582600 1 102 Rx d 8 22 b3 88 04 8c 0c 21 08 
0.583400 1 52f Rx d 8 00 06 59 b2 e3 22 71 80 
0.583700 1 348 Rx d 8 16 00 00 01 d1 08 01 10 
0.583800 1 528 Rx d 4 6a 8a b3 16 
0.584100 1 261 Rx d 8 00 10 bb 00 c0 4c 40 0d 
0.584200 1 3ed Rx d 1 00 
0.584400 1 414 Rx d 8 12 20 20 20 20 20 20 20 
0.584600 1 113 Rx d 3 01 97 01 
0.584800 1 318 Rx d 8 1a 08 0a 08 17 2d 21 b4 
0.585000 1 123 Rx d 8 00 00 12 92 d2 00 00 80 
0.585300 1 129 Rx d 8 a9 2d a7 1f 01 20 ff 3f 
0.585500 1 132 Rx d 6 f1 88 f7 ff 25 40 
0.585700 1 201 Rx d 8 f0 d1 01 80 22 8f 41 05 
0.585900 1 243 Rx d 8 01 fc 70 00 73 00 7c 7c 
0.586200 1 320 Rx d 8 03 00 00 00 00 00 00 00 
0.586400 1 228 Rx d 8 03 16 54 8c 80 80 c1 e4 
0.586700 1 372 Rx d 8 0a 01 40 06 00 00 00 82 
0.586900 1 23e Rx d 8 f4 01 3a e0 fa fc 3f 84 
0.587100 1 401 Rx d 8 1e 2a 3b 81 b0 81 2b 81 
0.587400 1 405 Rx d 8 12 43 32 35 36 38 32 33 
0.587600 1 439 Rx d 8 02 00 40 00 00 14 00 00 
0.587900 1 3ae Rx d 8 00 40 00 08 00 00 e0 29 
0.588100 1 381 Rx d 8 30 00 41 de 42 4c 00 60 
0.588300 1 2c4 Rx d 8 6d 80 00 02 00 00 00 00 
0.588600 1 55a Rx d 8 01 00 00 00 00 00 00 00 
0.588800 1 204 Rx d 8 01 00 00 ff 00 00 00 10 
0.589100 1 22b Rx d 8 ff ff ff ff ff ff ff ff 
0.589300 1 264 Rx d 6 38 00 00 00 a0 00 
0.589500 1 224 Rx d 8 04 08 00 48 19 01 10 08 
0.589800 1 122 Rx d 8 00 00 12 92 12 00 00 00 
0.590000 1 2b4 Rx d 6 61 05 b6 0d c6 00 
0.590200 1 39b Rx d 8 00 06 df e0 b0 c8 17 f2 
0.590400 1 3a2 Rx d 8 a0 85 72 f5 04 80 44 74 
0.590700 1 400 Rx d 7 00 e0 fb be ef fb 00 
0.590900 1 38d Rx d 8 56 13 aa aa aa 24 49 02 
0.591100 1 3a3 Rx d 8 00 e0 00 00 38 03 fc 01 
0.591200 1 409 Rx d 1 00 
0.591400 1 666 Rx d 4 00 00 a0 00 
0.591500 1 7f4 Rx d 1 01 
0.591800 1 7ff Rx d 8 06 84 32 00 00 00 08 c0 
0.592000 1 458 Rx d 7 00 00 00 00 40 00 00 
0.592200 1 2e1 Rx d 8 10 21 04 00 12 00 20 08 
0.592500 1 3a1 Rx d 8 e8 42 0d 8a 01 28 82 2c 
0.592700 1 7b8 Rx d 8 3b 0c 30 8d 81 06 b0 55 
0.592900 1 7f1 Rx d 7 01 00 00 00 00 08 00 
0.593400 1 78a Rx d 8 01 00 03 00 a6 04 7a 02 
0.594000 1 545 Rx d 8 40 01 27 90 9e dc 19 d5 
0.594200 1 39d Rx d 5 03 5b e1 27 00 
0.594700 1 132 Rx d 6 e7 88 f8 ff 28 40 
0.595000 1 129 Rx d 8 db 2e a7 1f 00 20 ff 3f 
0.595200 1 263 Rx d 8 01 d0 c7 a9 9c c7 54 1f 
0.595400 1 2b3 Rx d 8 01 93 93 98 7e 93 93 96 
0.595700 1 719 Rx d 8 17 00 00 00 00 00 00 00 
0.596600 1 272 Rx d 8 06 00 fc d0 07 b0 07 08 
0.596900 1 682 Rx d 8 00 00 00 40 05 02 b0 d7 
0.597100 1 393 Rx d 8 06 00 fa d0 07 b0 07 08 
0.598400 1 2e8 Rx d 8 02 10 00 00 06 00 f0 f2 
0.600000 1 261 Rx d 8 31 00 f4 00 eb 49 5a a9 
0.600200 1 2c1 Rx d 8 21 23 0d 0a 02 00 00 00 
0.600500 1 677 Rx d 8 00 00 00 00 00 00 00 00 
0.602000 1 41d Rx d 1 00 
0.602100 1 419 Rx d 1 00 
0.602400 1 21d Rx d 8 04 00 35 00 00 00 00 00 
0.602600 1 379 Rx d 8 09 00 00 00 00 00 0d 03 
0.602900 1 25d Rx d 8 36 41 01 16 04 f0 d8 03 
0.603100 1 20c Rx d 8 00 a0 5a 1e 00 e0 08 00 
0.603300 1 43d Rx d 6 00 00 ff 1f 40 00 
0.603600 1 27d Rx d 8 00 00 00 00 00 00 00 00 
0.603800 1 282 Rx d 8 08 00 00 00 fc 23 0b 24 
0.604000 1 20e Rx d 3 14 04 00 
0.604200 1 29d Rx d 5 00 00 00 20 00 
0.604300 1 2bd Rx d 4 00 00 00 00 
0.604600 1 340 Rx d 8 03 01 00 00 00 00 00 00 
0.604800 1 132 Rx d 6 f1 88 f8 ff 27 40 
0.605000 1 129 Rx d 8 43 2f a7 1f ff 1f ff 3f 
0.605200 1 243 Rx d 8 02 d4 41 12 00 2f 00 00 
0.605500 1 3c2 Rx d 8 00 55 55 55 00 00 59 45 
0.605700 1 3e2 Rx d 7 00 00 80 0a 10 c0 04 
0.605900 1 401 Rx d 8 1f 2a 09 81 4b 81 31 81 
0.606200 1 448 Rx d 7 00 00 10 10 00 00 00 
0.606400 1 45a Rx d 8 a0 c9 c9 c9 3f 4c 00 70 
0.606600 1 49d Rx d 7 00 00 00 00 00 00 00 
0.608000 1 2e1 Rx d 8 29 ca 2d 9d 1f 28 00 00 
0.608300 1 441 Rx d 8 63 85 89 00 32 00 20 2c 
0.608900 1 4e3 Rx d 8 03 59 00 fb 0f 00 a8 0c 
0.609500 1 139 Rx d 1 00 
0.610000 1 201 Rx d 8 01 04 18 01 00 00 80 c4 
0.610600 1 1f8 Rx d 4 00 00 00 00 
0.614700 1 132 Rx d 6 fc 88 f7 ff 25 40 
0.615000 1 129 Rx d 8 62 20 a7 1f 01 20 ff 3f 
0.615200 1 241 Rx d 7 28 28 0c 0a 0a 53 00 
0.615400 1 263 Rx d 8 02 00 00 00 00 00 00 00 
0.615700 1 343 Rx d 8 00 92 64 ae 9e 00 00 00 
0.615900 1 789 Rx d 4 54 11 c0 27 
0.616100 1 261 Rx d 8 2a 2b 39 02 80 5c 62 c4 
0.616600 1 37a Rx d 8 01 00 00 00 00 00 00 00 
0.617600 1 289 Rx d 8 b0 08 03 02 88 00 3d 0f 
0.618400 1 7aa Rx d 8 23 82 f9 35 07 13 00 1c 
0.619200 1 420 Rx d 8 28 01 40 4b 00 00 80 01 
0.620000 1 2c1 Rx d 8 02 0d 06 05 00 d0 92 c1 
0.620900 1 3c3 Rx d 8 00 00 00 00 00 45 00 00 
0.621100 1 3e3 Rx d 4 00 00 00 00 
0.621300 1 294 Rx d 8 14 c1 40 00 00 00 00 00 
0.621600 1 3a2 Rx d 8 01 10 20 00 07 f0 ff 00 
0.621900 1 2d2 Rx d 8 9a 29 55 4e 00 00 a1 01 
0.622100 1 212 Rx d 8 58 04 00 00 82 ff 77 62 
0.622400 1 252 Rx d 8 00 00 83 06 00 c8 16 00 
0.622600 1 292 Rx d 8 61 c2 c9 e7 98 01 00 00 
0.622700 1 2f2 Rx d 2 12 01 
0.623000 1 312 Rx d 8 6d 82 c7 14 1c 8d 00 00 
0.623200 1 392 Rx d 8 01 1c a9 67 10 27 02 00 
0.623400 1 3c8 Rx d 8 03 00 00 00 00 00 00 00 
0.623700 1 359 Rx d 8 3d 00 00 00 00 00 00 00 
0.623900 1 3fd Rx d 8 02 00 00 00 00 00 00 90 
0.624200 1 2e1 Rx d 8 02 6c 7f 02 3f 63 00 00 
0.624400 1 381 Rx d 8 11 36 4b 00 23 00 00 a0 
0.624700 1 3ae Rx d 8 00 40 00 08 00 00 f0 39 
0.624900 1 129 Rx d 8 d8 21 a7 1f 00 20 ff 3f 
0.625100 1 132 Rx d 6 f3 88 f8 ff 28 40 
0.625300 1 243 Rx d 8 03 00 00 00 21 52 0e 00 
0.625600 1 234 Rx d 8 1b b0 01 36 d9 04 00 7a 
0.625700 1 249 Rx d 4 13 0d 00 00 
0.626000 1 23e Rx d 8 f4 01 3a e0 fa fc 4f 94 
0.626200 1 221 Rx d 8 40 41 05 05 00 50 71 6f 
0.626500 1 2f1 Rx d 8 10 01 00 00 00 00 00 00 
0.626700 1 401 Rx d 8 20 2a de 80 fe 80 92 81 
0.626900 1 4e2 Rx d 8 03 49 00 00 00 00 a8 0c 
0.627200 1 545 Rx d 8 01 00 00 00 00 10 20 7b 
0.627400 1 553 Rx d 8 00 00 00 00 00 00 c0 18 
0.627700 1 712 Rx d 8 05 00 00 00 00 00 00 00 
0.627900 1 2aa Rx d 3 2f c0 9b 
0.629600 1 142 Rx d 8 01 00 40 0a c0 1b 00 00 
0.630600 1 38a Rx d 8 00 00 00 00 00 00 00 00 
0.631300 1 39d Rx d 5 04 5c e1 27 00 
0.631600 1 552 Rx d 8 00 00 00 00 00 00 c0 17 
0.632000 1 261 Rx d 8 c3 4e 0a 00 00 40 75 c6 
0.632900 1 383 Rx d 8 ab 18 51 00 3f d0 00 0a 
0.634000 1 788 Rx d 8 02 40 ce 07 00 00 00 00 
0.634700 1 132 Rx d 6 f3 88 f7 ff 27 40 
0.634900 1 129 Rx d 8 91 22 a7 1f 00 20 ff 3f 
0.635200 1 201 Rx d 8 82 02 00 00 00 00 98 3b 
0.635400 1 263 Rx d 8 03 00 00 00 00 00 00 40 
0.637000 1 3f5 Rx d 8 00 00 3d 08 80 04 00 00 
0.637700 1 39a Rx d 8 fd fd fd fd fd 01 00 00 
0.638600 1 422 Rx d 6 70 00 10 00 00 00 
0.638700 1 362 Rx d 3 00 00 00 
0.639000 1 22b Rx d 8 ff ff ff ff ff ff ff ff 
0.639200 1 423 Rx d 7 00 00 00 00 08 00 00 
0.640000 1 2e1 Rx d 8 fb 19 e1 99 9b d7 09 00 
0.640200 1 288 Rx d 8 03 16 54 8c 80 80 d1 54 
0.640500 1 2c1 Rx d 8 0b 17 13 00 00 00 00 00 
0.640700 1 677 Rx d 8 01 00 00 00 00 00 00 00 
0.642000 1 3a1 Rx d 8 eb 88 40 7f 3e 00 90 c0 
0.643800 1 2c7 Rx d 8 00 00 00 00 00 00 4b ff 
0.644000 1 2a6 Rx d 8 00 00 6a 18 00 00 00 00 
0.644300 1 2a7 Rx d 8 00 00 00 00 00 7c 05 84 
0.644500 1 366 Rx d 8 14 05 00 00 7e 0d bf 3d 
0.644700 1 219 Rx d 7 03 80 ff ff ff fb 0f 
0.645000 1 129 Rx d 8 2b 23 a7 1f 01 20 ff 3f 
0.645200 1 132 Rx d 6 f3 88 f7 ff 28 40 
0.645400 1 232 Rx d 8 4a 00 e0 09 e0 04 00 00 
0.645600 1 243 Rx d 8 04 d8 f1 ff fd 7f 70 73 
0.645900 1 2c2 Rx d 8 20 40 80 20 01 00 00 fe 
0.646100 1 2c3 Rx d 8 55 23 aa c6 03 00 6c a5 
0.646300 1 372 Rx d 8 0b f1 ff 37 00 65 66 00 
0.646600 1 401 Rx d 8 21 2a e6 80 06 81 e4 81 
0.646800 1 719 Rx d 8 00 03 14 14 14 20 24 00 
0.647000 1 798 Rx d 8 ec ca 61 0e 37 0c c0 d4 
0.647300 1 22a Rx d 4 00 00 f9 15 
0.647900 1 2d1 Rx d 2 7f 01 
0.648100 1 261 Rx d 8 24 f2 cf 4d 00 40 84 ec 
0.651600 1 2f9 Rx d 8 b0 fb 07 18 00 00 00 00 
0.652000 1 2a8 Rx d 8 02 10 00 00 06 00 00 c2 
0.654700 1 3a8 Rx d 8 01 02 00 00 00 03 ff 00 
0.654900 1 129 Rx d 8 69 24 a7 1f ff 1f ff 3f 
0.655100 1 132 Rx d 6 e9 88 f7 ff 28 40 
0.655300 1 263 Rx d 8 04 00 00 00 30 08 00 00 
0.655600 1 2b3 Rx d 8 c2 50 00 00 00 00 00 0e 
0.655800 1 3a2 Rx d 8 92 29 00 00 20 00 00 00 
0.656000 1 2e1 Rx d 8 04 00 00 80 48 44 26 00 
0.656300 1 3c2 Rx d 8 29 55 00 00 00 00 00 80 
0.656500 1 45a Rx d 8 fd 07 f8 ff 03 00 1e 00 
0.658000 1 428 Rx d 7 00 00 10 10 00 00 00 
0.658200 1 441 Rx d 8 47 00 b6 c3 58 00 25 a6 
0.658700 1 3f9 Rx d 8 00 00 00 00 00 00 00 00 
0.659000 1 421 Rx d 7 00 14 00 00 00 d0 48 
0.660000 1 2c1 Rx d 8 04 00 10 11 0a 13 08 14 
0.660300 1 201 Rx d 8 83 02 00 00 00 00 b8 3b 
0.660500 1 2bf Rx d 7 0a 00 00 00 00 10 00 
0.660700 1 381 Rx d 8 72 00 32 36 00 40 9c 00 
0.660900 1 225 Rx d 4 05 45 d2 00 
0.661200 1 545 Rx d 8 02 00 15 00 00 00 30 91 
0.661600 1 1fa Rx d 3 22 c0 01 
0.662300 1 797 Rx d 4 14 09 c0 78 
0.664000 1 261 Rx d 8 05 22 fb c8 9a 42 90 4c 
0.664700 1 132 Rx d 6 ed 88 f7 ff 25 40 
0.664900 1 129 Rx d 8 7e 25 a7 1f ff 1f ff 3f 
0.665200 1 243 Rx d 8 00 fc cf 8c bb 02 41 29 
0.665400 1 25b Rx d 8 d3 c0 02 05 6a 86 e0 c5 
0.665600 1 401 Rx d 8 22 2a 3a 81 63 81 5c 81 
0.665900 1 339 Rx d 8 00 11 02 00 00 00 40 0f 
0.666100 1 3ae Rx d 8 00 40 00 08 00 00 00 49 
0.666400 1 23e Rx d 8 f4 01 3a e0 fa fc 5f a4 
0.666900 1 283 Rx d 6 00 00 00 00 00 00 
0.668400 1 3e8 Rx d 8 03 00 00 00 00 00 00 00 
0.668600 1 242 Rx d 4 10 15 04 05 
0.671000 1 2a1 Rx d 6 00 00 98 3a 00 00 
0.671300 1 39d Rx d 5 05 5d e1 27 00 
0.671500 1 61d Rx d 8 07 1b 8e 2e ac 36 0a 14 
0.672000 1 2e1 Rx d 8 45 80 00 00 82 b1 8a 6a 
0.672200 1 238 Rx d 8 f0 27 9c dc 1f 00 76 5e 
0.672700 1 1f9 Rx d 8 00 00 00 00 00 00 00 00 
0.673000 1 3c0 Rx d 8 04 00 00 00 00 00 00 00 
0.674300 1 2ec Rx d 3 2f c0 dd 
0.674700 1 132 Rx d 6 f6 88 f7 ff 28 40 
0.675000 1 129 Rx d 8 a4 26 a7 1f ff 1f ff 3f 
0.675200 1 263 Rx d 8 00 d0 e7 89 d4 07 55 1f 
0.675300 1 229 Rx d 3 a5 09 00 
0.675600 1 234 Rx d 8 37 e1 03 80 43 00 14 8d 
0.675700 1 249 Rx d 4 af 0e 00 00 
0.676000 1 360 Rx d 8 08 00 00 00 00 00 04 00 
0.676200 1 221 Rx d 8 41 01 55 51 01 02 80 8e 
0.676500 1 54f Rx d 8 00 00 00 00 00 00 00 00 
0.678900 1 103 Rx d 8 22 b3 88 04 92 2c 21 02 
0.679600 1 119 Rx d 4 00 00 00 00 
0.679800 1 142 Rx d 8 28 00 02 60 00 00 01 00 
0.680100 1 261 Rx d 8 00 10 bb 00 c0 4c a0 6d 
0.680300 1 2c1 Rx d 8 50 28 7e 00 00 8a 02 47 
0.680600 1 677 Rx d 8 02 00 00 00 00 00 00 00 
0.680800 1 7a8 Rx d 8 02 40 cf 07 00 07 00 00 
0.682600 1 102 Rx d 8 22 b3 88 04 8a 0c 21 08 
0.683200 1 113 Rx d 3 01 97 01 
0.683300 1 7f4 Rx d 1 01 
0.683600 1 7ff Rx d 8 07 20 80 44 40 00 02 20 
0.683800 1 318 Rx d 8 1a 08 0a 08 17 2d 23 b6 
0.684000 1 458 Rx d 7 00 00 00 00 40 00 00 
0.684200 1 409 Rx d 1 00 
0.684800 1 132 Rx d 6 f7 88 f7 ff 29 40 
0.685000 1 123 Rx d 8 01 00 00 00 00 3f 00 00 
0.685300 1 129 Rx d 8 da 27 a7 1f 00 20 ff 3f 
0.685500 1 201 Rx d 8 f0 d1 01 80 22 8f 41 05 
0.685700 1 243 Rx d 8 01 fc 70 00 73 00 7c 7c 
0.686000 1 401 Rx d 8 23 02 c5 81 00 00 00 00 
0.686300 1 228 Rx d 8 03 16 54 8c 80 80 d1 f4 
0.686700 1 439 Rx d 8 02 00 40 00 00 14 00 00 
0.686800 1 3d3 Rx d 3 00 00 00 
0.687100 1 31a Rx d 8 60 fc ff 02 00 00 60 da 
0.687600 1 3a2 Rx d 8 a0 85 72 f5 04 80 44 74 
0.688000 1 2c4 Rx d 8 12 b3 00 b7 0d 6e 55 01 
0.688300 1 2e1 Rx d 8 10 21 04 00 12 00 20 08 
0.688500 1 204 Rx d 8 01 00 00 ff 00 00 00 10 
0.688900 1 22b Rx d 8 ff ff ff ff ff ff ff ff 
0.689100 1 264 Rx d 6 38 00 00 00 a0 00 
0.689300 1 400 Rx d 7 00 e0 fb be ef fb 00 
0.689600 1 224 Rx d 8 04 08 00 48 19 01 10 08 
0.689800 1 122 Rx d 8 01 00 00 00 00 3f 00 00 
0.690000 1 2b4 Rx d 6 63 05 b5 0d c1 00 
0.690300 1 3c4 Rx d 8 1b 00 00 00 00 00 00 00 
0.690900 1 3a3 Rx d 8 00 e0 00 00 38 03 fc 01 
0.692000 1 3a1 Rx d 8 e8 42 0d 8a 01 28 a2 4c 
0.692400 1 78a Rx d 8 01 00 04 00 a1 04 8b 00 
0.692600 1 7b8 Rx d 8 8c 58 61 00 00 00 c0 1f 
0.693000 1 545 Rx d 8 f0 00 27 60 9e d9 49 81 
0.694700 1 132 Rx d 6 f0 88 f8 ff 29 40 
0.695000 1 129 Rx d 8 0d 28 a7 1f 00 20 ff 3f 
0.695200 1 263 Rx d 8 01 d0 c7 a9 9c c7 54 1f 
0.695700 1 42a Rx d 8 f9 6b fe 9a bf e6 af 55 
0.695900 1 719 Rx d 8 01 00 00 00 00 00 00 00 
0.696100 1 261 Rx d 8 31 00 f4 00 eb 49 ba 09 
0.696400 1 381 Rx d 8 13 00 00 00 00 00 00 ff 
0.696700 1 272 Rx d 8 09 80 63 00 00 00 00 00 
0.696900 1 682 Rx d 8 00 00 00 40 05 02 c0 e7 
0.697100 1 393 Rx d 8 09 80 63 00 00 00 00 00 
0.697700 1 7aa Rx d 8 04 00 0f c0 00 1a 00 00 
0.698400 1 2e8 Rx d 8 02 10 00 00 06 00 00 02 
0.700000 1 2c1 Rx d 8 21 23 0d 0a 02 00 00 00 
0.702100 1 419 Rx d 1 00 
0.702300 1 75d Rx d 8 06 00 00 00 00 00 00 00 
0.702600 1 21d Rx d 8 04 00 35 00 00 00 00 00 
0.702800 1 379 Rx d 8 0a 00 00 00 00 00 0d 03 
0.703100 1 20c Rx d 8 00 a0 5a 1e 00 e0 08 00 
0.703300 1 25d Rx d 8 36 41 01 16 04 f0 d8 03 
0.703400 1 41d Rx d 1 00 
0.703700 1 27d Rx d 8 00 00 00 00 00 00 00 00 
0.703900 1 282 Rx d 8 08 00 00 00 fc 23 0b 24 
0.704000 1 20e Rx d 3 15 05 00 
0.704200 1 29d Rx d 5 00 00 00 20 00 
0.704400 1 2bd Rx d 4 00 00 00 00 
0.704600 1 2e1 Rx d 8 29 ca 2d 9d 1f 28 00 00 
0.704900 1 129 Rx d 8 f5 29 a7 1f 01 20 ff 3f 
0.705100 1 132 Rx d 6 f6 88 f7 ff 25 40 
0.705300 1 243 Rx d 8 02 d4 41 12 00 2f 00 00 
0.705600 1 340 Rx d 8 04 00 00 00 00 00 00 00 
0.705800 1 372 Rx d 8 0c ef 7f 8a 0f 00 00 00 
0.706000 1 3ae Rx d 8 00 40 00 08 00 00 10 59 
0.706300 1 3c2 Rx d 8 00 55 55 55 00 00 59 45 
0.706500 1 23e Rx d 8 f4 01 3a e0 fa fc 6f b4 
0.706800 1 40a Rx d 8 01 00 01 00 00 00 60 70 
0.707000 1 43d Rx d 6 00 00 ff 1f 40 00 
0.707200 1 448 Rx d 7 00 00 10 10 00 00 00 
0.707400 1 45a Rx d 8 a0 c9 c9 c9 3f 4c 00 70 
0.707700 1 49d Rx d 7 00 00 00 00 00 00 00 
0.708000 1 441 Rx d 8 63 85 89 00 32 00 28 34 
0.708900 1 4e3 Rx d 8 04 00 00 00 00 00 00 00 
0.709500 1 139 Rx d 1 00 
0.710000 1 201 Rx d 8 01 04 18 01 00 00 80 c4 
0.710600 1 1f8 Rx d 4 00 00 00 00 
0.711300 1 39d Rx d 5 06 5e e1 27 00 
0.712000 1 261 Rx d 8 2a 2b 39 02 80 5c c2 24 
0.714700 1 132 Rx d 6 f1 88 f7 ff 25 40 
0.714900 1 129 Rx d 8 ee 2a a7 1f ff 1f ff 3f 
0.715200 1 241 Rx d 7 28 28 0c 0a 0a 53 00 
0.715400 1 263 Rx d 8 02 00 00 00 00 00 00 00 
0.715600 1 2b3 Rx d 8 03 46 46 11 00 00 80 3c 
0.715900 1 343 Rx d 8 00 92 5c ae 9e 00 00 00 
0.716100 1 789 Rx d 4 54 11 d0 37 
0.716700 1 37a Rx d 8 02 00 00 00 00 00 00 00 
0.717600 1 289 Rx d 8 b0 08 03 c2 a5 00 3d 0f 
0.719200 1 420 Rx d 8 28 01 40 4b 00 00 00 02 
0.720100 1 2e1 Rx d 8 02 6c 7f 02 3f 63 00 00 
0.720300 1 2c1 Rx d 8 02 0d 06 05 00 d0 92 c1 
0.720600 1 677 Rx d 8 03 00 00 00 00 00 00 00 
0.720800 1 3a2 Rx d 8 01 10 20 00 09 f0 ff 00 
0.721000 1 3c3 Rx d 8 55 55 55 01 00 80 43 00 
0.721300 1 1bb Rx d 1 02 
0.721600 1 284 Rx d 8 30 00 00 00 40 08 30 2e 
0.721800 1 25a Rx d 6 ff ff ff ff 00 00 
0.722000 1 212 Rx d 8 58 04 00 00 82 ff 77 62 
0.722300 1 252 Rx d 8 00 00 83 06 00 c8 16 00 
0.722500 1 292 Rx d 8 61 c2 c9 e7 98 01 00 00 
0.722700 1 2d2 Rx d 8 99 29 55 4e 00 00 a1 01 
0.722800 1 2f2 Rx d 2 12 01 
0.723100 1 3c8 Rx d 8 04 00 00 00 00 00 00 00 
0.723600 1 359 Rx d 8 3e 04 00 00 75 f6 b3 8f 
0.724600 1 4e2 Rx d 8 04 0c a0 00 08 80 00 00 
0.724900 1 129 Rx d 8 76 2b a7 1f 00 20 ff 3f 
0.725100 1 132 Rx d 6 e6 88 f8 ff 28 40 
0.725300 1 243 Rx d 8 03 00 00 00 21 52 0e 00 
0.725500 1 234 Rx d 8 1b b0 01 36 d9 04 20 9a 
0.725700 1 249 Rx d 4 ce 0f 00 00 
0.726000 1 2f1 Rx d 8 11 47 00 42 00 69 0d 00 
0.726300 1 221 Rx d 8 40 41 05 05 00 50 91 8f 
0.726500 1 545 Rx d 8 01 00 00 00 00 10 50 ab 
0.726900 1 553 Rx d 8 00 00 00 00 00 00 d0 28 
0.727900 1 2aa Rx d 3 2f d0 ab 
0.728100 1 261 Rx d 8 c3 4e 0a 00 00 40 d5 26 
0.729600 1 142 Rx d 8 01 00 40 0a c0 1b 00 00 
0.730600 1 38a Rx d 8 01 00 00 00 00 00 00 00 
0.731600 1 552 Rx d 8 00 00 00 00 00 00 d0 27 
0.732000 1 381 Rx d 8 14 00 20 00 00 00 00 fe 
0.732900 1 383 Rx d 8 ab 18 51 00 3f d0 00 0a 
0.734000 1 788 Rx d 8 f4 d4 a1 63 00 00 80 00 
0.734700 1 132 Rx d 6 e6 88 f7 ff 27 40 
0.734900 1 129 Rx d 8 bb 2c a7 1f 01 20 ff 3f 
0.735200 1 201 Rx d 8 82 02 00 00 00 00 98 3b 
0.735400 1 263 Rx d 8 03 00 00 00 00 00 00 40 
0.736000 1 2e1 Rx d 8 fb 19 e3 99 9b d7 09 00 
0.737000 1 3f5 Rx d 8 00 00 3d 08 80 04 00 00 
0.737200 1 20a Rx d 6 f6 15 09 82 18 01 
0.737700 1 39a Rx d 8 fc fd fd fd fd fd fd 01 
0.738600 1 422 Rx d 6 70 00 10 00 00 00 
0.738900 1 423 Rx d 7 00 00 00 00 08 00 00 
0.739100 1 22b Rx d 8 ff ff ff ff ff ff ff ff 
0.740000 1 2c1 Rx d 8 0b 17 13 00 00 00 00 00 
0.740300 1 288 Rx d 8 03 16 54 8c 80 80 e1 64 
0.742000 1 7c8 Rx d 8 11 00 00 00 00 00 00 00 
0.742200 1 3a1 Rx d 8 eb 88 40 81 3e 00 b0 e2 
0.743800 1 2c7 Rx d 8 00 00 00 00 00 00 4b ff 
0.744000 1 261 Rx d 8 24 f2 cf 4d 00 40 e4 4c 
0.744300 1 2a6 Rx d 8 00 00 6a 18 00 00 00 00 
0.744500 1 2a7 Rx d 8 00 00 00 00 00 7c 05 84 
0.744700 1 219 Rx d 7 04 74 74 00 00 00 00 
0.744900 1 129 Rx d 8 6d 2d a7 1f ff 1f ff 3f 
0.745200 1 132 Rx d 6 f8 88 f7 ff 27 40 
0.745400 1 243 Rx d 8 04 d8 f1 ff fd 7f 70 73 
0.745600 1 2c3 Rx d 8 00 00 40 20 01 00 40 ff 
0.745900 1 2c2 Rx d 8 55 63 a9 c6 03 00 6c a5 
0.746100 1 23e Rx d 8 f4 01 3a e0 fa fc 7f c4 
0.746300 1 3ae Rx d 8 00 40 00 08 00 00 20 69 
0.746600 1 719 Rx d 8 0e 00 00 00 00 00 00 14 
0.746800 1 798 Rx d 8 05 00 00 00 00 00 d0 81 
0.747300 1 22a Rx d 4 00 00 f9 15 
0.747900 1 2d1 Rx d 2 7f 01 
0.751300 1 39d Rx d 5 07 5f e1 27 00 
0.751600 1 2f9 Rx d 8 b0 fb 07 20 00 00 00 00 
0.752000 1 2e1 Rx d 8 04 00 00 80 48 44 26 00 
0.752300 1 2a8 Rx d 8 02 10 00 00 06 00 10 d2 
0.752900 1 2e3 Rx d 7 06 00 00 00 00 00 00 
0.753600 1 3a2 Rx d 8 92 29 00 00 20 00 00 00 
0.754600 1 2e2 Rx d 8 e2 21 2c 5c 49 59 29 0c 
0.754900 1 129 Rx d 8 db 2e a7 1f 00 20 ff 3f 
0.755100 1 132 Rx d 6 ec 88 f7 ff 29 40 
0.755300 1 263 Rx d 8 04 00 00 00 30 08 00 00 
0.755600 1 3c2 Rx d 8 29 55 00 00 00 00 00 80 
0.755800 1 45a Rx d 8 fd 07 f8 ff 03 00 1e 00 
0.758000 1 428 Rx d 7 00 00 10 10 00 00 00 
0.758200 1 441 Rx d 8 47 00 b6 c3 58 00 2d ae 
0.758700 1 3f9 Rx d 8 01 00 00 00 00 00 00 00 
0.759000 1 421 Rx d 7 00 14 00 00 00 d0 48 
0.759300 1 545 Rx d 8 02 00 16 00 00 00 60 c2 
0.760000 1 301 Rx d 8 1f 00 00 00 f6 71 80 49 
0.760300 1 201 Rx d 8 83 02 00 00 00 00 b8 3b 
0.760500 1 261 Rx d 8 05 22 fb c8 9a 42 f0 ac 
0.760700 1 2c1 Rx d 8 04 00 10 11 0a 13 08 14 
0.760900 1 225 Rx d 4 05 45 d2 00 
0.761100 1 677 Rx d 8 04 00 00 00 00 00 00 00 
0.761400 1 718 Rx d 7 01 00 00 00 00 00 00 
0.761600 1 1fa Rx d 3 22 c0 01 
0.762300 1 797 Rx d 4 14 09 d0 88 
0.764100 1 25b Rx d 8 d3 c0 02 05 6a 86 f0 d5 
0.764700 1 132 Rx d 6 ea 88 f8 ff 25 40 
0.764900 1 129 Rx d 8 87 2f a7 1f 01 20 ff 3f 
0.765200 1 243 Rx d 8 00 fc cf 8c bb 02 41 29 
0.765400 1 372 Rx d 8 0d 32 00 00 00 40 06 89 
0.765800 1 339 Rx d 8 00 11 02 00 00 00 40 0f 
0.766900 1 283 Rx d 6 00 00 00 00 00 00 
0.767900 1 7aa Rx d 8 d5 60 83 0d 90 08 13 00 
0.768100 1 2e1 Rx d 8 45 80 00 00 82 b1 8a 6a 
0.768300 1 381 Rx d 8 d5 f2 46 3f 3a 00 00 01 
0.768600 1 3e8 Rx d 8 04 00 00 00 00 00 00 00 
0.768700 1 242 Rx d 4 10 15 04 05 
0.771000 1 2a1 Rx d 6 00 00 98 3a 00 00 
0.771400 1 285 Rx d 8 41 03 65 01 0d 00 08 00 
0.771600 1 286 Rx d 5 ff ff ff ff 31 
0.772600 1 1f9 Rx d 8 00 00 00 00 00 00 00 00 
0.772900 1 3c0 Rx d 8 05 00 00 00 00 00 00 00 
0.774200 1 2ec Rx d 3 2f d0 ed 
0.774700 1 132 Rx d 6 f9 88 f8 ff 28 40 
0.775000 1 129 Rx d 8 62 20 a7 1f 01 20 ff 3f 
0.775200 1 263 Rx d 8 00 d0 e7 89 d4 07 55 1f 
0.775300 1 229 Rx d 3 f6 0a 00 
0.775600 1 234 Rx d 8 36 e1 03 80 43 00 34 ac 
0.775700 1 249 Rx d 4 9b 00 00 00 
0.776000 1 2b3 Rx d 8 a4 a1 c3 7c f9 08 02 80 
0.776200 1 221 Rx d 8 41 01 55 51 01 02 a0 ae 
0.776400 1 261 Rx d 8 00 10 bc 00 c0 4c 00 ce 
0.776700 1 360 Rx d 8 09 00 00 00 00 00 00 00 
0.776900 1 54f Rx d 8 00 00 00 00 00 00 00 00 
0.778900 1 103 Rx d 8 22 b3 88 04 92 2c 21 02 
0.779600 1 119 Rx d 4 00 00 00 00 
0.779800 1 142 Rx d 8 28 00 02 60 00 00 01 00 
0.780100 1 2c1 Rx d 8 50 28 7e 00 00 8a 02 47 
0.780300 1 7a8 Rx d 8 f0 cc 91 63 00 00 82 00 
0.780600 1 302 Rx d 8 1f 00 00 00 fa 1c 67 6c 
0.782600 1 102 Rx d 8 22 b3 88 04 8a 0c 21 08 
0.783200 1 113 Rx d 3 01 97 01 
0.783300 1 7f4 Rx d 1 01 
0.783600 1 7ff Rx d 8 08 00 00 01 00 00 00 00 
0.783800 1 318 Rx d 8 1a 08 0a 08 17 2d 25 b8 
0.784100 1 2e1 Rx d 8 10 21 04 00 12 00 20 08 
0.784300 1 3ae Rx d 8 00 40 00 08 00 00 30 79 
0.784400 1 409 Rx d 1 00 
0.784700 1 458 Rx d 7 00 00 00 00 40 00 00 
0.784900 1 129 Rx d 8 b1 21 a7 1f ff 1f ff 3f 
0.785100 1 123 Rx d 8 00 00 12 92 d2 00 00 80 
0.785300 1 132 Rx d 6 f8 88 f8 ff 29 40 
0.785600 1 201 Rx d 8 f0 e1 01 80 22 8f 41 05 
0.785800 1 243 Rx d 8 01 fc 70 00 73 00 7c 7c 
0.786000 1 320 Rx d 8 04 00 00 00 00 00 00 00 
0.786300 1 23e Rx d 8 f4 01 3a e0 fa fc 8f d4 
0.786500 1 228 Rx d 8 03 16 54 8c 80 80 e1 04 
0.786700 1 3a2 Rx d 8 a0 85 72 f5 04 80 44 74 
0.787000 1 439 Rx d 8 02 00 40 00 00 14 00 00 
0.788000 1 2c4 Rx d 8 13 9d 00 b5 0d 5a 25 01 
0.788500 1 204 Rx d 8 01 00 00 ff 00 00 00 10 
0.788900 1 22b Rx d 8 ff ff ff ff ff ff ff ff 
0.789100 1 264 Rx d 6 38 00 00 00 a0 00 
0.789400 1 400 Rx d 7 00 e0 fb be ef fb 00 
0.789600 1 224 Rx d 8 04 08 00 48 19 01 10 08 
0.789900 1 122 Rx d 8 00 00 12 92 12 00 00 00 
0.790100 1 2a4 Rx d 8 97 df bc e6 43 1f fc 3c 
0.790300 1 2b4 Rx d 6 61 05 b6 0d c3 00 
0.790500 1 364 Rx d 4 00 82 04 1f 
0.790700 1 3a4 Rx d 8 01 00 00 00 00 00 00 00 
0.790900 1 3a3 Rx d 8 00 d0 00 00 38 03 fc 01 
0.791400 1 39d Rx d 5 f8 50 e1 27 00 
0.792000 1 261 Rx d 8 31 00 e5 00 eb 49 1a 5a 
0.792200 1 3a1 Rx d 8 e8 42 0d 8a 01 28 c2 6c 
0.792500 1 545 Rx d 8 f0 00 27 70 9e da 79 c2 
0.792700 1 78a Rx d 8 01 00 05 00 9d 0d 07 00 
0.792900 1 7b8 Rx d 8 05 00 49 6a 0d 03 d0 b2 
0.794700 1 132 Rx d 6 ee 88 f8 ff 27 40 
0.795000 1 129 Rx d 8 91 22 a7 1f 00 20 ff 3f 
0.795200 1 263 Rx d 8 01 d0 c7 a9 9c c7 54 1f 
0.795700 1 43b Rx d 8 01 7f 00 ff 00 00 00 00 
0.795900 1 3db Rx d 8 08 01 00 00 00 00 04 00 
0.796200 1 719 Rx d 8 0c 70 0f 00 50 00 00 00 
0.796600 1 272 Rx d 8 06 00 fc d8 07 b0 07 08 
0.796900 1 682 Rx d 8 00 00 00 40 05 02 d0 f7 
0.797100 1 393 Rx d 8 06 00 fa d8 07 b0 07 08 
0.798400 1 2e8 Rx d 8 02 10 00 00 06 00 10 12 
0.800000 1 2e1 Rx d 8 29 ca 2d 9d 1f 28 00 00 
0.800300 1 2c1 Rx d 8 21 23 0d 0a 02 00 00 00 
0.800500 1 677 Rx d 8 00 00 00 00 00 00 00 00 
0.802100 1 419 Rx d 1 00 
0.802400 1 53e Rx d 8 12 4a f3 71 b2 0d ec 7b 
0.802600 1 37d Rx d 8 e2 fe e1 e0 00 f8 ff 7f 
0.802900 1 379 Rx d 8 0b 00 00 00 00 00 12 09 
0.803100 1 20c Rx d 8 00 a0 5a 1e 00 e0 08 00 
0.803400 1 3dd Rx d 8 15 51 20 53 c0 00 00 00 
0.803500 1 41d Rx d 1 00 
0.803700 1 21d Rx d 8 04 00 35 00 00 00 00 00 
0.804000 1 282 Rx d 8 08 00 00 00 fc 23 0b 24 
0.804100 1 20e Rx d 3 16 06 00 
0.804300 1 25d Rx d 8 36 41 01 16 04 f0 d8 03 
0.804600 1 340 Rx d 8 05 00 00 00 00 00 00 00 
0.804800 1 132 Rx d 6 f0 88 f8 ff 27 40 
0.805000 1 129 Rx d 8 ef 23 a7 1f ff 1f ff 3f 
0.805300 1 243 Rx d 8 02 d4 41 12 00 2f 00 00 
0.805500 1 27d Rx d 8 00 00 00 00 00 00 00 00 
0.805700 1 29d Rx d 5 00 00 00 20 00 
0.805900 1 2bd Rx d 4 00 00 00 00 
0.806100 1 381 Rx d 8 16 10 00 00 00 64 64 00 
0.806300 1 3c2 Rx d 8 00 55 55 55 00 00 59 45 
0.806600 1 3e2 Rx d 7 00 00 80 0a 10 c0 04 
0.806800 1 43d Rx d 6 00 00 ff 1f 40 00 
0.807000 1 407 Rx d 8 0d 02 00 00 00 00 00 00 
0.807200 1 448 Rx d 7 00 00 10 10 00 00 00 
0.807500 1 45a Rx d 8 a0 c9 c9 c9 3f 4c 00 70 
0.807700 1 49d Rx d 7 00 00 00 00 00 00 00 
0.808000 1 261 Rx d 8 2a 2b 39 02 80 5c 22 84 
0.808300 1 441 Rx d 8 63 85 89 00 32 00 30 3c 
0.808900 1 4e3 Rx d 8 d5 07 6b 51 00 0a 00 00 
0.809200 1 3e9 Rx d 8 f1 80 02 00 00 00 a0 ff 
0.809500 1 139 Rx d 1 00 
0.810000 1 201 Rx d 8 01 04 18 01 00 00 80 c4 
0.810600 1 1f8 Rx d 4 00 00 00 00 
0.814700 1 132 Rx d 6 e0 88 f7 ff 27 40 
0.815000 1 129 Rx d 8 00 24 a7 1f 00 20 ff 3f 
0.815200 1 241 Rx d 7 29 28 4c 0a 0a 53 00 
0.815400 1 263 Rx d 8 02 00 00 00 00 00 00 00 
0.815700 1 343 Rx d 8 00 92 5c ae 9e 00 00 00 
0.815900 1 789 Rx d 4 54 11 e0 47 
0.816200 1 2e1 Rx d 8 02 6c 7f 02 3f 64 00 00 
0.816700 1 37a Rx d 8 03 00 00 00 00 00 00 00 
0.817600 1 289 Rx d 8 b0 08 03 02 99 00 3d 0f 
0.819200 1 420 Rx d 8 28 01 40 4b 00 00 80 02 
0.819600 1 3a2 Rx d 8 01 10 20 00 0b f0 ff 00 
0.820000 1 2c1 Rx d 8 02 0d 06 05 00 d0 92 c1 
0.820900 1 3c3 Rx d 8 00 00 00 00 00 45 00 00 
0.821100 1 3e3 Rx d 4 00 00 00 00 
0.821400 1 313 Rx d 8 02 64 64 05 00 00 90 75 
0.821700 1 285 Rx d 8 02 d5 00 00 00 00 de 00 
0.822000 1 2d2 Rx d 8 99 29 55 4e 00 00 a1 01 
0.822200 1 212 Rx d 8 58 04 00 00 82 ff 77 62 
0.822500 1 252 Rx d 8 00 00 83 06 00 c8 16 00 
0.822700 1 292 Rx d 8 61 c2 c9 e7 98 01 00 00 
0.822800 1 2f2 Rx d 2 12 01 
0.823100 1 3c8 Rx d 8 05 00 00 00 00 00 00 00 
0.823700 1 359 Rx d 8 3f 00 00 00 00 00 00 00 
0.824000 1 261 Rx d 8 c3 4e 0a 00 00 40 35 86 
0.824600 1 4e2 Rx d 8 45 03 66 41 03 08 00 00 
0.824900 1 129 Rx d 8 17 25 a7 1f 00 20 ff 3f 
0.825100 1 132 Rx d 6 f4 88 f7 ff 24 40 
0.825300 1 243 Rx d 8 03 00 00 00 21 52 0e 00 
0.825600 1 234 Rx d 8 1b b0 01 36 d9 04 40 ba 
0.825700 1 249 Rx d 4 e8 01 00 00 
0.826000 1 372 Rx d 8 0e 00 00 0c 06 7d 00 00 
0.826200 1 221 Rx d 8 40 41 05 05 00 50 b1 af 
0.826400 1 23e Rx d 8 f4 01 3a e0 fa fc 9f e4 
0.826700 1 2f1 Rx d 8 32 12 00 89 00 01 00 00 
0.826900 1 3ae Rx d 8 00 40 00 08 00 00 40 89 
0.827200 1 545 Rx d 8 01 00 00 00 00 10 80 db 
0.827400 1 553 Rx d 8 00 00 00 00 00 00 e0 38 
0.827900 1 2aa Rx d 3 2f e0 bb 
0.829600 1 142 Rx d 8 01 00 40 0a c0 1b 00 00 
0.830600 1 38a Rx d 8 03 00 00 00 00 00 00 00 
0.831300 1 39d Rx d 5 f9 51 e1 27 00 
0.831700 1 552 Rx d 8 00 00 00 00 00 00 e0 37 
0.832000 1 2e1 Rx d 8 fb 19 e5 99 9b da 09 00 
0.832900 1 383 Rx d 8 ab 18 51 00 3f d0 00 0a 
0.833300 1 414 Rx d 8 10 00 00 00 00 20 20 20 
0.833500 1 405 Rx d 8 10 00 00 00 00 4c 52 57 
0.833800 1 55a Rx d 8 02 00 00 00 00 00 00 00 
0.833900 1 666 Rx d 4 00 00 a0 00 
0.834200 1 788 Rx d 8 01 00 00 00 ff a1 c8 13 
0.834700 1 132 Rx d 6 f5 88 f7 ff 28 40 
0.835000 1 129 Rx d 8 a4 26 a7 1f ff 1f ff 3f 
0.835200 1 201 Rx d 8 82 02 00 00 00 00 98 3b 
0.835400 1 263 Rx d 8 03 00 00 00 00 00 00 40 
0.835700 1 2b3 Rx d 8 05 00 48 00 a5 81 93 93 
0.837000 1 3f5 Rx d 8 00 00 3d 08 80 04 00 00 
0.837700 1 39a Rx d 8 fd fd fd fd fd 01 00 00 
0.838600 1 422 Rx d 6 70 00 10 00 00 00 
0.838900 1 423 Rx d 7 00 00 00 00 08 00 00 
0.839900 1 22b Rx d 8 ff ff ff ff ff ff ff ff 
0.840100 1 261 Rx d 8 24 f2 cf 4d 00 40 44 ac 
0.840400 1 288 Rx d 8 03 16 54 8c 80 80 f1 74 
0.840600 1 2c1 Rx d 8 0b 17 13 00 00 00 00 00 
0.840900 1 381 Rx d 8 17 00 00 00 00 00 00 00 
0.841100 1 677 Rx d 8 01 00 00 00 00 00 00 00 
0.842000 1 3a1 Rx d 8 eb 88 40 79 3e 00 d0 fa 
0.843800 1 2c7 Rx d 8 00 00 00 00 00 00 4b ff 
0.844000 1 2a6 Rx d 8 00 00 6a 18 00 00 00 00 
0.844300 1 2a7 Rx d 8 00 00 00 00 00 7c 05 84 
0.844600 1 219 Rx d 7 05 00 73 72 72 6a 00 
0.844800 1 132 Rx d 6 f7 88 f7 ff 24 40 
0.845100 1 129 Rx d 8 da 27 a7 1f 00 20 ff 3f 
0.845300 1 243 Rx d 8 04 d8 f1 ff fd 7f 70 73 
0.845500 1 2c3 Rx d 8 55 23 aa c6 03 00 6c a5 
0.845800 1 2c2 Rx d 8 20 40 80 20 01 00 00 fe 
0.846000 1 719 Rx d 8 0d 00 00 00 00 00 00 00 
0.846200 1 798 Rx d 8 76 05 00 00 00 00 e0 07 
0.847300 1 22a Rx d 4 00 00 f9 15 
0.847600 1 7aa Rx d 8 16 05 10 b5 b0 8d a0 29 
0.847900 1 2d1 Rx d 2 7f 01 
0.848100 1 2e1 Rx d 8 04 00 00 80 48 44 26 00 
0.851600 1 2f9 Rx d 8 b0 fb 07 28 00 00 00 00 
0.852000 1 2a8 Rx d 8 02 10 00 00 06 00 20 e2 
0.852600 1 3a2 Rx d 8 92 29 00 00 20 00 00 00 
0.853000 1 303 Rx d 8 1f 00 00 00 ff ff ff ff 
0.854700 1 3a8 Rx d 8 02 00 18 00 00 00 00 00 
0.854900 1 129 Rx d 8 0d 28 a7 1f 00 20 ff 3f 
0.855100 1 132 Rx d 6 ef 88 f7 ff 25 40 
0.855300 1 263 Rx d 8 04 00 00 00 30 08 00 00 
0.855600 1 3c2 Rx d 8 29 55 00 00 00 00 00 80 
0.855800 1 45a Rx d 8 fd 07 f8 ff 03 00 1e 00 
0.856100 1 261 Rx d 8 05 22 fb c8 9a 42 50 0c 
0.858000 1 428 Rx d 7 00 00 10 10 00 00 00 
0.858200 1 441 Rx d 8 47 00 b6 c3 58 00 35 b6 
0.858500 1 545 Rx d 8 02 00 16 00 00 00 90 f2 
0.858700 1 3f9 Rx d 8 02 00 00 00 00 00 00 00 
0.859000 1 421 Rx d 7 00 14 00 00 00 d0 48 
0.860100 1 3f6 Rx d 8 00 00 00 00 b6 14 00 00 
0.860300 1 201 Rx d 8 83 02 00 00 00 00 b8 3b 
0.860500 1 2bf Rx d 7 0a 00 00 00 00 10 00 
0.860800 1 2c1 Rx d 8 04 00 10 11 0a 13 08 14 
0.860900 1 225 Rx d 4 05 45 d2 00 
0.861100 1 443 Rx d 6 6d 02 ff 03 00 00 
0.861600 1 1fa Rx d 3 22 c0 01 
0.862300 1 797 Rx d 4 14 09 e0 98 
0.864000 1 2e1 Rx d 8 45 80 00 00 82 b1 8a 6a 
0.864200 1 25b Rx d 8 d3 c0 02 05 6a 86 00 e5 
0.864500 1 3ae Rx d 8 00 40 00 08 00 00 50 99 
0.864700 1 709 Rx d 8 02 80 80 80 80 80 00 00 
0.865000 1 129 Rx d 8 58 29 a7 1f 00 20 ff 3f 
0.865200 1 132 Rx d 6 fb 88 f8 ff 28 40 
0.865400 1 243 Rx d 8 00 fc cf 8c bb 02 41 29 
0.865900 1 339 Rx d 8 00 11 02 00 00 00 40 0f 
0.866100 1 23e Rx d 8 f4 01 3a e0 fa fc af f4 
0.866900 1 283 Rx d 6 00 00 00 00 00 00 
0.868400 1 3e8 Rx d 8 05 00 00 00 00 00 00 00 
0.868600 1 242 Rx d 4 10 15 04 05 
0.871000 1 2a1 Rx d 6 00 00 98 3a 00 00 
0.871300 1 39d Rx d 5 fa 52 e1 27 00 
0.871600 1 3df Rx d 8 00 00 00 00 01 d0 00 1b 
0.871800 1 293 Rx d 8 01 0c 15 90 55 14 3f ef 
0.872000 1 261 Rx d 8 00 10 bc 00 c0 4c 60 2e 
0.872700 1 1f9 Rx d 8 00 00 00 00 00 00 00 00 
0.872900 1 285 Rx d 8 03 47 86 48 95 00 00 00 
0.873200 1 3c0 Rx d 8 06 00 00 00 00 00 00 00 
0.874300 1 2ec Rx d 3 2f e0 fd 
0.874700 1 132 Rx d 6 f7 88 f7 ff 27 40 
0.875000 1 129 Rx d 8 ee 2a a7 1f ff 1f ff 3f 
0.875200 1 263 Rx d 8 00 d0 e7 89 d4 07 55 1f 
0.875300 1 229 Rx d 3 8c 0b 00 
0.875600 1 234 Rx d 8 37 e1 03 80 43 00 54 cd 
0.875700 1 249 Rx d 4 2a 02 00 00 
0.876000 1 360 Rx d 8 0a 00 00 00 00 00 00 00 
0.876200 1 221 Rx d 8 41 01 55 51 01 02 c0 ce 
0.876500 1 381 Rx d 8 18 00 00 00 00 00 00 00 
0.876700 1 54f Rx d 8 00 00 00 00 00 00 00 00 
0.878900 1 103 Rx d 8 22 b3 88 04 92 2c 21 02 
0.879700 1 142 Rx d 8 28 00 02 60 00 00 01 00 
0.879800 1 119 Rx d 4 00 00 00 00 
0.880100 1 2e1 Rx d 8 10 21 04 00 12 00 20 08 
0.880400 1 2c1 Rx d 8 50 28 7e 00 00 8a 02 47 
0.880600 1 677 Rx d 8 02 00 00 00 00 00 00 00 
0.880800 1 7a8 Rx d 8 01 00 00 00 ff a1 c8 13 
0.882600 1 102 Rx d 8 22 b3 88 04 8a 0c 21 08 
0.883200 1 113 Rx d 3 01 97 01 
0.883500 1 318 Rx d 8 1a 08 0a 08 17 2d 27 ba 
0.883700 1 458 Rx d 7 00 00 00 00 40 00 00 
0.883800 1 7f4 Rx d 1 01 
0.884100 1 7ff Rx d 8 09 ef 00 00 08 00 00 00 
0.884300 1 3ae Rx d 8 00 40 00 08 00 00 61 aa 
0.884400 1 409 Rx d 1 00 
0.884800 1 132 Rx d 6 f0 88 f7 ff 29 40 
0.885000 1 123 Rx d 8 01 00 00 00 00 3f 00 00 
0.885300 1 129 Rx d 8 76 2b a7 1f 00 20 ff 3f 
0.885500 1 201 Rx d 8 f0 c9 01 80 22 8f 41 05 
0.885700 1 243 Rx d 8 01 fc 70 00 73 00 7c 7c 
0.886000 1 3a2 Rx d 8 a0 85 f2 f3 04 80 44 74 
0.886400 1 228 Rx d 8 03 16 54 8c 80 80 f1 14 
0.886700 1 439 Rx d 8 02 00 40 00 00 14 00 00 
0.886900 1 31a Rx d 8 60 fc ff 02 00 00 70 ea 
0.888000 1 261 Rx d 8 31 00 e6 00 eb 49 7a bb 
0.888300 1 2c4 Rx d 8 14 00 00 00 00 00 00 00 
0.888500 1 204 Rx d 8 01 00 00 ff 00 00 00 10 
0.888900 1 264 Rx d 6 38 00 00 00 a0 00 
0.889400 1 224 Rx d 8 04 08 00 48 19 01 10 08 
0.889700 1 122 Rx d 8 01 00 00 00 00 3f 00 00 
0.889900 1 22b Rx d 8 ff ff ff ff ff ff ff ff 
0.890100 1 2b4 Rx d 6 63 05 b5 0d c3 00 
0.890400 1 400 Rx d 7 00 e0 fb be ef fb 00 
0.890900 1 3a3 Rx d 8 00 e0 00 00 38 03 fc 01 
0.891100 1 545 Rx d 8 f0 00 22 60 9e dd a9 e0 
0.892000 1 3a1 Rx d 8 e8 42 0d 8a 01 28 e2 8c 
0.892400 1 78a Rx d 8 01 00 06 00 02 00 00 00 
0.892600 1 7b8 Rx d 8 06 00 00 00 00 00 e0 00 
0.894700 1 132 Rx d 6 ea 88 f7 ff 28 40 
0.895000 1 129 Rx d 8 16 2c a7 1f 00 20 ff 3f 
0.895200 1 263 Rx d 8 01 d0 c7 a9 9c c7 54 1f 
0.895400 1 2b3 Rx d 8 06 1a d8 40 92 40 a2 d4 
0.895700 1 42a Rx d 8 f9 6b fe 9a bf e6 af 55 
0.895900 1 719 Rx d 8 13 00 00 00 00 00 00 00 
0.896200 1 2e1 Rx d 8 29 ca 2d 9d 1f 28 00 00 
0.896700 1 272 Rx d 8 09 80 63 00 00 00 00 00 
0.896900 1 682 Rx d 8 00 00 00 40 05 02 e0 07 
0.897100 1 393 Rx d 8 09 80 63 00 00 00 00 00 
0.898400 1 2e8 Rx d 8 02 10 00 00 06 00 20 22 
0.900000 1 2c1 Rx d 8 21 23 0d 0a 02 00 00 00 
0.902100 1 419 Rx d 1 00 
0.902300 1 75d Rx d 8 d0 a0 78 17 00 00 00 00 
0.902600 1 31e Rx d 8 00 00 00 00 00 00 00 00 
0.902800 1 379 Rx d 8 00 00 0a 48 33 bf 21 00 
0.903100 1 20c Rx d 8 00 a0 5a 1e 00 e0 08 00 
0.903300 1 21d Rx d 8 04 00 35 00 00 00 00 00 
0.903400 1 41d Rx d 1 00 
0.903700 1 25d Rx d 8 36 41 01 16 04 f0 d8 03 
0.903900 1 282 Rx d 8 08 00 00 00 fc 23 0b 24 
0.904100 1 20e Rx d 3 17 07 00 
0.904300 1 261 Rx d 8 2a 2b 39 02 80 5c 82 e4 
0.904500 1 27d Rx d 8 00 00 00 00 00 00 00 00 
0.904700 1 29d Rx d 5 00 00 00 20 00 
0.905000 1 129 Rx d 8 04 2d a7 1f 00 20 ff 3f 
0.905200 1 132 Rx d 6 e5 88 f8 ff 25 40 
0.905400 1 243 Rx d 8 02 d4 41 12 00 2f 00 00 
0.905600 1 2bd Rx d 4 00 00 00 00 
0.905800 1 340 Rx d 8 06 00 00 00 00 00 00 00 
0.906100 1 3c2 Rx d 8 00 55 55 55 00 00 59 45 
0.906300 1 23e Rx d 8 f4 01 3a e0 fa fc bf 04 
0.906500 1 40a Rx d 8 01 00 01 00 00 00 70 80 
0.906800 1 43d Rx d 6 00 00 ff 1f 40 00 
0.907000 1 448 Rx d 7 00 00 10 10 00 00 00 
0.907200 1 45a Rx d 8 a0 c9 c9 c9 3f 4c 00 70 
0.907400 1 49d Rx d 7 00 00 00 00 00 00 00 
0.908000 1 6c8 Rx d 8 01 00 00 00 00 00 00 00 
0.908200 1 441 Rx d 8 63 85 89 00 32 00 38 44 
0.908900 1 4e3 Rx d 8 06 00 00 00 00 00 00 00 
0.909500 1 139 Rx d 1 00 
0.910000 1 201 Rx d 8 01 04 18 01 00 00 80 c4 
0.910600 1 1f8 Rx d 4 00 00 00 00 
0.911300 1 39d Rx d 5 fb 53 e1 27 00 
0.912000 1 2e1 Rx d 8 02 6c 7f 02 3f 64 00 00 
0.912300 1 381 Rx d 8 d9 12 00 3e 00 1e 00 00 
0.914700 1 132 Rx d 6 e4 88 f8 ff 29 40 
0.915000 1 129 Rx d 8 76 2e a7 1f 01 20 ff 3f 
0.915200 1 241 Rx d 7 27 28 cc 09 0a 53 00 
0.915400 1 263 Rx d 8 02 00 00 00 00 00 00 00 
0.915600 1 343 Rx d 8 00 92 64 de 9e 00 00 00 
0.915900 1 789 Rx d 4 54 11 f0 57 
0.916700 1 37a Rx d 8 00 00 00 00 00 00 00 00 
0.917600 1 289 Rx d 8 b0 08 03 42 8c 00 3d 0f 
0.918600 1 3a2 Rx d 8 01 10 20 00 09 f0 ff 00 
0.919200 1 420 Rx d 8 28 01 40 4b 00 00 00 03 
0.920000 1 261 Rx d 8 c3 4e 0a 00 00 40 95 e6 
0.920300 1 2c1 Rx d 8 02 0d 06 05 00 d0 92 c1 
0.920500 1 677 Rx d 8 03 00 00 00 00 00 00 00 
0.921000 1 3c3 Rx d 8 55 55 55 01 00 80 43 00 
0.921500 1 253 Rx d 8 00 64 34 85 64 62 00 15 
0.921600 1 4f3 Rx d 4 00 00 00 00 
0.921800 1 213 Rx d 2 68 7d 
0.922000 1 212 Rx d 8 58 04 00 00 82 ff 77 62 
0.922200 1 252 Rx d 8 00 00 83 06 00 c8 16 00 
0.922500 1 292 Rx d 8 61 c2 c9 e7 98 01 00 00 
0.922700 1 2d2 Rx d 8 99 29 55 4e 00 00 a1 01 
0.922800 1 2f2 Rx d 2 12 01 
0.923100 1 3c8 Rx d 8 06 00 00 00 00 00 00 00 
0.923200 1 726 Rx d 3 00 00 00 
0.923700 1 359 Rx d 8 40 00 00 00 00 00 00 00 
0.924000 1 285 Rx d 8 04 53 93 47 8b 00 00 00 
0.924300 1 3ae Rx d 8 00 40 00 08 00 00 71 ba 
0.924500 1 545 Rx d 8 01 00 00 00 00 10 b0 0b 
0.924800 1 4e2 Rx d 8 06 00 00 00 00 00 00 00 
0.925000 1 129 Rx d 8 43 2f a7 1f ff 1f ff 3f 
0.925200 1 132 Rx d 6 e8 88 f8 ff 29 40 
0.925400 1 243 Rx d 8 03 00 00 00 21 52 0e 00 
0.925700 1 234 Rx d 8 1b b0 01 35 d5 04 60 d5 
0.925800 1 249 Rx d 4 d3 03 00 00 
0.926100 1 221 Rx d 8 40 41 05 05 00 50 d1 cf 
0.926300 1 2f1 Rx d 8 00 91 31 81 44 00 0a 00 
0.926900 1 553 Rx d 8 00 00 00 00 00 00 f0 48 
0.927200 1 7aa Rx d 8 07 f8 ff f8 ff f3 ff 48 
0.927900 1 2aa Rx d 3 2f f0 cb 
0.928100 1 2e1 Rx d 8 fb 19 e4 99 9b df 09 00 
0.929600 1 142 Rx d 8 01 00 40 0a c0 1b 00 00 
0.930700 1 38a Rx d 8 00 00 00 00 00 00 00 00 
0.931700 1 552 Rx d 8 00 00 00 00 00 00 f0 47 
0.932900 1 383 Rx d 8 ab 18 51 00 3f d0 00 0a 
0.934000 1 788 Rx d 8 02 40 cc 07 00 00 00 00 
0.934700 1 132 Rx d 6 e7 88 f7 ff 27 40 
0.934900 1 129 Rx d 8 62 20 a7 1f 01 20 ff 3f 
0.935200 1 201 Rx d 8 82 02 00 00 00 00 98 3b 
0.935400 1 263 Rx d 8 03 00 00 00 00 00 00 40 
0.936000 1 261 Rx d 8 24 f2 cf 4d 00 40 a4 0c 
0.937000 1 3f5 Rx d 8 00 00 3d 08 80 04 00 00 
0.937700 1 39a Rx d 8 fc fd fd fd fd fd fd 01 
0.938600 1 422 Rx d 6 70 00 10 00 00 00 
0.938900 1 423 Rx d 7 00 00 00 00 08 00 00 
0.939900 1 22b Rx d 8 ff ff ff ff ff ff ff ff 
0.940100 1 288 Rx d 8 03 16 54 8c 80 80 01 84 
0.940400 1 2c1 Rx d 8 0b 17 13 00 00 00 00 00 
0.942000 1 3a1 Rx d 8 eb 88 40 81 3e 00 f0 22 
0.943800 1 2c7 Rx d 8 00 00 00 00 00 00 4b ff 
0.944000 1 2a6 Rx d 8 00 00 6a 18 00 00 00 00 
0.944300 1 2a7 Rx d 8 00 00 00 00 00 7c 05 84 
0.944500 1 2e1 Rx d 8 04 00 00 80 48 44 26 00 
0.944700 1 219 Rx d 7 00 80 ff ff ff f8 0f 
0.945000 1 129 Rx d 8 d8 21 a7 1f 00 20 ff 3f 
0.945200 1 132 Rx d 6 f0 88 f7 ff 24 40 
0.945400 1 243 Rx d 8 04 d8 f1 ff fd 7f 70 73 
0.945600 1 2c3 Rx d 8 00 00 40 20 01 00 40 ff 
0.945900 1 2c2 Rx d 8 55 63 a9 c6 03 00 6c a5 
0.946100 1 23e Rx d 8 f4 01 3a e0 fa fc cf 14 
0.946300 1 719 Rx d 8 03 00 00 00 00 00 00 00 
0.946600 1 798 Rx d 8 30 82 08 67 08 02 f0 c7 
0.947200 1 22a Rx d 4 00 00 f9 15 
0.947900 1 2d1 Rx d 2 7f 01 
0.948200 1 381 Rx d 8 1a 16 16 70 00 00 00 00 
0.951300 1 39d Rx d 5 fc 54 e1 27 00 
0.951600 1 2f9 Rx d 8 b0 fb 07 01 9f a0 6f b2 
0.951900 1 3a2 Rx d 8 92 29 00 00 20 00 00 00 
0.952100 1 261 Rx d 8 05 22 fb c8 9a 42 b0 6c 
0.952400 1 2a8 Rx d 8 02 10 00 00 06 00 30 f2 
0.952900 1 2e3 Rx d 7 e7 d3 4f 3f 99 d0 06 
0.954700 1 2e2 Rx d 8 03 00 00 d6 02 1b 00 80 
0.954900 1 129 Rx d 8 91 22 a7 1f 00 20 ff 3f 
0.955100 1 132 Rx d 6 eb 88 f7 ff 23 40 
0.955300 1 263 Rx d 8 04 00 00 00 30 08 00 00 
0.955600 1 2b3 Rx d 8 07 50 96 50 b8 3c 00 00 
0.955800 1 3c2 Rx d 8 29 55 00 00 00 00 00 80 
0.956100 1 45a Rx d 8 fd 07 f8 ff 03 00 1e 00 
0.957000 1 545 Rx d 8 02 00 16 00 00 00 c0 22 
0.958000 1 428 Rx d 7 00 00 10 10 00 00 00 
0.958200 1 441 Rx d 8 47 00 b6 c3 58 00 3d be 
0.958700 1 3f9 Rx d 8 03 00 00 00 00 00 00 00 
0.959000 1 421 Rx d 7 00 14 00 00 00 d0 48 
0.960000 1 724 Rx d 3 05 00 00 
0.960200 1 201 Rx d 8 83 02 00 00 00 00 b8 3b 
0.960400 1 2c1 Rx d 8 04 00 10 11 0a 13 08 14 
0.960700 1 2e1 Rx d 8 45 80 00 00 82 b1 8a 6a 
0.960900 1 677 Rx d 8 04 00 00 00 00 00 00 00 
0.961100 1 225 Rx d 4 05 45 d2 00 
0.961300 1 718 Rx d 7 02 00 00 00 00 00 00 
0.961600 1 1fa Rx d 3 22 c0 01 
0.962400 1 797 Rx d 4 14 09 f0 a8 
0.964100 1 25b Rx d 8 d3 c0 02 05 6a 86 10 f5 
0.964400 1 3ae Rx d 8 00 40 00 08 00 00 81 ca 
0.964700 1 132 Rx d 6 e1 88 f7 ff 25 40 
0.964900 1 129 Rx d 8 ef 23 a7 1f ff 1f ff 3f 
0.965200 1 243 Rx d 8 00 fc cf 8c bb 02 41 29 
0.965800 1 339 Rx d 8 00 11 02 00 00 00 40 0f 
0.966900 1 283 Rx d 6 00 00 00 00 00 00 
0.968000 1 261 Rx d 8 00 10 bc 00 c0 4c c0 8e 
0.968500 1 3e8 Rx d 8 06 00 00 00 00 00 00 00 
0.968600 1 242 Rx d 4 10 15 04 05 
0.971000 1 2a1 Rx d 6 00 00 98 3a 00 00 
0.971300 1 473 Rx d 8 00 00 03 00 00 00 00 00 
0.971600 1 3b3 Rx d 8 8c 80 04 30 01 00 a8 80 
0.971800 1 253 Rx d 8 01 64 34 85 64 62 00 15 
0.972700 1 1f9 Rx d 8 00 00 00 00 00 00 00 00 
0.973000 1 3c0 Rx d 8 07 00 00 00 00 00 00 00 
0.974300 1 2ec Rx d 3 2f f0 0d 
0.974700 1 132 Rx d 6 f5 88 f8 ff 27 40 
0.975000 1 129 Rx d 8 ad 24 a7 1f 01 20 ff 3f 
0.975200 1 263 Rx d 8 00 d0 e7 89 d4 07 55 1f 
0.975400 1 229 Rx d 3 49 0c 00 
0.975600 1 234 Rx d 8 36 e1 03 80 43 00 74 ec 
0.975800 1 249 Rx d 4 d3 04 00 00 
0.976000 1 360 Rx d 8 00 00 00 00 00 00 00 00 
0.976200 1 221 Rx d 8 41 01 55 51 01 02 e0 ee 
0.976500 1 2e1 Rx d 8 10 21 04 00 12 00 20 08 
0.976700 1 300 Rx d 8 14 05 00 00 fc 21 82 ed 
0.976800 1 311 Rx d 2 ff 03 
0.977000 1 332 Rx d 6 18 01 8b 8a 8a 00 
0.977300 1 3d2 Rx d 8 d8 b3 d5 00 8e fd de 00 
0.977500 1 3f2 Rx d 8 05 cc 10 16 20 3f d8 00 
0.977700 1 452 Rx d 3 fc 80 00 
0.977900 1 472 Rx d 8 ff 00 80 02 00 7f ff 07 
0.978100 1 492 Rx d 7 7d 03 ff 0f 28 00 00 
0.978400 1 54f Rx d 8 00 00 00 00 00 00 00 00 
0.978600 1 72a Rx d 8 02 00 de 57 60 00 00 00 
0.978900 1 103 Rx d 8 22 b3 88 04 92 2c 21 02 
0.979600 1 119 Rx d 4 00 00 00 00 
0.979800 1 142 Rx d 8 28 00 02 60 00 00 01 00 
0.980100 1 2c1 Rx d 8 50 28 7e 00 00 8a 02 47 
0.980400 1 7a8 Rx d 8 02 40 d0 07 00 07 00 00 
0.982600 1 102 Rx d 8 22 b3 88 04 8c 0c 21 08 
0.983200 1 113 Rx d 3 01 97 01 
0.983500 1 318 Rx d 8 1a 08 0a 08 17 2d 29 bc 
0.983600 1 7f4 Rx d 1 01 
0.983800 1 7ff Rx d 8 01 a5 4e 43 42 4c 7b 00 
0.984000 1 261 Rx d 8 31 00 e5 00 eb 49 da 1a 
0.984300 1 381 Rx d 8 e0 c3 e5 92 b9 5c b2 10 
0.984500 1 458 Rx d 7 00 00 00 00 40 00 00 
0.984700 1 3a2 Rx d 8 a0 85 f2 f3 04 80 44 74 
0.985000 1 123 Rx d 8 00 00 12 92 d2 00 00 80 
0.985200 1 129 Rx d 8 17 25 a7 1f 00 20 ff 3f 
0.985400 1 132 Rx d 6 f2 88 f8 ff 28 40 
0.985600 1 201 Rx d 8 f0 e1 01 80 22 8f 41 05 
0.985900 1 243 Rx d 8 01 fc 70 00 73 00 7c 7c 
0.986100 1 23e Rx d 8 f4 01 3a e0 fa fc df 24 
0.986400 1 320 Rx d 8 80 00 00 00 00 00 00 00 
0.986600 1 228 Rx d 8 03 16 54 8c 80 80 01 24 
0.986800 1 372 Rx d 8 00 07 00 95 92 11 08 23 
0.987100 1 401 Rx d 8 00 2a 19 81 ec 80 2f 81 
0.987200 1 409 Rx d 1 00 
0.987400 1 439 Rx d 8 02 00 40 00 00 14 00 00 
0.988100 1 2c4 Rx d 8 55 00 01 04 20 00 ff 00 
0.988600 1 204 Rx d 8 01 00 00 ff 00 00 00 10 
0.988900 1 22b Rx d 8 ff ff ff ff ff ff ff ff 
0.989200 1 400 Rx d 7 00 e0 fb be ef fb 00 
0.989400 1 264 Rx d 6 38 00 00 00 a0 00 
0.989600 1 224 Rx d 8 04 08 00 48 19 01 10 08 
0.989900 1 122 Rx d 8 00 00 12 92 12 00 00 00 
0.990100 1 2b4 Rx d 6 62 05 b5 0d c6 00 
0.990300 1 545 Rx d 8 f0 00 27 70 9e da d9 22 
0.990900 1 3a3 Rx d 8 00 d0 00 00 38 03 fc 01 
0.991300 1 39d Rx d 5 fd 55 e1 27 00 
0.992100 1 2e1 Rx d 8 29 ca 2d 9d 1f 28 00 00 
0.992300 1 3a1 Rx d 8 e8 42 0d 8a 01 28 02 ac 
0.992500 1 3aa Rx d 8 01 00 00 00 00 00 00 00 
0.992800 1 7b8 Rx d 8 50 22 09 8c 9c 02 f0 af 
0.993400 1 77a Rx d 8 a1 16 d8 5d fc 5d e4 5d 
0.993600 1 78a Rx d 8 01 00 00 00 20 13 13 0d 
0.994700 1 132 Rx d 6 f2 88 f7 ff 25 40 
0.995000 1 129 Rx d 8 cd 26 a7 1f 00 20 ff 3f 
0.995200 1 263 Rx d 8 01 d0 c7 a9 9c c7 54 1f 
0.995700 1 719 Rx d 8 14 00 00 00 00 00 00 00 
0.996600 1 272 Rx d 8 06 00 fc e0 07 b0 07 08 
0.996900 1 393 Rx d 8 06 00 fa d0 07 b0 07 08 
