date Thu Aug 27 02:11:11 PM 2026
base hex timestamps absolute
// version 7.0.0
0.000000 1 7d7 Rx d 8 32 01 00 00 00 00 00 00 
0.000200 1 7ff Rx d 8 01 a5 4e 43 42 4c 7b 00 
0.000400 1 318 Rx d 8 1a 08 0e 06 1b 0b 2f a6 
0.000700 1 458 Rx d 7 00 00 00 00 40 00 00 
0.001400 1 289 Rx d 8 a6 02 01 40 86 00 3d 0f 
0.002000 1 2d1 Rx d 2 7f 01 
0.002800 1 343 Rx d 8 00 92 5c fe 96 00 00 00 
0.003100 1 263 Rx d 8 02 00 00 00 00 00 00 00 
0.003300 1 2b3 Rx d 8 08 fa fc 97 51 9b be be 
0.004100 1 37a Rx d 8 00 00 7c 5b 49 00 00 01 
0.004600 1 132 Rx d 6 f9 87 f5 ff 20 40 
0.005400 1 118 Rx d 8 02 6f 32 00 00 48 00 00 
0.005600 1 228 Rx d 8 03 11 00 40 80 00 c1 bf 
0.005900 1 4f Rx d 8 b6 a8 5c 61 31 6a 67 12 
0.006100 1 261 Rx d 8 00 10 01 00 d2 4c c0 e5 
0.006300 1 266 Rx d 8 00 00 01 22 00 00 9f 01 
0.006600 1 1d8 Rx d 8 29 00 00 00 00 00 20 22 
0.006800 1 257 Rx d 8 72 48 1f 00 02 a0 0f 01 
0.007000 1 333 Rx d 5 04 10 e8 07 00 
0.007200 1 1e5 Rx d 8 02 ac 04 00 00 00 20 b8 
0.007500 1 334 Rx d 8 bf 3f 0a 04 ff 01 02 45 
0.007700 1 3ae Rx d 8 c5 3f 00 08 00 00 e0 ed 
0.007900 1 3bc Rx d 4 00 00 00 00 
0.008100 1 3fd Rx d 8 00 00 00 3c 20 00 01 80 
0.008400 1 4e2 Rx d 8 02 a6 03 00 00 00 28 1a 
0.008900 1 3c3 Rx d 8 55 55 55 01 00 80 43 00 
0.009200 1 25a Rx d 6 6d 6d 6c 6d 00 00 
0.009700 1 129 Rx d 8 a9 2b ba 5f 00 20 ff 3f 
0.009900 1 249 Rx d 4 3f 08 00 00 
0.010100 1 381 Rx d 8 68 13 3d 02 07 00 00 00 
0.011000 1 20e Rx d 3 14 04 00 
0.011200 1 359 Rx d 8 49 00 00 00 00 00 00 00 
0.011400 1 419 Rx d 1 00 
0.011600 1 7b8 Rx d 8 05 20 4c 9c a9 02 20 f2 
0.012100 1 441 Rx d 8 2a 00 b6 c3 58 00 1d 81 
0.012400 1 409 Rx d 1 00 
0.012800 1 243 Rx d 8 03 00 00 80 42 62 1d 00 
0.013100 1 421 Rx d 7 00 14 00 00 00 d0 48 
0.013400 1 142 Rx d 8 01 00 40 0a c0 1b 00 00 
0.014100 1 301 Rx d 8 10 00 00 00 c4 e2 a2 b8 
0.014300 1 201 Rx d 8 83 02 00 00 00 00 b8 3b 
0.014500 1 2c1 Rx d 8 04 00 10 0e 0a 11 08 14 
0.014700 1 132 Rx d 6 f0 87 f5 ff 23 40 
0.015000 1 2e1 Rx d 8 10 21 04 00 12 00 20 08 
0.015200 1 407 Rx d 8 0b 00 00 00 00 00 00 00 
0.015500 1 400 Rx d 7 00 e0 fb be ef fb 00 
0.015700 1 38d Rx d 8 56 86 aa aa aa 24 49 02 
0.015900 1 552 Rx d 8 00 00 00 00 00 00 30 87 
0.016200 1 553 Rx d 8 00 00 00 00 00 00 30 88 
0.016400 1 118 Rx d 8 f3 60 32 00 00 48 00 00 
0.016600 1 1d8 Rx d 8 29 00 00 00 00 00 40 42 
0.016900 1 266 Rx d 8 00 00 01 22 00 00 9f 01 
0.017100 1 1e5 Rx d 8 02 ac 04 00 00 00 40 d8 
0.017400 1 677 Rx d 8 04 00 00 00 00 00 00 00 
0.017600 1 2e8 Rx d 8 02 11 00 00 06 80 d0 53 
0.017800 1 718 Rx d 7 01 00 00 00 00 00 00 
0.019700 1 129 Rx d 8 c9 2c ba 5f 00 20 ff 3f 
0.020000 1 22b Rx d 8 ff ff ff ff ff c7 1f fc 
0.020300 1 3e9 Rx d 8 f0 08 00 00 00 00 e0 c4 
0.020500 1 7aa Rx d 8 07 f6 ff f5 ff ef ff 48 
0.020900 1 383 Rx d 8 bf 18 3b 00 15 81 03 52 
0.022100 1 261 Rx d 8 31 00 22 00 6c 49 d8 d6 
0.022400 1 422 Rx d 6 70 00 10 00 00 00 
0.022600 1 3a2 Rx d 8 60 85 f2 b7 1c 80 41 72 
0.022900 1 263 Rx d 8 03 00 00 00 00 00 00 22 
0.023100 1 2a6 Rx d 8 00 00 6a 18 00 00 00 00 
0.023400 1 2a7 Rx d 8 00 00 00 00 00 70 05 84 
0.023600 1 2c7 Rx d 8 00 00 00 00 00 00 4c ff 
0.023800 1 448 Rx d 7 00 00 10 10 00 00 00 
0.024600 1 132 Rx d 6 f9 87 f5 ff 22 40 
0.025000 1 2a1 Rx d 6 00 00 98 3a 00 00 
0.025300 1 39a Rx d 8 fc fd fd fd fd fd fd 01 
0.025500 1 118 Rx d 8 f4 61 32 00 00 48 00 00 
0.025800 1 266 Rx d 8 00 00 01 22 00 00 9f 01 
0.026000 1 257 Rx d 8 73 49 1f 00 02 a0 0f 01 
0.026500 1 1d8 Rx d 8 29 00 00 00 00 00 60 62 
0.026700 1 1e5 Rx d 8 02 ac 04 00 00 00 60 f8 
0.026900 1 420 Rx d 8 28 01 40 4b 00 00 80 05 
0.027200 1 423 Rx d 7 00 00 00 00 08 00 00 
0.029400 1 2c2 Rx d 8 55 63 a9 b6 02 00 1c a5 
0.029700 1 129 Rx d 8 db 2d ba 5f 00 20 ff 3f 
0.030100 1 2e1 Rx d 8 39 8d 55 af 1f 28 00 00 
0.030300 1 221 Rx d 8 61 05 55 55 01 02 60 96 
0.030500 1 22a Rx d 4 00 00 c9 15 
0.030700 1 211 Rx d 6 9f 1d 71 0d 00 f1 
0.031100 1 545 Rx d 8 01 00 00 00 00 10 00 5b 
0.032100 1 219 Rx d 7 04 74 74 00 00 00 00 
0.032400 1 21d Rx d 8 04 00 35 00 00 00 00 00 
0.032500 1 41d Rx d 1 00 
0.032800 1 25d Rx d 8 36 41 01 2a 04 f0 d8 03 
0.033100 1 243 Rx d 8 04 b4 f1 ff fd 7f 68 69 
0.033300 1 2c3 Rx d 8 00 00 c0 4b 01 00 80 cb 
0.033500 1 39d Rx d 5 23 5a 01 28 00 
0.033700 1 719 Rx d 8 17 00 00 00 00 00 00 00 
0.034000 1 75d Rx d 8 03 00 80 00 00 00 00 00 
0.034200 1 2c1 Rx d 8 50 24 7e 00 00 8a 02 47 
0.034500 1 234 Rx d 8 27 e1 03 80 43 00 b4 1d 
0.034700 1 132 Rx d 6 e8 87 f5 ff 22 40 
0.036200 1 118 Rx d 8 f5 62 32 00 00 48 00 00 
0.036400 1 266 Rx d 8 00 00 01 22 00 00 9f 01 
0.036700 1 1d8 Rx d 8 29 00 00 00 00 00 80 82 
0.036900 1 1e5 Rx d 8 02 ac 04 00 00 00 00 98 
0.037300 1 23e Rx d 8 f4 01 3a be fa fc 7f a2 
0.038000 1 261 Rx d 8 fa 28 5e 02 80 5c e2 36 
0.038400 1 2e2 Rx d 8 f7 d3 4f 3f 69 e6 d2 54 
0.038600 1 3c2 Rx d 8 29 55 00 00 00 00 00 80 
0.039100 1 201 Rx d 8 f8 d1 01 80 22 8b f1 07 
0.039300 1 2f9 Rx d 8 b0 fb 07 20 00 00 00 00 
0.039700 1 129 Rx d 8 f0 2e bb 5f 00 20 ff 3f 
0.040900 1 2e3 Rx d 7 20 00 00 a1 02 0b 40 
0.042900 1 263 Rx d 8 04 00 00 00 10 04 00 00 
0.043100 1 45a Rx d 8 fd 07 f8 ff 03 00 00 2a 
0.044600 1 132 Rx d 6 01 88 f5 ff 22 40 
0.045300 1 25b Rx d 8 d3 c0 02 05 6a 86 40 25 
0.045500 1 118 Rx d 8 f6 63 32 00 00 48 00 00 
0.045600 1 1fa Rx d 3 22 c0 01 
0.045900 1 266 Rx d 8 00 00 01 22 00 00 9f 01 
0.046100 1 257 Rx d 8 74 4a 1f 00 02 a0 0f 01 
0.046400 1 2e1 Rx d 8 02 6c 7f 02 3e 62 00 00 
0.046600 1 1d8 Rx d 8 29 00 00 00 00 00 a0 a2 
0.046800 1 2c4 Rx d 8 4d 80 00 02 00 00 00 00 
0.047100 1 1e5 Rx d 8 02 ac 04 00 00 00 20 b8 
0.047300 1 204 Rx d 8 01 00 00 ff 00 00 00 10 
0.047600 1 224 Rx d 8 04 08 00 48 19 01 10 08 
0.047800 1 264 Rx d 6 38 00 00 00 a0 00 
0.048000 1 2b4 Rx d 6 29 05 9d 0d 0d 01 
0.048200 1 381 Rx d 8 09 00 01 82 00 00 00 6c 
0.048500 1 3a1 Rx d 8 e8 4e 0e ca 00 10 82 60 
0.048700 1 3ae Rx d 8 c5 3f 00 08 00 00 f0 fd 
0.048900 1 225 Rx d 4 45 55 fa 00 
0.049100 1 3f9 Rx d 8 07 00 00 00 00 00 00 00 
0.049300 1 789 Rx d 4 55 19 30 a0 
0.049700 1 129 Rx d 8 f5 2f ba 5f 00 20 ff 3f 
0.052100 1 2d2 Rx d 8 6e 29 a8 4e c4 09 d5 14 
0.052300 1 212 Rx d 8 59 04 00 00 81 ff 77 31 
0.052500 1 242 Rx d 4 55 15 86 05 
0.052700 1 252 Rx d 8 47 23 93 4a 00 fc 0f 00 
0.052900 1 243 Rx d 8 00 fc 4f cc cf 02 41 29 
0.053200 1 292 Rx d 8 c7 45 27 5e 72 01 00 00 
0.053300 1 2f2 Rx d 2 12 01 
0.053500 1 339 Rx d 8 04 e1 02 00 00 00 40 0f 
0.053800 1 3c8 Rx d 8 05 00 00 00 00 00 00 00 
0.054100 1 261 Rx d 8 7b 4b 0a 00 00 40 f5 fb 
0.054300 1 2c1 Rx d 8 21 1b 0d 0a 02 00 00 00 
0.054600 1 677 Rx d 8 00 00 00 00 00 00 00 00 
0.054800 1 132 Rx d 6 e8 87 f5 ff 23 40 
0.055000 1 283 Rx d 6 00 00 00 00 00 00 
0.055100 1 3bb Rx d 3 14 0f 14 
0.055400 1 2f3 Rx d 8 0e 0e 0b 00 00 20 00 00 
0.055600 1 3a2 Rx d 8 01 10 20 00 09 f0 ff 00 
0.055900 1 273 Rx d 8 81 e1 10 00 c8 00 10 01 
0.056100 1 33a Rx d 8 6a 34 b3 5a fd ff 03 45 
0.056300 1 118 Rx d 8 f7 64 32 00 00 48 00 00 
0.056600 1 1d8 Rx d 8 29 00 00 00 00 00 c0 c2 
0.056800 1 266 Rx d 8 00 00 01 22 00 00 9f 01 
0.057100 1 1e5 Rx d 8 02 ac 04 00 00 00 40 d8 
0.057300 1 3fd Rx d 8 01 00 02 00 00 08 12 80 
0.058100 1 340 Rx d 8 08 00 00 00 00 00 00 00 
0.059100 1 2aa Rx d 3 7f 30 5b 
0.059400 1 360 Rx d 8 09 00 00 00 00 00 00 00 
0.059700 1 129 Rx d 8 10 20 ba 5f 00 20 ff 3f 
0.059900 1 229 Rx d 3 f9 07 00 
0.060000 1 249 Rx d 4 5e 09 00 00 
0.060300 1 1f9 Rx d 8 00 00 00 00 00 00 00 00 
0.060500 1 54f Rx d 8 00 00 00 00 00 00 00 00 
0.060900 1 3c0 Rx d 8 0a 00 10 00 00 00 00 00 
0.061600 1 3f1 Rx d 8 05 00 00 00 00 00 00 00 
0.062100 1 2e1 Rx d 8 fb 19 6d f9 93 63 09 00 
0.062300 1 441 Rx d 8 22 85 89 00 32 00 20 eb 
0.062900 1 263 Rx d 8 00 d0 e7 89 d4 07 55 1f 
0.063100 1 2b3 Rx d 8 69 2b 00 35 00 00 c1 2d 
0.063400 1 142 Rx d 8 28 00 02 5a 18 00 01 00 
0.064100 1 201 Rx d 8 01 04 18 01 00 00 80 c4 
0.064300 1 545 Rx d 8 02 00 03 00 00 00 10 5f 
0.064600 1 302 Rx d 8 10 00 00 00 ff ff ff ff 
0.064800 1 132 Rx d 6 f0 87 f5 ff 23 40 
0.065200 1 788 Rx d 8 b4 c4 71 63 00 00 8a 00 
0.065400 1 118 Rx d 8 f8 65 32 00 00 48 00 00 
0.065600 1 3ae Rx d 8 c5 3f 00 08 00 00 01 0e 
0.065900 1 266 Rx d 8 00 00 01 22 00 00 9f 01 
0.066100 1 6a2 Rx d 5 00 00 00 00 00 
0.066300 1 257 Rx d 8 75 4b 1f 00 02 a0 0f 01 
0.066500 1 102 Rx d 8 22 b3 88 04 8c 0c 21 08 
0.066800 1 1d8 Rx d 8 29 00 00 00 00 00 e0 e2 
0.067000 1 103 Rx d 8 22 b3 88 04 92 2c 21 02 
0.067200 1 119 Rx d 4 00 00 00 00 
0.067400 1 1e5 Rx d 8 02 ac 04 00 00 00 60 f8 
0.069000 1 241 Rx d 7 29 28 54 0a 0a 45 00 
0.069700 1 129 Rx d 8 07 21 ba 5f 00 20 ff 3f 
0.070000 1 22b Rx d 8 ff ff ff ff ff c7 1f fc 
0.070300 1 261 Rx d 8 cc 02 f8 49 00 40 04 49 
0.071200 1 288 Rx d 8 03 11 00 40 80 00 d1 2f 
0.072800 1 123 Rx d 8 01 00 00 00 00 3f 00 00 
0.073100 1 243 Rx d 8 01 fc 68 00 69 00 7c 7c 
0.073300 1 7c8 Rx d 8 0b 2f 01 01 00 00 00 00 
0.073600 1 122 Rx d 8 01 00 00 00 00 3f 00 00 
0.073800 1 39d Rx d 5 24 5b 01 28 00 
0.074100 1 2c1 Rx d 8 02 0d 06 05 00 d0 92 c1 
0.074300 1 439 Rx d 8 02 00 40 00 00 14 00 00 
0.074600 1 132 Rx d 6 eb 87 f5 ff 20 40 
0.076200 1 118 Rx d 8 f9 66 32 00 00 48 00 00 
0.076400 1 266 Rx d 8 00 00 01 22 00 00 9f 01 
0.076700 1 23e Rx d 8 f4 01 3a be fa fc 8f b2 
0.076900 1 1d8 Rx d 8 29 00 00 00 00 00 00 02 
0.077200 1 1e5 Rx d 8 02 ac 04 00 00 00 00 98 
0.077400 1 798 Rx d 8 ce 04 00 00 00 00 30 ae 
0.078100 1 2e1 Rx d 8 04 00 00 80 48 44 26 00 
0.078900 1 3a3 Rx d 8 00 d0 00 00 38 03 fc 01 
0.079700 1 129 Rx d 8 ba 22 bb 5f 00 20 ff 3f 
0.080100 1 2f1 Rx d 8 0c 35 01 d0 13 00 00 00 
0.080300 1 221 Rx d 8 60 55 55 05 54 51 71 48 
0.080500 1 272 Rx d 8 06 00 f1 88 07 48 06 08 
0.081400 1 797 Rx d 4 15 0d 30 ed 
0.082100 1 381 Rx d 8 0a 00 02 02 00 14 8b 00 
0.082900 1 263 Rx d 8 01 d0 bf b1 8c c7 54 1f 
0.083200 1 43b Rx d 8 01 7f 04 ff 00 00 00 00 
0.083400 1 2a8 Rx d 8 02 11 00 00 06 80 20 63 
0.083700 1 234 Rx d 8 23 20 02 27 9d 04 c0 68 
0.083900 1 3db Rx d 8 0a 20 27 24 1d 00 00 00 
0.084100 1 719 Rx d 8 00 03 14 14 14 00 05 00 
0.084600 1 132 Rx d 6 ea 87 f4 ff 23 40 
0.084800 1 393 Rx d 8 06 00 f0 80 07 48 06 08 
0.085400 1 118 Rx d 8 fa 67 32 00 00 48 00 00 
0.085600 1 266 Rx d 8 00 00 01 22 00 00 9f 01 
0.085900 1 257 Rx d 8 76 4c 1f 00 02 a0 0f 01 
0.086100 1 261 Rx d 8 05 22 f1 c7 9a 42 10 c1 
0.086300 1 108 Rx d 8 28 0f 00 02 00 01 00 0d 
0.086600 1 1d8 Rx d 8 29 00 00 00 00 00 20 22 
0.086800 1 126 Rx d 5 01 b0 1d 78 6d 
0.087000 1 1e5 Rx d 8 02 ac 04 00 00 00 20 b8 
0.087200 1 128 Rx d 5 80 02 e4 0a 02 
0.087400 1 1d6 Rx d 8 00 08 04 00 0a 8c 08 05 
0.087700 1 282 Rx d 8 00 00 00 00 e8 23 0b 24 
0.087900 1 268 Rx d 5 01 01 f8 00 c0 
0.088100 1 279 Rx d 8 54 0f 0d 01 74 05 62 02 
0.088300 1 2b6 Rx d 3 00 1b 00 
0.088500 1 395 Rx d 8 09 0f 11 4d 0a 00 08 7d 
0.088700 1 3a2 Rx d 8 d2 29 00 00 22 00 00 00 
0.089000 1 397 Rx d 8 00 00 00 d8 1d 00 00 00 
0.089200 1 201 Rx d 8 82 02 00 00 00 00 98 3b 
0.089500 1 3aa Rx d 8 01 00 00 00 00 00 00 00 
0.089700 1 129 Rx d 8 ad 23 bb 5f 00 20 ff 3f 
0.089900 1 3c2 Rx d 8 00 55 55 55 00 00 5a 45 
0.090200 1 379 Rx d 8 05 00 6c 93 11 49 00 b8 
0.090400 1 3e2 Rx d 7 00 00 80 1a f0 cf 04 
0.090600 1 3e8 Rx d 8 05 00 00 00 00 00 00 00 
0.090900 1 428 Rx d 7 00 00 10 10 00 00 00 
0.091100 1 20c Rx d 8 00 e0 56 1e 00 e0 08 00 
0.091300 1 3f5 Rx d 8 00 00 c8 08 82 04 00 00 
0.091600 1 682 Rx d 8 00 00 00 40 05 02 50 77 
0.091800 1 77a Rx d 8 a1 16 d8 5d f0 5d d8 5d 
0.092100 1 78a Rx d 8 01 00 01 00 e4 5d 9c 5d 
0.092800 1 243 Rx d 8 02 b0 09 13 00 4c 00 00 
0.093100 1 45a Rx d 8 a0 54 54 d4 3f 35 00 68 
0.093300 1 2ec Rx d 3 7f 30 9d 
0.094100 1 2e1 Rx d 8 65 80 08 00 02 d5 8f 6a 
0.094300 1 2c1 Rx d 8 2b 17 13 00 00 00 00 00 
0.094500 1 1f8 Rx d 4 00 00 00 00 
0.094700 1 132 Rx d 6 f6 87 f5 ff 20 40 
0.094900 1 677 Rx d 8 01 00 00 00 00 00 00 00 
0.095900 1 113 Rx d 3 01 97 01 
0.096100 1 318 Rx d 8 1a 08 0e 06 1b 0b 31 a8 
0.096400 1 118 Rx d 8 fb 68 32 00 00 48 00 00 
0.096600 1 3a1 Rx d 8 29 8b 40 11 3e 00 90 93 
0.096800 1 1d8 Rx d 8 29 00 00 00 00 00 40 42 
0.097100 1 458 Rx d 7 00 00 00 00 40 00 00 
0.097200 1 139 Rx d 1 00 
0.097400 1 266 Rx d 8 00 00 01 22 00 00 9f 01 
0.097700 1 4e3 Rx d 8 03 59 00 00 00 00 a8 0c 
0.097900 1 1e5 Rx d 8 02 ac 04 00 00 00 40 d8 
0.098100 1 545 Rx d 8 d0 01 27 d0 96 61 29 32 
0.098400 1 7d5 Rx d 8 2b 00 00 00 00 00 00 00 
0.098500 1 7f4 Rx d 1 01 
0.098700 1 7d5 Rx d 8 2c 00 3f 00 00 00 00 00 
0.099000 1 7d5 Rx d 8 32 00 00 00 00 00 00 00 
0.099200 1 7d7 Rx d 8 32 01 00 00 00 00 00 00 
0.099500 1 7a8 Rx d 8 b4 bc 71 63 00 00 82 00 
0.099700 1 129 Rx d 8 2b 24 bb 5f 00 20 ff 3f 
0.100000 1 7ff Rx d 8 02 53 26 2c 8c 51 a3 90 
0.100700 1 7aa Rx d 8 08 00 00 00 18 01 1b 0e 
0.101400 1 289 Rx d 8 a6 02 01 80 a1 00 3d 0f 
0.102000 1 2d1 Rx d 2 7f 01 
0.102200 1 261 Rx d 8 00 10 01 00 d2 4c 20 45 
0.102900 1 343 Rx d 8 00 92 5c fe 96 00 00 00 
0.103100 1 263 Rx d 8 02 00 00 00 00 00 00 00 
0.104100 1 37a Rx d 8 01 00 31 34 92 00 00 17 
0.104600 1 132 Rx d 6 f3 87 f5 ff 23 40 
0.105300 1 3ae Rx d 8 c5 3f 00 08 00 00 11 1e 
0.105500 1 118 Rx d 8 fc 69 32 00 00 48 00 00 
0.105700 1 228 Rx d 8 03 11 00 40 80 00 d1 cf 
0.106000 1 266 Rx d 8 00 00 01 22 00 00 9f 01 
0.106200 1 257 Rx d 8 77 4d 1f 00 02 a0 0f 01 
0.106500 1 294 Rx d 8 14 c1 40 00 00 00 00 00 
0.106700 1 1d8 Rx d 8 29 00 00 00 00 00 60 62 
0.106900 1 1e5 Rx d 8 02 ac 04 00 00 00 60 f8 
0.107200 1 300 Rx d 8 0d 03 00 00 a1 d7 36 76 
0.107300 1 311 Rx d 2 ff 03 
0.107500 1 332 Rx d 6 ad 19 6a 06 4d 35 
0.107700 1 3d2 Rx d 8 96 dd d5 00 70 08 df 00 
0.108000 1 3f2 Rx d 8 08 ad 7a 38 c0 70 ad 03 
0.108200 1 3fd Rx d 8 02 00 00 00 00 00 00 90 
0.108400 1 452 Rx d 3 2d 71 00 
0.108600 1 472 Rx d 8 ff 00 80 02 00 7f ff 07 
0.108800 1 492 Rx d 7 7d 03 ff 0f 28 00 00 
0.109100 1 3c3 Rx d 8 00 00 00 00 00 45 00 00 
0.109300 1 3e3 Rx d 4 00 00 00 00 
0.109400 1 419 Rx d 1 00 
0.109600 1 4e2 Rx d 8 03 00 00 00 00 00 a8 0c 
0.109900 1 129 Rx d 8 91 25 bb 5f 01 20 ff 3f 
0.110100 1 2e1 Rx d 8 10 21 04 00 12 00 20 08 
0.110300 1 249 Rx d 4 e2 0a 00 00 
0.111000 1 20e Rx d 3 15 05 00 
0.111200 1 359 Rx d 8 4a 04 00 00 9f a0 6f b2 
0.111500 1 7b8 Rx d 8 06 00 00 00 00 00 30 50 
0.111600 1 409 Rx d 1 00 
0.112100 1 441 Rx d 8 2a 00 b6 c3 58 00 25 89 
0.112800 1 243 Rx d 8 03 00 00 80 42 62 1d 00 
0.113100 1 421 Rx d 7 00 14 00 00 00 d0 48 
0.113300 1 39d Rx d 5 25 5c 01 28 00 
0.113500 1 142 Rx d 8 01 00 40 0a c0 1b 00 00 
0.114100 1 3f6 Rx d 8 00 05 00 00 b6 14 00 00 
0.114300 1 201 Rx d 8 83 02 00 00 00 00 b8 3b 
0.114600 1 2bf Rx d 7 0a 00 00 00 00 10 01 
0.114800 1 132 Rx d 6 fb 87 f5 ff 22 40 
0.115000 1 2c1 Rx d 8 04 00 10 0e 0a 11 08 14 
0.115300 1 320 Rx d 8 80 00 00 00 00 00 00 00 
0.115500 1 400 Rx d 7 00 e0 fb be ef fb 00 
0.115700 1 443 Rx d 6 6b 00 ff 03 00 00 
0.115900 1 372 Rx d 8 00 08 c0 9e 82 11 48 23 
0.116200 1 401 Rx d 8 00 2a 50 80 4f 80 51 80 
0.116400 1 118 Rx d 8 fd 6a 32 00 00 48 00 00 
0.116600 1 1d8 Rx d 8 29 00 00 00 00 00 80 82 
0.116900 1 552 Rx d 8 00 00 00 00 00 00 40 97 
0.117100 1 266 Rx d 8 00 00 01 22 00 00 9f 01 
0.117400 1 1e5 Rx d 8 02 ac 04 00 00 00 00 98 
0.117600 1 23e Rx d 8 f4 01 3a be fa fc 9f c2 
0.117900 1 2e8 Rx d 8 02 11 00 00 06 80 e0 63 
0.118100 1 261 Rx d 8 31 00 22 00 6c 49 38 36 
0.118300 1 381 Rx d 8 0b 00 00 c8 00 00 3c 06 
0.118600 1 553 Rx d 8 00 00 00 00 00 00 40 98 
0.119700 1 129 Rx d 8 e6 26 bb 5f 00 20 ff 3f 
0.120000 1 22b Rx d 8 ff ff ff ff ff c7 1f fc 
0.120900 1 383 Rx d 8 bf 18 3b 00 15 81 03 52 
0.121400 1 3a2 Rx d 8 60 85 f2 b7 1c 80 41 72 
0.122400 1 422 Rx d 6 70 00 10 00 00 00 
0.122900 1 263 Rx d 8 03 00 00 00 00 00 00 22 
0.123100 1 2a6 Rx d 8 00 00 6a 18 00 00 00 00 
0.123400 1 2a7 Rx d 8 00 00 00 00 00 70 05 84 
0.123600 1 2b3 Rx d 8 0a 2e 20 00 00 00 00 00 
0.123800 1 2c7 Rx d 8 00 00 00 00 00 00 4c ff 
0.124100 1 448 Rx d 7 00 00 10 10 00 00 00 
0.124600 1 132 Rx d 6 fd 87 f5 ff 24 40 
0.125000 1 2a1 Rx d 6 00 00 98 3a 00 00 
0.125300 1 39a Rx d 8 fd fd fd fd fd 01 00 00 
0.125500 1 118 Rx d 8 fe 6b 32 00 00 48 00 00 
0.125800 1 266 Rx d 8 00 00 01 22 00 00 9f 01 
0.126000 1 257 Rx d 8 78 4e 1f 00 02 a0 0f 01 
0.126200 1 2e1 Rx d 8 39 8d 55 af 1f 28 00 00 
0.126500 1 1d8 Rx d 8 29 00 00 00 00 00 a0 a2 
0.126700 1 1e5 Rx d 8 02 ac 04 00 00 00 20 b8 
0.127000 1 420 Rx d 8 28 01 40 4b 00 00 00 06 
0.127200 1 423 Rx d 7 00 00 00 00 08 00 00 
0.129400 1 2c2 Rx d 8 20 40 80 20 01 00 80 cb 
0.129700 1 129 Rx d 8 f1 27 bb 5f 00 20 ff 3f 
0.130100 1 545 Rx d 8 01 00 00 00 00 10 30 8b 
0.130300 1 221 Rx d 8 61 05 55 55 01 02 80 b6 
0.130500 1 22a Rx d 4 00 00 c9 15 
0.130900 1 211 Rx d 6 a0 1e 71 0d 00 f1 
0.131100 1 39b Rx d 8 01 0a df e0 b0 48 b0 10 
0.131400 1 3ae Rx d 8 c7 3f 00 08 00 00 21 30 
0.132100 1 219 Rx d 7 05 00 6d 6d 6c 6d 00 
0.132400 1 53e Rx d 8 14 05 00 00 75 65 02 81 
0.132500 1 41d Rx d 1 00 
0.132700 1 37d Rx d 8 01 6c 6c 6c 00 00 00 00 
0.133000 1 243 Rx d 8 04 b4 f1 ff fd 7f 69 69 
0.133200 1 2c3 Rx d 8 55 5b a9 b6 02 00 12 a5 
0.133400 1 21d Rx d 8 04 00 35 00 00 00 00 00 
0.133700 1 25d Rx d 8 36 41 01 2a 04 f0 d8 03 
0.133900 1 3dd Rx d 8 08 00 00 00 00 00 00 00 
0.134100 1 261 Rx d 8 fa 28 5e 02 80 5c 42 96 
0.134400 1 234 Rx d 8 27 e1 03 80 43 00 d4 3d 
0.134600 1 2c1 Rx d 8 50 24 7e 00 00 8a 02 47 
0.134800 1 132 Rx d 6 fc 87 f6 ff 23 40 
0.135100 1 401 Rx d 8 01 2a 52 80 55 80 50 80 
0.135300 1 677 Rx d 8 02 00 00 00 00 00 00 00 
0.135500 1 719 Rx d 8 01 00 00 00 00 00 00 00 
0.136200 1 118 Rx d 8 ff 6c 32 00 00 48 00 00 
0.136400 1 266 Rx d 8 00 00 01 22 00 00 9f 01 
0.136700 1 1d8 Rx d 8 29 00 00 00 00 00 c0 c2 
0.136900 1 1e5 Rx d 8 02 ac 04 00 00 00 40 d8 
0.138400 1 3a8 Rx d 8 02 00 18 01 00 00 00 80 
0.138600 1 3c2 Rx d 8 29 55 00 00 00 00 00 80 
0.139100 1 201 Rx d 8 f0 c9 01 80 22 8b f1 07 
0.139300 1 2f9 Rx d 8 b0 fb 07 28 00 00 00 00 
0.139700 1 129 Rx d 8 26 28 bb 5f 00 20 ff 3f 
0.140900 1 303 Rx d 8 10 00 00 00 ff ff ff ff 
0.142100 1 2e1 Rx d 8 02 6c 7f 02 3e 62 00 00 
0.142900 1 263 Rx d 8 04 00 00 00 10 04 00 00 
0.143100 1 45a Rx d 8 fd 07 f8 ff 03 00 00 2a 
0.144600 1 132 Rx d 6 f6 87 f5 ff 23 40 
0.145200 1 25b Rx d 8 d3 c0 02 05 6a 86 50 35 
0.145500 1 118 Rx d 8 00 6d 32 00 00 48 00 00 
0.145600 1 1fa Rx d 3 22 c0 01 
0.145900 1 266 Rx d 8 00 00 01 22 00 00 9f 01 
0.146100 1 257 Rx d 8 79 4f 1f 00 02 a0 0f 01 
0.146300 1 2c4 Rx d 8 12 b2 00 9e 0d 2e d5 01 
0.146600 1 1d8 Rx d 8 29 00 00 00 00 00 e0 e2 
0.146800 1 204 Rx d 8 01 00 00 ff 00 00 00 10 
0.147100 1 1e5 Rx d 8 02 ac 04 00 00 00 60 f8 
0.147300 1 264 Rx d 6 38 00 00 00 a0 00 
0.147500 1 224 Rx d 8 04 08 00 48 19 01 10 08 
0.147800 1 3a1 Rx d 8 e8 4e 0e ca 00 0c a2 7c 
0.148000 1 2b4 Rx d 6 23 05 9d 0d 05 01 
0.148200 1 3f9 Rx d 8 08 00 00 00 00 00 00 00 
0.148400 1 405 Rx d 8 10 00 00 00 00 4c 52 57 
0.148700 1 414 Rx d 8 10 00 00 00 00 20 20 20 
0.148900 1 225 Rx d 4 45 55 fa 00 
0.149100 1 55a Rx d 8 02 00 00 00 00 00 00 00 
0.149300 1 666 Rx d 4 00 00 a0 00 
0.149400 1 789 Rx d 4 55 19 40 b0 
0.149700 1 129 Rx d 8 73 29 bb 5f 00 20 ff 3f 
0.150100 1 261 Rx d 8 7b 4b 0a 00 00 40 55 5b 
0.151100 1 43a Rx d 6 02 06 72 02 5c 00 
0.152300 1 242 Rx d 4 55 15 86 05 
0.152800 1 243 Rx d 8 00 fc 4f cc cf 02 41 29 
0.153200 1 3c8 Rx d 8 06 00 00 00 00 00 00 00 
0.153500 1 339 Rx d 8 04 e1 02 00 00 00 40 0f 
0.153700 1 39d Rx d 5 26 5d 01 28 00 
0.154100 1 2c1 Rx d 8 21 1b 0d 0a 02 00 00 00 
0.154300 1 212 Rx d 8 59 04 00 00 81 ff 77 31 
0.154500 1 252 Rx d 8 47 23 93 4a 00 fc 0f 00 
0.154800 1 292 Rx d 8 c7 45 27 5e 72 01 00 00 
0.155000 1 283 Rx d 6 00 00 00 00 00 00 
0.155200 1 132 Rx d 6 f4 87 f4 ff 22 40 
0.155400 1 238 Rx d 8 b0 2b 9c d0 1f 00 e6 86 
0.155600 1 2d2 Rx d 8 6e 29 a8 4e c4 09 d5 14 
0.155800 1 2f2 Rx d 2 12 01 
0.155900 1 35f Rx d 1 00 
0.156100 1 381 Rx d 8 0c 20 00 19 99 c2 00 06 
0.156400 1 118 Rx d 8 01 6e 32 00 00 48 00 00 
0.156600 1 1d8 Rx d 8 29 00 00 00 00 00 00 02 
0.156900 1 266 Rx d 8 00 00 01 22 00 00 9f 01 
0.157100 1 3a2 Rx d 8 01 10 20 00 11 f0 ff 00 
0.157300 1 1e5 Rx d 8 02 ac 04 00 00 00 00 98 
0.157600 1 23e Rx d 8 f4 01 3a be fa fc af d2 
0.157800 1 401 Rx d 8 02 2a 53 80 50 80 56 80 
0.158100 1 42e Rx d 8 00 e0 bf ff fe ef bf ff 
0.158300 1 2e1 Rx d 8 fb 19 6a f9 93 58 09 00 
0.158500 1 340 Rx d 8 09 00 00 00 00 00 00 00 
0.158800 1 42f Rx d 7 a6 3f c9 02 fa 00 ff 
0.159000 1 61d Rx d 8 12 14 8a 34 ac 36 16 08 
0.159100 1 2aa Rx d 3 7f 40 6b 
0.159400 1 360 Rx d 8 0a 00 00 00 00 00 00 00 
0.159700 1 129 Rx d 8 58 2a ba 5f 00 20 ff 3f 
0.159900 1 229 Rx d 3 4c 08 00 
0.160000 1 249 Rx d 4 28 0b 00 00 
0.160300 1 1f9 Rx d 8 00 00 00 00 00 00 00 00 
0.160500 1 54f Rx d 8 00 00 00 00 00 00 00 00 
0.160900 1 3c0 Rx d 8 00 00 00 00 00 00 00 00 
0.162100 1 441 Rx d 8 22 85 89 00 32 00 28 f3 
0.162900 1 263 Rx d 8 00 d0 e7 89 d4 07 55 1f 
0.163100 1 545 Rx d 8 02 00 03 00 00 00 40 8f 
0.163400 1 142 Rx d 8 28 00 02 5a 18 00 01 00 
0.164100 1 201 Rx d 8 01 04 18 01 00 00 80 c4 
0.164600 1 132 Rx d 6 eb 87 f5 ff 22 40 
0.165200 1 788 Rx d 8 01 00 00 00 ff a1 d8 12 
0.165400 1 118 Rx d 8 02 6f 32 00 00 48 00 00 
0.165600 1 3ae Rx d 8 c7 3f 00 08 00 00 30 3f 
0.165900 1 266 Rx d 8 00 00 01 22 00 00 9f 01 
0.166100 1 261 Rx d 8 cc 02 f8 49 00 40 64 a9 
0.166400 1 257 Rx d 8 6a 40 1f 00 02 a0 0f 01 
0.166600 1 102 Rx d 8 22 b3 88 04 8a 0c 21 08 
0.166800 1 1d8 Rx d 8 29 00 00 00 00 00 20 22 
0.167100 1 103 Rx d 8 22 b3 88 04 92 2c 21 02 
0.167200 1 119 Rx d 4 00 00 00 00 
0.167500 1 1e5 Rx d 8 02 ac 04 00 00 00 20 b8 
0.167700 1 6a2 Rx d 5 00 00 00 00 00 
0.169000 1 241 Rx d 7 27 28 d4 09 0a 45 00 
0.169700 1 129 Rx d 8 a9 2b ba 5f 00 20 ff 3f 
0.170000 1 7aa Rx d 8 09 fd 06 fd 06 01 00 00 
0.170300 1 22b Rx d 8 ff ff ff ff ff c7 1f fc 
0.171200 1 288 Rx d 8 03 11 00 40 80 00 e1 3f 
0.172900 1 123 Rx d 8 00 00 12 92 d2 00 00 80 
0.173100 1 243 Rx d 8 01 fc 68 00 69 00 7c 7c 
0.173400 1 122 Rx d 8 00 00 12 92 12 00 00 00 
0.174100 1 2e1 Rx d 8 04 00 00 80 48 44 26 00 
0.174300 1 2c1 Rx d 8 02 0d 06 05 00 d0 92 c1 
0.174500 1 439 Rx d 8 02 00 40 00 00 14 00 00 
0.174700 1 132 Rx d 6 03 88 f6 ff 22 40 
0.175000 1 31a Rx d 8 60 fc ff 02 00 00 a0 1a 
0.175200 1 372 Rx d 8 01 d9 55 03 40 00 44 01 
0.175500 1 401 Rx d 8 03 2a 54 80 55 80 52 80 
0.175700 1 677 Rx d 8 03 00 00 00 00 00 00 00 
0.176200 1 118 Rx d 8 f3 60 32 00 00 48 00 00 
0.176400 1 266 Rx d 8 00 00 01 22 00 00 9f 01 
0.176600 1 1d8 Rx d 8 29 00 00 00 00 00 40 42 
0.176900 1 1e5 Rx d 8 02 ac 04 00 00 00 40 d8 
0.177200 1 798 Rx d 8 20 42 08 59 c0 01 40 70 
0.178800 1 3a3 Rx d 8 00 d0 00 00 38 03 fc 01 
0.179700 1 129 Rx d 8 c9 2c ba 5f 00 20 ff 3f 
0.180100 1 2f1 Rx d 8 0d 00 00 00 00 00 00 00 
0.180300 1 221 Rx d 8 60 55 55 05 54 51 91 68 
0.180500 1 272 Rx d 8 09 80 63 00 00 00 00 00 
0.181400 1 797 Rx d 4 15 0d 40 fd 
0.182100 1 261 Rx d 8 05 22 f1 c7 9a 42 70 21 
0.182900 1 263 Rx d 8 01 d0 bf b1 8c c7 54 1f 
0.183100 1 2b3 Rx d 8 0b ff 9f f0 2f 00 17 00 
0.183300 1 2a8 Rx d 8 02 11 00 00 06 80 30 73 
0.183600 1 234 Rx d 8 23 30 02 27 9d 04 e0 98 
0.183800 1 42a Rx d 8 33 d5 4c b5 51 ad 54 aa 
0.184000 1 719 Rx d 8 0e 00 00 00 00 00 00 14 
0.184600 1 132 Rx d 6 f0 87 f4 ff 22 40 
0.184800 1 393 Rx d 8 09 80 63 00 00 00 00 00 
0.185400 1 118 Rx d 8 f4 61 32 00 00 48 00 00 
0.185600 1 266 Rx d 8 00 00 01 22 00 00 9f 01 
0.185900 1 257 Rx d 8 6b 41 1f 00 02 a0 0f 01 
0.186100 1 78a Rx d 8 01 00 02 00 66 06 65 06 
0.186300 1 108 Rx d 8 18 00 00 02 00 00 00 0d 
0.186600 1 1d8 Rx d 8 29 00 00 00 00 00 60 62 
0.186800 1 126 Rx d 5 01 b0 1d 00 f5 
0.187000 1 1e5 Rx d 8 02 ac 04 00 00 00 60 f8 
0.187200 1 128 Rx d 5 80 02 e4 0a 02 
0.187400 1 1d6 Rx d 8 00 08 04 00 0a cc 17 05 
0.187700 1 282 Rx d 8 00 00 00 00 e8 23 0b 24 
0.187900 1 268 Rx d 5 01 01 f8 00 c0 
0.188100 1 279 Rx d 8 45 00 0d 01 74 05 62 02 
0.188400 1 3a2 Rx d 8 d2 29 00 00 22 00 00 00 
0.188500 1 2b6 Rx d 3 00 03 00 
0.188700 1 395 Rx d 8 09 0f 11 4d 0a 00 08 7d 
0.189000 1 3c2 Rx d 8 00 55 55 55 00 00 5a 45 
0.189200 1 201 Rx d 8 82 02 00 00 00 00 98 3b 
0.189500 1 397 Rx d 8 00 00 00 d8 1d 00 00 00 
0.189700 1 129 Rx d 8 db 2d ba 5f 00 20 ff 3f 
0.189900 1 3e8 Rx d 8 06 00 00 00 00 00 00 00 
0.190200 1 2e1 Rx d 8 65 80 08 00 02 d5 8f 6a 
0.190400 1 379 Rx d 8 06 00 d3 34 10 49 00 25 
0.190700 1 381 Rx d 8 4d 83 01 e7 00 20 6b 05 
0.190900 1 20c Rx d 8 00 e0 56 1e 00 e0 08 00 
0.191100 1 3f5 Rx d 8 00 00 c8 08 82 04 00 00 
0.191400 1 40a Rx d 8 09 00 01 00 00 00 a0 b8 
0.191600 1 428 Rx d 7 00 00 10 10 00 00 00 
0.191900 1 682 Rx d 8 00 00 00 40 05 02 60 87 
0.192900 1 243 Rx d 8 02 b0 09 13 00 4c 00 00 
0.193100 1 45a Rx d 8 a0 54 54 d4 3f 35 00 68 
0.193300 1 2ec Rx d 3 7f 40 ad 
0.193500 1 39d Rx d 5 27 5e 01 28 00 
0.194100 1 2c1 Rx d 8 2b 17 13 00 00 00 00 00 
0.194400 1 1f8 Rx d 4 00 00 00 00 
0.194600 1 132 Rx d 6 fc 87 f5 ff 1f 40 
0.194800 1 401 Rx d 8 04 2a 57 80 54 80 4b 80 
0.195900 1 113 Rx d 3 01 97 01 
0.196100 1 545 Rx d 8 d0 01 2c 90 96 5c 59 22 
0.196400 1 118 Rx d 8 f5 62 32 00 00 48 00 00 
0.196600 1 3a1 Rx d 8 29 8b 40 f3 3d 00 b0 94 
0.196800 1 1d8 Rx d 8 29 00 00 00 00 00 80 82 
0.197100 1 4e3 Rx d 8 04 00 00 00 00 00 00 00 
0.197200 1 139 Rx d 1 00 
0.197400 1 23e Rx d 8 f4 01 3a be fa fc bf e2 
0.197700 1 266 Rx d 8 00 00 01 22 00 00 9f 01 
0.197900 1 7d5 Rx d 8 2b 00 00 00 00 00 00 00 
0.198200 1 1e5 Rx d 8 02 ac 04 00 00 00 00 98 
0.198400 1 261 Rx d 8 00 10 02 00 d2 4c 80 a6 
0.198700 1 7d5 Rx d 8 2c 00 3f 00 00 00 00 00 
0.198900 1 7d5 Rx d 8 32 00 00 00 00 00 00 00 
0.199000 1 7f4 Rx d 1 01 
0.199300 1 7d7 Rx d 8 32 01 00 00 00 00 00 00 
0.199500 1 318 Rx d 8 1a 08 0e 06 1b 0b 33 aa 
0.199700 1 129 Rx d 8 04 2e ba 5f 00 20 ff 3f 
0.200000 1 458 Rx d 7 00 00 00 00 40 00 00 
0.200200 1 7a8 Rx d 8 01 00 00 00 ff a1 c8 12 
0.200400 1 7ff Rx d 8 03 33 08 00 e0 22 16 00 
0.201400 1 289 Rx d 8 a6 02 01 c0 94 00 3d 0f 
0.202000 1 2d1 Rx d 2 7f 01 
0.202900 1 343 Rx d 8 00 92 5c fe 96 00 00 00 
0.203100 1 263 Rx d 8 02 00 00 00 00 00 00 00 
0.204100 1 37a Rx d 8 02 00 7d 0f 2e 00 00 00 
0.204600 1 132 Rx d 6 ff 87 f5 ff 20 40 
0.204700 1 1bb Rx d 1 02 
0.205000 1 284 Rx d 8 30 00 00 00 40 08 90 8e 
0.205100 1 390 Rx d 2 17 06 
0.205300 1 453 Rx d 4 00 00 00 00 
0.205500 1 118 Rx d 8 f6 63 32 00 00 48 00 00 
0.205700 1 228 Rx d 8 03 11 00 40 80 00 e1 df 
0.206000 1 266 Rx d 8 00 00 01 22 00 00 9f 01 
0.206200 1 257 Rx d 8 6c 42 1f 00 02 a0 0f 01 
0.206400 1 2e1 Rx d 8 10 21 04 00 12 00 20 08 
0.206700 1 1d8 Rx d 8 29 00 00 00 00 00 a0 a2 
0.206900 1 3ae Rx d 8 c5 3f 00 08 00 00 40 4d 
0.207200 1 1e5 Rx d 8 02 ac 04 00 00 00 20 b8 
0.207300 1 726 Rx d 3 06 00 00 
0.208400 1 4e2 Rx d 8 04 20 20 82 0c c0 00 00 
0.208900 1 3c3 Rx d 8 55 55 55 01 00 80 43 00 
0.209700 1 129 Rx d 8 f5 2f ba 5f 00 20 ff 3f 
0.209900 1 249 Rx d 4 3a 0c 00 00 
0.210800 1 419 Rx d 1 00 
0.211000 1 20e Rx d 3 16 06 00 
0.211300 1 359 Rx d 8 4b 00 00 00 00 00 00 00 
0.211500 1 7b8 Rx d 8 38 c2 08 79 48 02 40 1f 
0.211600 1 409 Rx d 1 00 
0.212100 1 441 Rx d 8 2a 00 b6 c3 58 00 2d 91 
0.212800 1 243 Rx d 8 03 00 00 80 42 62 1d 00 
0.213100 1 421 Rx d 7 00 14 00 00 00 d0 48 
0.213400 1 142 Rx d 8 01 00 40 0a c0 1b 00 00 
0.214100 1 724 Rx d 3 06 00 00 
0.214300 1 201 Rx d 8 83 02 00 00 00 00 b8 3b 
0.214500 1 261 Rx d 8 31 00 13 00 6c 49 98 87 
0.214700 1 132 Rx d 6 fd 87 f5 ff 23 40 
0.215000 1 2c1 Rx d 8 04 00 10 0e 0a 11 08 14 
0.215200 1 400 Rx d 7 00 e0 fb be ef fb 00 
0.215400 1 401 Rx d 8 05 2a 4c 80 4f 80 50 80 
0.215700 1 552 Rx d 8 00 00 00 00 00 00 50 a7 
0.215900 1 553 Rx d 8 00 00 00 00 00 00 50 a8 
0.216100 1 118 Rx d 8 f7 64 32 00 00 48 00 00 
0.216400 1 266 Rx d 8 00 00 01 22 00 00 9f 01 
0.216600 1 1d8 Rx d 8 29 00 00 00 00 00 c0 c2 
0.216900 1 1e5 Rx d 8 02 ac 04 00 00 00 40 d8 
0.217100 1 677 Rx d 8 04 00 00 00 00 00 00 00 
0.217300 1 718 Rx d 7 02 00 00 00 00 00 00 
0.217600 1 2e8 Rx d 8 02 11 00 00 06 80 f0 73 
0.219700 1 129 Rx d 8 e4 20 bb 5f 00 20 ff 3f 
0.220000 1 22b Rx d 8 ff ff ff ff ff c7 1f fc 
0.220400 1 3a2 Rx d 8 60 85 f2 b7 04 80 41 72 
0.220900 1 383 Rx d 8 bf 18 3b 00 15 81 03 52 
0.222100 1 2e1 Rx d 8 39 8d 55 af 1f 28 00 00 
0.222400 1 422 Rx d 6 70 00 10 00 00 00 
0.222900 1 263 Rx d 8 03 00 00 00 00 00 00 22 
0.223100 1 2a6 Rx d 8 00 00 6a 18 00 00 00 00 
0.223400 1 2a7 Rx d 8 00 00 00 00 00 70 05 84 
0.223600 1 2c7 Rx d 8 00 00 00 00 00 00 4c ff 
0.223800 1 448 Rx d 7 00 00 10 10 00 00 00 
0.224600 1 132 Rx d 6 e2 87 f5 ff 22 40 
0.225000 1 2a1 Rx d 6 00 00 98 3a 00 00 
0.225300 1 39a Rx d 8 fc fd fd fd fd fd fd 01 
0.225500 1 118 Rx d 8 f8 65 32 00 00 48 00 00 
0.225800 1 266 Rx d 8 00 00 01 22 00 00 9f 01 
0.226000 1 257 Rx d 8 6d 43 1f 00 02 a0 0f 01 
0.226200 1 381 Rx d 8 8e ef fb a4 c1 47 48 00 
0.226500 1 1d8 Rx d 8 29 00 00 00 00 00 e0 e2 
0.226700 1 1e5 Rx d 8 02 ac 04 00 00 00 60 f8 
0.227000 1 420 Rx d 8 28 01 40 4b 00 00 80 06 
0.227200 1 423 Rx d 7 00 00 00 00 08 00 00 
0.229100 1 545 Rx d 8 01 00 00 00 00 10 60 bb 
0.229400 1 2c2 Rx d 8 55 63 a9 b6 02 00 1c a5 
0.229700 1 129 Rx d 8 07 21 ba 5f 00 20 ff 3f 
0.230100 1 261 Rx d 8 fa 28 5e 02 80 5c a2 f6 
0.230300 1 221 Rx d 8 61 05 55 55 01 02 a0 d6 
0.230500 1 22a Rx d 4 00 00 c9 15 
0.230700 1 211 Rx d 6 a1 1f 71 0d 00 f1 
0.232100 1 75d Rx d 8 04 00 00 00 00 00 00 00 
0.232300 1 219 Rx d 7 00 80 4a 4a 97 98 04 
0.232600 1 31e Rx d 8 00 00 00 00 00 00 00 00 
0.232700 1 41d Rx d 1 00 
0.233000 1 21d Rx d 8 04 00 35 00 00 00 00 00 
0.233200 1 243 Rx d 8 04 b4 f1 ff fd 7f 69 69 
0.233400 1 25d Rx d 8 36 41 01 2a 04 f0 d8 03 
0.233700 1 234 Rx d 8 28 e1 03 80 43 00 f4 5e 
0.233900 1 2c3 Rx d 8 00 00 c0 4b 01 00 80 cb 
0.234100 1 2c1 Rx d 8 50 24 7e 00 00 8a 02 47 
0.234300 1 39d Rx d 5 28 5f 01 28 00 
0.234600 1 719 Rx d 8 0c c0 0f 00 50 00 00 00 
0.234800 1 132 Rx d 6 ff 87 f5 ff 22 40 
0.235000 1 372 Rx d 8 02 8e 00 3d 80 01 fc 59 
0.235200 1 401 Rx d 8 06 2a 50 80 50 80 54 80 
0.236200 1 118 Rx d 8 f9 66 32 00 00 48 00 00 
0.236400 1 266 Rx d 8 00 00 01 22 00 00 9f 01 
0.236700 1 1d8 Rx d 8 29 00 00 00 00 00 00 02 
0.236900 1 1e5 Rx d 8 02 ac 04 00 00 00 00 98 
0.237300 1 23e Rx d 8 f4 01 3a be fa fc cf f2 
0.238100 1 2e1 Rx d 8 02 6c 7f 02 3e 62 00 00 
0.238400 1 2e2 Rx d 8 08 2e 00 00 00 00 00 00 
0.238700 1 3c2 Rx d 8 29 55 00 00 00 00 00 80 
0.239100 1 201 Rx d 8 f0 d1 01 80 22 8b f1 07 
0.239300 1 2f9 Rx d 8 b0 fb 07 01 9f a0 6f b2 
0.239500 1 6c8 Rx d 8 b4 62 00 13 04 00 00 00 
0.239800 1 129 Rx d 8 ba 22 bb 5f 00 20 ff 3f 
0.240900 1 2e3 Rx d 7 03 00 00 9b 02 0b 00 
0.242900 1 263 Rx d 8 04 00 00 00 10 04 00 00 
0.243100 1 2b3 Rx d 8 0c 00 40 61 a8 49 53 00 
0.243400 1 45a Rx d 8 fd 07 f8 ff 03 00 00 2a 
0.244600 1 132 Rx d 6 fa 87 f5 ff 22 40 
0.245300 1 25b Rx d 8 d3 c0 02 05 6a 86 60 45 
0.245500 1 118 Rx d 8 fa 67 32 00 00 48 00 00 
0.245700 1 1fa Rx d 3 22 c0 01 
0.245900 1 266 Rx d 8 00 00 01 22 00 00 9f 01 
0.246100 1 261 Rx d 8 7b 4b 0a 00 00 40 b5 bb 
0.246400 1 257 Rx d 8 6e 44 1f 00 02 a0 0f 01 
0.246600 1 2c4 Rx d 8 13 9d 00 9c 0d 17 95 01 
0.246800 1 1d8 Rx d 8 29 00 00 00 00 00 20 22 
0.247100 1 204 Rx d 8 01 00 00 ff 00 00 00 10 
0.247300 1 1e5 Rx d 8 02 ac 04 00 00 00 20 b8 
0.247600 1 224 Rx d 8 04 08 00 48 19 01 10 08 
0.247800 1 264 Rx d 6 38 00 00 00 a0 00 
0.248000 1 3a1 Rx d 8 e8 4e 0e ca 00 10 c2 a0 
0.248200 1 2b4 Rx d 6 22 05 9d 0d 04 01 
0.248400 1 3ae Rx d 8 c5 3f 00 08 00 00 50 5d 
0.248700 1 3f9 Rx d 8 00 00 00 00 00 00 00 00 
0.248900 1 225 Rx d 4 45 55 fa 00 
0.249000 1 789 Rx d 4 55 19 50 c0 
0.249700 1 129 Rx d 8 ad 23 bb 5f 00 20 ff 3f 
0.250700 1 7aa Rx d 8 0a 94 06 94 06 00 5b 00 
0.251400 1 2d2 Rx d 8 6e 29 a8 4e c4 09 d5 14 
0.251700 1 212 Rx d 8 59 04 00 00 81 ff 77 31 
0.251900 1 252 Rx d 8 47 23 93 4a 00 fc 0f 00 
0.252100 1 292 Rx d 8 c7 45 27 5e 72 01 00 00 
0.252300 1 2f2 Rx d 2 12 01 
0.252400 1 242 Rx d 4 55 15 86 05 
0.252700 1 312 Rx d 8 70 e4 66 44 5d 41 16 14 
0.252900 1 243 Rx d 8 00 fc 4f cc cf 02 41 29 
0.253100 1 392 Rx d 8 00 10 00 00 00 00 00 00 
0.253400 1 339 Rx d 8 04 e1 02 00 00 00 40 0f 
0.253600 1 3a2 Rx d 8 01 10 20 00 14 f0 ff 00 
0.253900 1 3b2 Rx d 8 46 00 00 00 00 e7 04 00 
0.254100 1 2c1 Rx d 8 21 1b 0d 0a 02 00 00 00 
0.254300 1 2e1 Rx d 8 fb 19 6e f9 93 61 09 00 
0.254600 1 3c8 Rx d 8 00 00 00 00 00 00 00 00 
0.254800 1 677 Rx d 8 00 00 00 00 00 00 00 00 
0.255000 1 132 Rx d 6 f3 87 f5 ff 22 40 
0.255300 1 283 Rx d 6 00 00 00 00 00 00 
0.255500 1 285 Rx d 8 41 03 65 01 0d 00 08 00 
0.255700 1 286 Rx d 5 ff ff ff ff 71 
0.255900 1 401 Rx d 8 07 2a 4d 80 53 80 53 80 
0.256100 1 353 Rx d 8 7b 0f 39 80 07 14 00 02 
0.256400 1 118 Rx d 8 fb 68 32 00 00 48 00 00 
0.256600 1 1d8 Rx d 8 29 00 00 00 00 00 40 42 
0.256900 1 373 Rx d 8 06 45 ab 00 00 de 0a 1f 
0.257100 1 266 Rx d 8 00 00 01 22 00 00 9f 01 
0.257300 1 3d8 Rx d 4 48 00 4a 00 
0.257500 1 1e5 Rx d 8 02 ac 04 00 00 00 40 d8 
0.257800 1 712 Rx d 8 00 2a 2b 0c 39 0c 1f 0c 
0.258100 1 340 Rx d 8 0a 04 00 00 00 00 00 00 
0.259100 1 2aa Rx d 3 7f 50 7b 
0.259400 1 360 Rx d 8 00 00 00 00 02 00 00 00 
0.259700 1 129 Rx d 8 df 24 ba 5f 00 20 ff 3f 
0.259900 1 229 Rx d 3 a5 09 00 
0.260000 1 249 Rx d 4 13 0d 00 00 
0.260300 1 1f9 Rx d 8 00 00 00 00 00 00 00 00 
0.260500 1 330 Rx d 8 10 00 39 2e 32 52 00 00 
0.260800 1 54f Rx d 8 00 00 00 00 00 00 00 00 
0.261000 1 3c0 Rx d 8 01 00 00 00 00 00 00 01 
0.262100 1 261 Rx d 8 cc 02 f8 49 00 40 c4 09 
0.262300 1 381 Rx d 8 cf 73 37 70 00 00 3b 06 
0.262500 1 441 Rx d 8 22 85 89 00 32 00 30 fb 
0.262800 1 545 Rx d 8 02 00 03 00 00 00 70 bf 
0.263000 1 263 Rx d 8 00 d0 e7 89 d4 07 55 1f 
0.263400 1 142 Rx d 8 28 00 02 5a 18 00 01 00 
0.264100 1 201 Rx d 8 01 04 18 01 00 00 80 c4 
0.264600 1 132 Rx d 6 fc 87 f5 ff 22 40 
0.265200 1 788 Rx d 8 02 40 d1 d7 4c 03 00 00 
0.265400 1 118 Rx d 8 fc 69 32 00 00 48 00 00 
0.265600 1 6a2 Rx d 5 00 00 00 00 00 
0.265800 1 266 Rx d 8 00 00 01 22 00 00 9f 01 
0.266100 1 257 Rx d 8 6f 45 1f 00 02 a0 0f 01 
0.266500 1 1d8 Rx d 8 29 00 00 00 00 00 60 62 
0.266700 1 102 Rx d 8 22 b3 88 04 8c 0c 21 08 
0.266900 1 103 Rx d 8 22 b3 88 04 92 2c 21 02 
0.267200 1 1e5 Rx d 8 02 ac 04 00 00 00 60 f8 
0.267300 1 119 Rx d 4 00 00 00 00 
0.269000 1 241 Rx d 7 28 28 14 0a 0a 45 00 
0.269700 1 129 Rx d 8 c8 25 ba 5f 00 20 ff 3f 
0.270000 1 22b Rx d 8 ff ff ff ff ff c7 1f fc 
0.270300 1 2e1 Rx d 8 04 00 00 80 48 44 26 00 
0.270600 1 3ae Rx d 8 c5 3f 00 08 00 00 61 6e 
0.271300 1 288 Rx d 8 03 11 00 40 80 00 f1 4f 
0.272900 1 123 Rx d 8 01 00 00 00 00 3f 00 00 
0.273100 1 243 Rx d 8 01 fc 69 00 69 00 7c 7c 
0.273400 1 122 Rx d 8 01 00 00 00 00 3f 00 00 
0.273600 1 39d Rx d 5 19 50 01 28 00 
0.274100 1 2c1 Rx d 8 02 0d 06 05 00 d0 92 c1 
0.274300 1 439 Rx d 8 02 00 40 00 00 14 00 00 
0.274600 1 132 Rx d 6 f4 87 f4 ff 23 40 
0.274800 1 401 Rx d 8 08 2a 54 80 4e 80 4d 80 
0.276200 1 118 Rx d 8 fd 6a 32 00 00 48 00 00 
0.276500 1 266 Rx d 8 00 00 01 22 00 00 9f 01 
0.276700 1 1d8 Rx d 8 29 00 00 00 00 00 80 82 
0.276900 1 1e5 Rx d 8 02 ac 04 00 00 00 00 98 
0.277200 1 798 Rx d 8 91 d6 02 43 08 01 50 b1 
0.277500 1 23e Rx d 8 f4 01 3a be fa fc df 02 
0.278100 1 261 Rx d 8 05 22 f1 c7 9a 42 d0 81 
0.278900 1 3a3 Rx d 8 00 d0 00 00 38 03 fc 01 
0.279700 1 129 Rx d 8 e6 26 bb 5f 00 20 ff 3f 
0.280100 1 2f1 Rx d 8 2e 00 80 20 c4 00 20 04 
0.280300 1 221 Rx d 8 60 55 55 05 54 51 b1 88 
0.280500 1 272 Rx d 8 06 00 f1 88 07 48 06 08 
0.281400 1 797 Rx d 4 15 0d 50 0d 
0.282900 1 263 Rx d 8 01 d0 bf b1 8c c7 54 1f 
0.283200 1 719 Rx d 8 0d 00 00 00 00 00 00 00 
0.283400 1 2a8 Rx d 8 02 11 00 00 06 80 40 83 
0.283700 1 234 Rx d 8 23 20 02 27 9d 04 00 a8 
0.284600 1 132 Rx d 6 f2 87 f5 ff 22 40 
0.284800 1 393 Rx d 8 06 00 f0 80 07 48 06 08 
0.285400 1 118 Rx d 8 fe 6b 32 00 00 48 00 00 
0.285600 1 266 Rx d 8 00 00 01 22 00 00 9f 01 
0.285900 1 257 Rx d 8 70 46 1f 00 02 a0 0f 01 
0.286100 1 78a Rx d 8 01 00 03 00 a5 04 7b 02 
0.286300 1 108 Rx d 8 17 01 00 02 00 ff ff 0d 
0.286600 1 1d8 Rx d 8 29 00 00 00 00 00 a0 a2 
0.286800 1 126 Rx d 5 01 b0 1d 08 fd 
0.287000 1 1e5 Rx d 8 02 ac 04 00 00 00 20 b8 
0.287200 1 128 Rx d 5 80 02 e4 0a 02 
0.287400 1 1d6 Rx d 8 00 08 04 00 0a 4c 19 05 
0.287700 1 282 Rx d 8 00 00 00 00 e8 23 0b 24 
0.287900 1 268 Rx d 5 01 01 f8 00 c0 
0.288100 1 279 Rx d 8 46 01 0d 01 74 05 62 02 
0.288200 1 2b6 Rx d 3 00 1b 00 
0.288500 1 2e1 Rx d 8 65 80 08 00 02 d5 8f 6a 
0.288700 1 395 Rx d 8 09 0f 12 4d 0a 00 08 7d 
0.288900 1 397 Rx d 8 00 00 00 d8 1d 00 00 00 
0.289200 1 201 Rx d 8 82 02 00 00 00 00 98 3b 
0.289400 1 3a2 Rx d 8 e2 29 00 00 22 00 00 00 
0.289700 1 3c2 Rx d 8 00 55 55 55 00 00 5a 45 
0.289900 1 129 Rx d 8 f1 27 bb 5f 00 20 ff 3f 
0.290100 1 3e2 Rx d 7 00 00 80 1a f0 cf 04 
0.290400 1 379 Rx d 8 07 e0 ef 09 00 00 19 06 
0.290600 1 3e8 Rx d 8 00 00 00 00 00 00 00 00 
0.290800 1 428 Rx d 7 00 00 10 10 00 00 00 
0.291100 1 20c Rx d 8 00 e0 56 1e 00 e0 08 00 
0.291300 1 3f5 Rx d 8 00 00 c8 08 82 04 00 00 
0.291600 1 682 Rx d 8 00 00 00 40 05 02 70 97 
0.292800 1 243 Rx d 8 02 b0 09 13 00 4c 00 00 
0.293100 1 45a Rx d 8 a0 54 54 d4 3f 35 00 69 
0.293300 1 23a Rx d 8 50 26 ed 21 08 00 00 00 
0.293500 1 2ec Rx d 3 7f 50 bd 
0.294100 1 261 Rx d 8 00 10 02 00 d2 4c e0 06 
0.294300 1 2c1 Rx d 8 2b 17 13 00 00 00 00 00 
0.294500 1 1f8 Rx d 4 00 00 00 00 
0.294700 1 132 Rx d 6 f4 87 f5 ff 24 40 
0.294900 1 372 Rx d 8 03 10 0b 50 00 01 00 00 
0.295200 1 401 Rx d 8 09 2a 50 80 50 80 51 80 
0.295400 1 545 Rx d 8 d0 01 27 b0 96 63 89 74 
0.295600 1 677 Rx d 8 01 00 00 00 00 00 00 00 
0.295900 1 113 Rx d 3 01 97 01 
0.296100 1 318 Rx d 8 1a 08 0e 06 1b 0b 35 ac 
0.296400 1 118 Rx d 8 ff 6c 32 00 00 48 00 00 
0.296600 1 3a1 Rx d 8 29 8b 40 1f 3e 00 d0 e1 
0.296800 1 1d8 Rx d 8 29 00 00 00 00 00 c0 c2 
0.297100 1 458 Rx d 7 00 00 00 00 40 00 00 
0.297200 1 139 Rx d 1 00 
0.297400 1 266 Rx d 8 00 00 01 22 00 00 9f 01 
0.297700 1 4e3 Rx d 8 cd 04 6b 51 00 0a 00 00 
0.297900 1 1e5 Rx d 8 02 ac 04 00 00 00 40 d8 
0.298200 1 381 Rx d 8 30 00 41 5e 42 4c 00 60 
0.298400 1 7d5 Rx d 8 2b 00 00 00 00 00 00 00 
0.298700 1 7d5 Rx d 8 2c 00 3f 00 00 00 00 00 
0.298900 1 7d5 Rx d 8 32 00 00 00 00 00 00 00 
0.299100 1 7d7 Rx d 8 32 01 00 00 00 00 00 00 
0.299400 1 7a8 Rx d 8 02 40 d1 c7 4c 07 00 00 
0.299500 1 7f4 Rx d 1 01 
0.299700 1 129 Rx d 8 d2 28 ba 5f 00 20 ff 3f 
0.300000 1 7ff Rx d 8 04 21 fb a8 60 20 a4 20 
0.300200 1 2d3 Rx d 8 f1 00 99 03 42 20 1d 61 
0.301400 1 289 Rx d 8 a6 02 01 00 88 00 3d 0f 
0.301700 1 3f1 Rx d 8 06 00 00 00 00 00 00 00 
0.302000 1 2d1 Rx d 2 7f 01 
0.302200 1 2e1 Rx d 8 10 21 04 00 12 00 20 08 
0.302900 1 343 Rx d 8 00 92 60 2e 97 00 00 00 
0.303100 1 263 Rx d 8 02 00 00 00 00 00 00 00 
0.303300 1 2b3 Rx d 8 0d 05 a0 94 6e 42 35 a2 
0.304200 1 37a Rx d 8 03 00 00 00 00 00 00 00 
0.304400 1 313 Rx d 8 02 64 64 05 00 00 40 25 
0.304600 1 132 Rx d 6 f9 87 f5 ff 22 40 
0.305400 1 118 Rx d 8 00 6d 32 00 00 48 00 00 
0.305600 1 228 Rx d 8 03 11 00 40 80 00 f1 ef 
0.305900 1 266 Rx d 8 00 00 01 22 00 00 9f 01 
0.306100 1 257 Rx d 8 71 47 1f 00 02 a0 0f 01 
0.306300 1 285 Rx d 8 02 d5 00 00 00 00 de 00 
0.306600 1 1d8 Rx d 8 29 00 00 00 00 00 e0 e2 
0.306800 1 1e5 Rx d 8 02 ac 04 00 00 00 60 f8 
0.307000 1 727 Rx d 2 00 00 
0.308400 1 4e2 Rx d 8 ad 03 66 41 02 00 00 00 
0.308900 1 3c3 Rx d 8 00 00 00 00 00 45 00 00 
0.309000 1 3e3 Rx d 4 00 00 00 00 
0.309700 1 129 Rx d 8 87 29 ba 5f 00 20 ff 3f 
0.309900 1 249 Rx d 4 af 0e 00 00 
0.310100 1 261 Rx d 8 31 00 0b 00 6c 49 f8 df 
0.310400 1 709 Rx d 8 1e 00 00 00 00 00 00 00 
0.310900 1 419 Rx d 1 00 
0.311100 1 20e Rx d 3 17 07 00 
0.311300 1 359 Rx d 8 4c 00 00 00 00 00 00 00 
0.311600 1 3ae Rx d 8 c5 3f 00 08 00 00 71 7e 
0.311700 1 409 Rx d 1 00 
0.311900 1 7b8 Rx d 8 69 d6 02 8c 04 00 50 3b 
0.312200 1 441 Rx d 8 2a 00 b6 c3 58 00 35 99 
0.312900 1 243 Rx d 8 03 00 00 80 42 62 1d 00 
0.313100 1 421 Rx d 7 00 14 00 00 00 d0 48 
0.313300 1 39d Rx d 5 1a 51 01 28 00 
0.313600 1 142 Rx d 8 01 00 40 0a c0 1b 00 00 
0.314100 1 2c1 Rx d 8 04 00 10 0e 0a 11 08 14 
0.314300 1 201 Rx d 8 83 02 00 00 00 00 b8 3b 
0.314600 1 2bf Rx d 7 0a 00 00 00 00 10 01 
0.314800 1 132 Rx d 6 f2 87 f5 ff 23 40 
0.315000 1 320 Rx d 8 01 00 00 08 00 00 00 00 
0.315200 1 400 Rx d 7 00 e0 fb be ef fb 00 
0.315500 1 401 Rx d 8 0a 2a 50 80 4f 80 50 80 
0.315700 1 552 Rx d 8 00 00 00 00 00 00 60 b7 
0.316000 1 553 Rx d 8 00 00 00 00 00 00 60 b8 
0.316200 1 118 Rx d 8 01 6e 32 00 00 48 00 00 
0.316400 1 266 Rx d 8 00 00 01 22 00 00 9f 01 
0.316700 1 1d8 Rx d 8 29 00 00 00 00 00 00 02 
0.316900 1 1e5 Rx d 8 02 ac 04 00 00 00 00 98 
0.317200 1 23e Rx d 8 f4 01 3a be fa fc ef 12 
0.317500 1 2e8 Rx d 8 02 11 00 00 06 80 00 83 
0.318100 1 2e1 Rx d 8 39 8d 55 af 1f 28 00 00 
0.319400 1 3a2 Rx d 8 60 c5 f2 b5 1c 80 41 72 
0.319700 1 129 Rx d 8 ac 2a bb 5f 00 20 ff 3f 
0.320000 1 22b Rx d 8 ff ff ff ff ff c7 1f fc 
0.320900 1 383 Rx d 8 bf 18 3b 00 15 81 03 52 
0.322400 1 422 Rx d 6 70 00 10 00 00 00 
0.322900 1 263 Rx d 8 03 00 00 00 00 00 00 22 
0.323100 1 2a6 Rx d 8 00 00 6a 18 00 00 00 00 
0.323400 1 2a7 Rx d 8 00 00 00 00 00 70 05 84 
0.323600 1 2c7 Rx d 8 00 00 00 00 00 00 4c ff 
0.323900 1 366 Rx d 8 0b 00 01 01 01 00 00 00 
0.324100 1 448 Rx d 7 00 00 10 10 00 00 00 
0.324600 1 132 Rx d 6 06 88 f5 ff 23 40 
0.325000 1 2a1 Rx d 6 00 00 98 3a 00 00 
0.325300 1 39a Rx d 8 fd fd fd fd fd 01 00 00 
0.325500 1 118 Rx d 8 02 6f 32 00 00 48 00 00 
0.325800 1 266 Rx d 8 00 00 01 22 00 00 9f 01 
0.326000 1 257 Rx d 8 72 48 1f 00 02 a0 0f 01 
0.326300 1 261 Rx d 8 fa 28 5e 02 80 5c 02 56 
0.326500 1 1d8 Rx d 8 29 00 00 00 00 00 20 22 
0.326800 1 1e5 Rx d 8 02 ac 04 00 00 00 20 b8 
0.327000 1 420 Rx d 8 28 01 40 4b 00 00 00 07 
0.327200 1 423 Rx d 7 00 00 00 00 08 00 00 
0.328100 1 545 Rx d 8 01 00 00 00 00 10 90 eb 
0.329400 1 2c2 Rx d 8 20 40 80 20 01 00 80 cb 
0.329700 1 129 Rx d 8 a9 2b ba 5f 00 20 ff 3f 
0.330100 1 221 Rx d 8 61 05 55 55 01 02 c0 f6 
0.330200 1 22a Rx d 4 00 00 c9 15 
0.330500 1 7aa Rx d 8 0b 4c 00 28 3f 00 33 00 
0.330700 1 211 Rx d 6 92 10 71 0d 00 f1 
0.332100 1 31e Rx d 8 01 00 00 00 00 00 00 00 
0.332300 1 219 Rx d 7 01 80 4a 49 97 99 04 
0.332600 1 21d Rx d 8 04 00 35 00 00 00 00 00 
0.332700 1 41d Rx d 1 00 
0.332900 1 243 Rx d 8 04 b4 f1 ff fd 7f 68 69 
0.333200 1 25d Rx d 8 36 41 01 2a 04 f0 d8 03 
0.333400 1 2c3 Rx d 8 55 5b a9 b6 02 00 12 a5 
0.333700 1 34a Rx d 8 01 07 00 00 00 00 00 60 
0.333900 1 43b Rx d 8 02 7f 04 ff 00 00 00 00 
0.334100 1 234 Rx d 8 29 e1 03 80 43 00 14 7f 
0.334400 1 2c1 Rx d 8 50 24 7e 00 00 8a 02 47 
0.334600 1 2e1 Rx d 8 02 6c 7f 02 3e 62 00 00 
0.334800 1 132 Rx d 6 ed 87 f5 ff 22 40 
0.335000 1 381 Rx d 8 11 32 4b 00 23 e0 07 a0 
0.335300 1 401 Rx d 8 0b 2a 50 80 51 80 4f 80 
0.335500 1 677 Rx d 8 02 00 00 00 00 00 00 00 
0.335800 1 719 Rx d 8 13 50 05 54 01 00 00 00 
0.336100 1 118 Rx d 8 f3 60 32 00 00 48 00 00 
0.336400 1 266 Rx d 8 00 00 01 22 00 00 9f 01 
0.336600 1 1d8 Rx d 8 29 00 00 00 00 00 40 42 
0.336900 1 1e5 Rx d 8 02 ac 04 00 00 00 40 d8 
0.338400 1 3a8 Rx d 8 03 00 00 00 00 00 00 00 
0.338600 1 3c2 Rx d 8 29 55 00 00 00 00 00 80 
0.339100 1 201 Rx d 8 f0 d1 01 80 22 8b f1 07 
0.339300 1 2f9 Rx d 8 b0 fb 07 08 00 00 00 00 
0.339700 1 129 Rx d 8 a0 2c ba 5f ff 1f ff 3f 
0.342100 1 261 Rx d 8 7b 4b 0a 00 00 40 15 1b 
0.342900 1 263 Rx d 8 04 00 00 00 10 04 00 00 
0.343100 1 45a Rx d 8 fd 07 f8 ff 03 00 00 2a 
0.344600 1 132 Rx d 6 f4 87 f5 ff 20 40 
0.345300 1 25b Rx d 8 d3 c0 02 05 6a 86 70 55 
0.345500 1 118 Rx d 8 f4 61 32 00 00 48 00 00 
0.345600 1 1fa Rx d 3 22 c0 01 
0.345900 1 266 Rx d 8 00 00 01 22 00 00 9f 01 
0.346100 1 3a1 Rx d 8 e8 4e 0e ca 00 0c e2 bc 
0.346400 1 257 Rx d 8 73 49 1f 00 02 a0 0f 01 
0.346600 1 1d8 Rx d 8 29 00 00 00 00 00 60 62 
0.346800 1 1e5 Rx d 8 02 ac 04 00 00 00 60 f8 
0.347100 1 204 Rx d 8 01 00 00 ff 00 00 00 10 
0.347300 1 2c4 Rx d 8 14 00 00 00 00 00 00 00 
0.347600 1 3f9 Rx d 8 01 00 00 00 00 00 00 00 
0.347800 1 264 Rx d 6 38 00 00 00 a0 00 
0.348000 1 789 Rx d 4 55 19 60 d0 
0.348200 1 224 Rx d 8 04 08 00 48 19 01 10 08 
0.348400 1 2d7 Rx d 4 a2 cc 00 03 
0.348600 1 2b4 Rx d 6 23 05 9d 0d 07 01 
0.348800 1 225 Rx d 4 45 55 fa 00 
0.349700 1 129 Rx d 8 2f 2d bb 5f 00 20 ff 3f 
0.350100 1 2e1 Rx d 8 fb 19 6d f9 93 5c 09 00 
0.351200 1 3ae Rx d 8 c5 3f 00 08 00 00 81 8e 
0.351500 1 2d2 Rx d 8 6e 29 a8 4e c4 09 d5 14 
0.351700 1 212 Rx d 8 59 04 00 00 81 ff 77 31 
0.351900 1 252 Rx d 8 47 23 93 4a 00 fc 0f 00 
0.352200 1 292 Rx d 8 c7 45 27 5e 72 01 00 00 
0.352300 1 242 Rx d 4 55 15 86 05 
0.352500 1 2f2 Rx d 2 12 01 
0.352700 1 3a2 Rx d 8 01 10 20 00 14 f0 ff 00 
0.352900 1 243 Rx d 8 00 fc 4f cc cf 02 41 29 
0.353200 1 712 Rx d 8 01 2a 0c 0c 2c 0c 11 0c 
0.353400 1 339 Rx d 8 04 e1 02 00 00 00 40 0f 
0.353600 1 39d Rx d 5 1b 52 01 28 00 
0.353900 1 3c8 Rx d 8 01 00 00 00 00 00 00 00 
0.354100 1 2c1 Rx d 8 21 1b 0d 0a 02 00 00 00 
0.354800 1 132 Rx d 6 07 88 f5 ff 23 40 
0.355000 1 283 Rx d 6 00 00 00 00 00 00 
0.355200 1 372 Rx d 8 04 00 00 00 00 00 fa 10 
0.355500 1 293 Rx d 8 01 0c 15 90 55 14 ef 9f 
0.355700 1 2d3 Rx d 8 f1 00 99 03 42 20 1d 61 
0.356000 1 3df Rx d 8 00 00 80 00 01 d0 00 1b 
0.356200 1 118 Rx d 8 f5 62 32 00 00 48 00 00 
0.356400 1 285 Rx d 8 03 47 86 48 95 00 00 00 
0.356700 1 266 Rx d 8 00 00 01 22 00 00 9f 01 
0.356900 1 401 Rx d 8 0c 2a 4e 80 4c 80 4b 80 
0.357200 1 1d8 Rx d 8 29 00 00 00 00 00 80 82 
0.357400 1 1e5 Rx d 8 02 ac 04 00 00 00 00 98 
0.357600 1 23e Rx d 8 f4 01 3a be fa fc ff 22 
0.358100 1 340 Rx d 8 0b 40 00 00 00 00 00 00 
0.358300 1 261 Rx d 8 cc 02 f8 49 00 40 24 69 
0.359100 1 2aa Rx d 3 7f 60 8b 
0.359400 1 360 Rx d 8 01 00 00 00 00 00 00 00 
0.359700 1 129 Rx d 8 f0 2e bb 5f 00 20 ff 3f 
0.359900 1 229 Rx d 3 f6 0a 00 
0.360000 1 249 Rx d 4 ce 0f 00 00 
0.360300 1 1f9 Rx d 8 00 00 00 00 00 00 00 00 
0.360500 1 54f Rx d 8 00 00 00 00 00 00 00 00 
0.360900 1 3c0 Rx d 8 02 00 00 00 00 00 00 00 
0.361100 1 545 Rx d 8 02 00 02 00 00 00 a0 ee 
0.362100 1 441 Rx d 8 22 85 89 00 32 00 38 03 
0.362900 1 263 Rx d 8 00 d0 e7 89 d4 07 55 1f 
0.363100 1 2b3 Rx d 8 ae 55 00 fc bf 3f 19 10 
0.363400 1 142 Rx d 8 28 00 02 5a 18 00 01 00 
0.364100 1 201 Rx d 8 01 04 18 01 00 00 80 c4 
0.364600 1 132 Rx d 6 03 88 f5 ff 23 40 
0.365200 1 788 Rx d 8 b4 c4 71 63 00 00 8a 00 
0.365400 1 118 Rx d 8 f6 63 32 00 00 48 00 00 
0.365600 1 6a2 Rx d 5 00 00 00 00 00 
0.365800 1 266 Rx d 8 00 00 01 22 00 00 9f 01 
0.366100 1 257 Rx d 8 74 4a 1f 00 02 a0 0f 01 
0.366300 1 2e1 Rx d 8 04 00 00 80 48 44 26 00 
0.366600 1 102 Rx d 8 22 b3 88 04 8c 0c 21 08 
0.366800 1 1d8 Rx d 8 29 00 00 00 00 00 a0 a2 
0.367000 1 103 Rx d 8 22 b3 88 04 92 2c 21 02 
0.367200 1 119 Rx d 4 00 00 00 00 
0.367400 1 1e5 Rx d 8 02 ac 04 00 00 00 20 b8 
0.369100 1 241 Rx d 7 28 28 14 0a 0a 45 00 
0.369700 1 129 Rx d 8 f5 2f ba 5f 00 20 ff 3f 
0.370100 1 22b Rx d 8 ff ff ff ff ff c7 1f fc 
0.370300 1 381 Rx d 8 72 00 32 36 00 40 25 02 
0.370600 1 3ae Rx d 8 c5 3f 00 08 00 00 90 9d 
0.371300 1 288 Rx d 8 03 11 00 40 80 00 01 5f 
0.372900 1 123 Rx d 8 00 00 12 92 d2 00 00 80 
0.373100 1 243 Rx d 8 01 fc 69 00 69 00 7c 7c 
0.373400 1 122 Rx d 8 00 00 12 92 12 00 00 00 
0.374100 1 261 Rx d 8 05 22 f1 c7 9a 42 30 e1 
0.374300 1 2c1 Rx d 8 02 0d 06 05 00 d0 92 c1 
0.374500 1 439 Rx d 8 02 00 40 00 00 14 00 00 
0.374700 1 132 Rx d 6 f0 87 f5 ff 22 40 
0.375000 1 31a Rx d 8 60 fc ff 02 00 00 b0 2a 
0.375200 1 401 Rx d 8 0d 2a 49 80 4d 80 4c 80 
0.375500 1 677 Rx d 8 03 00 00 00 00 00 00 00 
0.376100 1 118 Rx d 8 f7 64 32 00 00 48 00 00 
0.376400 1 266 Rx d 8 00 00 01 22 00 00 9f 01 
0.376600 1 1d8 Rx d 8 29 00 00 00 00 00 c0 c2 
0.376800 1 1e5 Rx d 8 02 ac 04 00 00 00 40 d8 
0.377200 1 798 Rx d 8 42 c3 76 3d 10 01 60 d5 
0.378900 1 3a3 Rx d 8 00 d0 00 00 38 03 fc 01 
0.379700 1 129 Rx d 8 e4 20 bb 5f 00 20 ff 3f 
0.380100 1 2f1 Rx d 8 0f 23 29 93 98 83 39 00 
0.380300 1 221 Rx d 8 60 55 55 05 54 51 d1 a8 
0.380500 1 272 Rx d 8 09 80 63 00 00 00 00 00 
0.381400 1 797 Rx d 4 15 0d 60 1d 
0.382100 1 2e1 Rx d 8 65 80 08 00 02 d5 8f 6a 
0.382900 1 263 Rx d 8 01 d0 bf b1 8c c7 54 1f 
0.383200 1 42a Rx d 8 33 d5 4c b5 51 ad 54 aa 
0.383400 1 2a8 Rx d 8 02 11 00 00 06 80 50 93 
0.383700 1 234 Rx d 8 23 20 02 27 9d 04 20 c8 
0.383900 1 719 Rx d 8 03 00 00 00 00 00 00 00 
0.384600 1 132 Rx d 6 fb 87 f5 ff 22 40 
0.384900 1 393 Rx d 8 09 80 63 00 00 00 00 00 
0.385400 1 118 Rx d 8 f8 65 32 00 00 48 00 00 
0.385600 1 3a2 Rx d 8 e2 29 00 00 22 00 00 00 
0.385800 1 266 Rx d 8 00 00 01 22 00 00 9f 01 
0.386100 1 257 Rx d 8 75 4b 1f 00 02 a0 0f 01 
0.386300 1 108 Rx d 8 18 02 00 02 00 ff ff 0d 
0.386600 1 1d8 Rx d 8 29 00 00 00 00 00 e0 e2 
0.386700 1 126 Rx d 5 01 b0 1d 10 05 
0.387000 1 1e5 Rx d 8 02 ac 04 00 00 00 60 f8 
0.387200 1 128 Rx d 5 80 02 e4 0a 02 
0.387400 1 1d6 Rx d 8 00 08 04 00 0a 0c 10 05 
0.387700 1 282 Rx d 8 00 00 00 00 e8 23 0b 24 
0.387800 1 268 Rx d 5 01 01 f8 00 c0 
0.388100 1 279 Rx d 8 47 02 0d 01 74 05 62 02 
0.388200 1 2b6 Rx d 3 00 03 00 
0.388500 1 395 Rx d 8 09 0f 11 4d 0a 00 08 7d 
0.388700 1 3c2 Rx d 8 00 55 55 55 00 00 5a 45 
0.388900 1 397 Rx d 8 00 00 00 d8 1d 00 00 00 
0.389200 1 201 Rx d 8 82 02 00 00 00 00 98 3b 
0.389400 1 3e8 Rx d 8 01 00 00 00 00 00 00 00 
0.389700 1 40a Rx d 8 09 00 01 00 00 00 b0 c8 
0.389900 1 129 Rx d 8 07 21 ba 5f 00 20 ff 3f 
0.390100 1 261 Rx d 8 00 10 02 00 d2 4c 40 66 
0.390400 1 379 Rx d 8 08 00 00 00 00 00 0d 03 
0.390600 1 428 Rx d 7 00 00 10 10 00 00 00 
0.390900 1 682 Rx d 8 00 00 00 40 05 02 80 a7 
0.391100 1 20c Rx d 8 00 e0 56 1e 00 e0 08 00 
0.391300 1 3f5 Rx d 8 00 00 c8 08 82 04 00 00 
0.391500 1 748 Rx d 5 31 25 0c 00 00 
0.391800 1 78a Rx d 8 01 00 04 00 ad 04 91 00 
0.392900 1 243 Rx d 8 02 b0 09 13 00 4c 00 00 
0.393100 1 45a Rx d 8 a0 54 54 d4 3f 35 00 69 
0.393300 1 2ec Rx d 3 7f 60 cd 
0.393500 1 39d Rx d 5 1c 53 01 28 00 
0.394100 1 2c1 Rx d 8 2b 17 13 00 00 00 00 00 
0.394300 1 545 Rx d 8 80 01 27 70 96 5e b9 0f 
0.394500 1 1f8 Rx d 4 00 00 00 00 
0.394700 1 132 Rx d 6 f9 87 f5 ff 23 40 
0.394900 1 401 Rx d 8 0e 2a 4e 80 4c 80 4c 80 
0.395900 1 113 Rx d 3 01 97 01 
0.396100 1 3a1 Rx d 8 29 8b 40 01 3e 00 f0 e3 
0.396400 1 118 Rx d 8 f9 66 32 00 00 48 00 00 
0.396600 1 315 Rx d 8 10 50 48 4f 50 48 c8 7d 
0.396900 1 1d8 Rx d 8 29 00 00 00 00 00 00 02 
0.397100 1 315 Rx d 8 01 48 48 00 4c 48 00 00 
0.397200 1 139 Rx d 1 00 
0.397400 1 23e Rx d 8 f4 01 3a be fa fc 0f 32 
0.397700 1 266 Rx d 8 00 00 01 22 00 00 9f 01 
0.397900 1 315 Rx d 8 02 00 ad 0e 00 00 00 00 
0.398200 1 1e5 Rx d 8 02 ac 04 00 00 00 00 98 
0.398400 1 2e1 Rx d 8 10 21 04 00 12 00 20 08 
0.398600 1 315 Rx d 8 7b 1c 20 5a 98 00 80 04 
0.398900 1 4e3 Rx d 8 06 00 00 00 00 00 00 00 
0.399100 1 315 Rx d 8 04 24 2b c6 00 48 48 4d 
0.399400 1 7d5 Rx d 8 2b 00 00 00 00 00 00 00 
0.399600 1 3b6 Rx d 8 0e 6f a2 03 00 00 50 2b 
0.399800 1 129 Rx d 8 ba 22 bb 5f 00 20 ff 3f 
0.400100 1 3d5 Rx d 8 4b 4d 4b 4d 4d 2b 01 6c 
0.400300 1 7a8 Rx d 8 b4 bc 71 63 00 00 82 00 
0.400500 1 3fe Rx d 8 1b 85 04 12 47 1c 01 1b 
0.400800 1 7aa Rx d 8 0c 00 00 00 00 00 00 39 
0.401000 1 5d7 Rx d 5 50 6e 05 00 02 
0.401200 1 7d5 Rx d 8 2c 00 3f 00 00 00 00 00 
0.401400 1 289 Rx d 8 a6 02 01 c0 a5 00 3d 0f 
0.401700 1 335 Rx d 8 11 00 00 00 00 00 00 00 
0.401900 1 7d5 Rx d 8 32 00 00 00 00 00 00 00 
0.402100 1 2d1 Rx d 2 7f 01 
0.402300 1 3a7 Rx d 8 00 00 00 00 00 00 00 00 
0.402600 1 7d7 Rx d 8 32 01 00 00 00 00 00 00 
0.402800 1 3b5 Rx d 8 00 00 00 00 00 00 00 00 
0.403100 1 263 Rx d 8 02 00 00 00 00 00 00 00 
0.403300 1 343 Rx d 8 00 92 60 fe 96 00 00 00 
0.403600 1 3c5 Rx d 8 00 00 00 00 00 00 00 00 
0.403800 1 7d5 Rx d 8 42 f8 00 ba 00 00 29 00 
0.404000 1 3e5 Rx d 8 00 00 00 00 00 00 00 00 
0.404300 1 37a Rx d 8 00 00 7c 5b 49 00 00 01 
0.404500 1 367 Rx d 8 00 00 00 00 00 00 00 00 
0.404700 1 132 Rx d 6 fd 87 f5 ff 24 40 
0.405000 1 368 Rx d 8 00 00 00 00 00 00 00 00 
0.405200 1 7d5 Rx d 8 43 b8 c1 b1 b7 3f 00 00 
0.405500 1 118 Rx d 8 fa 67 32 00 00 48 00 00 
0.405700 1 228 Rx d 8 03 11 00 40 80 00 01 ff 
0.405900 1 266 Rx d 8 00 00 01 22 00 00 9f 01 
0.406200 1 261 Rx d 8 31 00 01 00 6c 49 58 35 
0.406400 1 257 Rx d 8 76 4c 1f 00 02 a0 0f 01 
0.406700 1 36b Rx d 8 00 00 00 00 00 00 00 00 
0.406900 1 1d8 Rx d 8 29 00 00 00 00 00 20 22 
0.407200 1 36e Rx d 8 00 00 00 00 00 00 00 00 
0.407400 1 1e5 Rx d 8 02 ac 04 00 00 00 20 b8 
0.407600 1 381 Rx d 8 13 00 00 00 00 20 00 ff 
0.407900 1 7d5 Rx d 8 44 94 51 64 58 3f 00 47 
0.408000 1 7f4 Rx d 1 01 
0.408200 1 7d5 Rx d 8 46 4a 49 4e 4a 46 4a 4a 
0.408500 1 4e2 Rx d 8 06 00 00 00 00 00 00 00 
0.408700 1 7d5 Rx d 8 48 4f 4b 00 00 c0 d3 57 
0.408900 1 3c3 Rx d 8 55 55 55 01 00 80 43 00 
0.409200 1 7ff Rx d 8 05 09 20 41 20 04 81 00 
0.409400 1 318 Rx d 8 1a 08 0e 06 1b 0b 37 ae 
0.409600 1 253 Rx d 8 00 64 34 85 64 62 00 15 
0.409900 1 129 Rx d 8 59 23 ba 5f 00 20 ff 3f 
0.410100 1 405 Rx d 8 11 33 45 37 46 41 35 4d 
0.410300 1 249 Rx d 4 9b 00 00 00 
0.410500 1 414 Rx d 8 11 20 20 20 20 20 20 20 
0.410700 1 458 Rx d 7 00 00 00 00 40 00 00 
0.410900 1 419 Rx d 1 00 
0.411000 1 4f3 Rx d 4 00 00 00 00 
0.411200 1 20e Rx d 3 10 00 00 
0.411400 1 359 Rx d 8 80 3f 00 00 00 00 00 00 
0.411700 1 3ae Rx d 8 c5 3f 00 08 00 00 a0 ad 
0.411800 1 409 Rx d 1 00 
0.412000 1 55a Rx d 8 04 00 00 00 00 00 00 00 
0.412300 1 441 Rx d 8 2a 00 b6 c3 58 00 3d a1 
0.412400 1 666 Rx d 4 00 00 a0 00 
0.412600 1 213 Rx d 2 f8 0d 
0.412800 1 7b8 Rx d 8 92 9d 11 b6 40 05 60 b5 
0.413000 1 243 Rx d 8 03 00 00 80 42 62 1d 00 
0.413300 1 285 Rx d 8 04 53 93 47 8b 00 00 00 
0.413500 1 142 Rx d 8 01 00 40 0a c0 1b 00 00 
0.413700 1 421 Rx d 7 00 14 00 00 00 d0 48 
0.414100 1 321 Rx d 8 42 02 a9 8e 01 8d 90 bd 
0.414300 1 201 Rx d 8 83 02 00 00 00 00 b8 3b 
0.414600 1 2c1 Rx d 8 04 00 10 0e 0a 11 08 14 
0.414800 1 132 Rx d 6 fe 87 f5 ff 25 40 
0.415000 1 2e1 Rx d 8 39 8d 55 af 1f 28 00 00 
0.415200 1 372 Rx d 8 05 46 3b 0d 00 00 00 00 
0.415500 1 400 Rx d 7 00 e0 fb be ef fb 00 
0.415700 1 401 Rx d 8 0f 2a 4a 80 53 80 53 80 
0.415900 1 552 Rx d 8 00 00 00 00 00 00 70 c7 
0.416200 1 118 Rx d 8 fb 68 32 00 00 48 00 00 
0.416400 1 266 Rx d 8 00 00 01 22 00 00 9f 01 
0.416700 1 1d8 Rx d 8 29 00 00 00 00 00 40 42 
0.416900 1 553 Rx d 8 00 00 00 00 00 00 70 c8 
0.417200 1 1e5 Rx d 8 02 ac 04 00 00 00 40 d8 
0.417400 1 677 Rx d 8 04 00 00 00 00 00 00 00 
0.417600 1 2e8 Rx d 8 02 11 00 00 06 80 10 93 
0.417900 1 718 Rx d 7 03 00 00 00 00 00 00 
0.418400 1 3a2 Rx d 8 60 85 f2 b5 04 80 41 72 
0.419700 1 129 Rx d 8 2b 24 bb 5f 00 20 ff 3f 
0.420000 1 22b Rx d 8 ff ff ff ff ff c7 1f fc 
0.420900 1 383 Rx d 8 bf 18 3b 00 15 81 03 52 
0.422100 1 261 Rx d 8 fa 28 5e 02 80 5c 62 b6 
0.422400 1 422 Rx d 6 70 00 10 00 00 00 
0.422900 1 263 Rx d 8 03 00 00 00 00 00 00 22 
0.423100 1 2a6 Rx d 8 00 00 6a 18 00 00 00 00 
0.423400 1 2a7 Rx d 8 00 00 00 00 00 70 05 84 
0.423600 1 2b3 Rx d 8 af 06 80 6a ee 0e 00 00 
0.423900 1 2c7 Rx d 8 00 00 00 00 00 00 4c ff 
0.424100 1 448 Rx d 7 00 00 10 10 00 00 00 
0.424600 1 132 Rx d 6 04 88 f5 ff 23 40 
0.425100 1 2a1 Rx d 6 00 00 98 3a 00 00 
0.425300 1 39a Rx d 8 fc fd fd fd fd fd fd 01 
0.425500 1 118 Rx d 8 fc 69 32 00 00 48 00 00 
0.425800 1 266 Rx d 8 00 00 01 22 00 00 9f 01 
0.426000 1 257 Rx d 8 77 4d 1f 00 02 a0 0f 01 
0.426400 1 1d8 Rx d 8 29 00 00 00 00 00 60 62 
0.426700 1 1e5 Rx d 8 02 ac 04 00 00 00 60 f8 
0.426900 1 420 Rx d 8 28 01 40 4b 00 00 80 07 
0.427100 1 423 Rx d 7 00 00 00 00 08 00 00 
0.427400 1 545 Rx d 8 01 00 00 00 00 10 c0 1b 
0.429400 1 2c2 Rx d 8 55 63 a9 b6 02 00 1c a5 
0.429700 1 129 Rx d 8 3c 25 bb 5f 00 20 ff 3f 
0.430100 1 2e1 Rx d 8 02 6c 7f 02 3e 62 00 00 
0.430300 1 221 Rx d 8 61 05 55 55 01 02 e0 16 
0.430500 1 22a Rx d 4 00 00 c9 15 
0.430700 1 211 Rx d 6 93 11 71 0d 00 f1 
0.432100 1 75d Rx d 8 05 00 00 00 00 00 88 04 
0.432300 1 219 Rx d 7 e2 7f 4a 49 97 9a 04 
0.432600 1 31e Rx d 8 02 00 00 00 00 00 00 00 
0.432700 1 41d Rx d 1 00 
0.433000 1 21d Rx d 8 04 00 35 00 00 00 00 00 
0.433200 1 243 Rx d 8 04 b4 f1 ff fd 7f 68 69 
0.433400 1 25d Rx d 8 36 41 01 2a 04 f0 d8 03 
0.433700 1 234 Rx d 8 28 e1 03 80 43 00 34 9e 
0.433900 1 2c3 Rx d 8 00 00 c0 4b 01 00 80 cb 
0.434100 1 2c1 Rx d 8 50 24 7e 00 00 8a 02 47 
0.434300 1 39d Rx d 5 1d 54 01 28 00 
0.434600 1 719 Rx d 8 14 00 00 00 00 00 00 00 
0.434800 1 132 Rx d 6 f0 87 f5 ff 24 40 
0.435000 1 401 Rx d 8 10 2a 52 80 4e 80 51 80 
0.435200 1 399 Rx d 3 00 00 00 
0.436200 1 118 Rx d 8 fd 6a 32 00 00 48 00 00 
0.436400 1 266 Rx d 8 00 00 01 22 00 00 9f 01 
0.436700 1 1d8 Rx d 8 29 00 00 00 00 00 80 82 
0.436900 1 1e5 Rx d 8 02 ac 04 00 00 00 00 98 
0.437300 1 23e Rx d 8 f4 01 3a be fa fc 1f 42 
0.438100 1 261 Rx d 8 7b 4b 0a 00 00 40 75 7b 
0.438400 1 2e2 Rx d 8 00 00 00 7c 02 0b 00 40 
0.438700 1 3c2 Rx d 8 29 55 00 00 00 00 00 80 
0.439100 1 201 Rx d 8 f0 d1 01 80 22 8b f1 07 
0.439300 1 2f9 Rx d 8 b0 fb 07 10 00 00 00 00 
0.439700 1 129 Rx d 8 e6 26 bb 5f 00 20 ff 3f 
0.440900 1 2e3 Rx d 7 94 12 62 00 1c 06 00 
0.442100 1 381 Rx d 8 54 00 20 00 00 00 00 fe 
0.442900 1 263 Rx d 8 04 00 00 00 10 04 00 00 
0.443100 1 45a Rx d 8 fd 07 f8 ff 03 00 00 2a 
0.444600 1 132 Rx d 6 f8 87 f5 ff 23 40 
0.444800 1 752 Rx d 8 07 00 00 00 00 49 00 00 
0.445300 1 25b Rx d 8 d3 c0 02 05 6a 86 80 65 
0.445500 1 118 Rx d 8 fe 6b 32 00 00 48 00 00 
0.445700 1 1fa Rx d 3 22 c0 01 
0.445900 1 266 Rx d 8 00 00 01 22 00 00 9f 01 
0.446100 1 257 Rx d 8 78 4e 1f 00 02 a0 0f 01 
0.446400 1 2e1 Rx d 8 fb 19 6c f9 93 5c 09 00 
0.446600 1 1d8 Rx d 8 29 00 00 00 00 00 a0 a2 
0.446900 1 1e5 Rx d 8 02 ac 04 00 00 00 20 b8 
0.447100 1 204 Rx d 8 01 00 00 ff 00 00 00 10 
0.447300 1 264 Rx d 6 38 00 00 00 a0 00 
0.447600 1 2c4 Rx d 8 55 00 01 08 20 00 ff 00 
0.447800 1 3a1 Rx d 8 e8 4e 0e ca 00 0c 02 dc 
0.448000 1 224 Rx d 8 04 08 00 48 19 01 10 08 
0.448200 1 2b4 Rx d 6 23 05 9d 0d 05 01 
0.448500 1 3f9 Rx d 8 02 00 00 00 00 00 00 00 
0.448600 1 789 Rx d 4 55 19 70 e0 
0.448800 1 225 Rx d 4 45 55 fa 00 
0.449700 1 129 Rx d 8 05 27 ba 5f 00 20 ff 3f 
0.450700 1 3ae Rx d 8 c5 3f 00 08 00 00 b0 bd 
0.451400 1 3a2 Rx d 8 01 10 20 00 14 f0 ff 00 
0.452000 1 2d2 Rx d 8 6e 29 a8 4e c4 09 d5 14 
0.452200 1 212 Rx d 8 59 04 00 00 81 ff 77 31 
0.452400 1 242 Rx d 4 55 15 86 05 
0.452600 1 252 Rx d 8 47 23 93 4a 00 fc 0f 00 
0.452900 1 243 Rx d 8 00 fc 4f cc cf 02 41 29 
0.453100 1 292 Rx d 8 c7 45 27 5e 72 01 00 00 
0.453200 1 2f2 Rx d 2 12 01 
0.453500 1 339 Rx d 8 04 e1 02 00 00 00 40 0f 
0.453700 1 352 Rx d 8 02 40 04 3f 04 48 20 35 
0.454000 1 3c8 Rx d 8 02 00 00 00 00 00 00 00 
0.454200 1 261 Rx d 8 cc 02 f8 49 00 40 84 c9 
0.454400 1 2c1 Rx d 8 21 1b 0d 0a 02 00 00 00 
0.454700 1 677 Rx d 8 00 00 00 00 00 00 00 00 
0.454900 1 132 Rx d 6 f4 87 f5 ff 20 40 
0.455100 1 283 Rx d 6 00 00 00 00 00 00 
0.455400 1 344 Rx d 8 00 00 00 00 00 00 20 67 
0.455600 1 253 Rx d 8 01 64 34 85 64 62 00 15 
0.455800 1 3b3 Rx d 8 8c 80 04 30 01 00 a8 80 
0.456100 1 401 Rx d 8 11 2a 51 80 51 80 45 80 
0.456300 1 118 Rx d 8 ff 6c 32 00 00 48 00 00 
0.456500 1 473 Rx d 8 00 00 03 00 00 00 00 00 
0.456800 1 1d8 Rx d 8 29 00 00 00 00 00 c0 c2 
0.457000 1 554 Rx d 7 60 eb 03 0b 14 e0 01 
0.457200 1 266 Rx d 8 00 00 01 22 00 00 9f 01 
0.457500 1 6d4 Rx d 8 13 03 00 00 00 00 00 00 
0.457700 1 1e5 Rx d 8 02 ac 04 00 00 00 40 d8 
0.458000 1 386 Rx d 8 00 00 00 00 00 00 00 00 
0.458200 1 340 Rx d 8 00 00 00 00 00 00 00 00 
0.458500 1 3a0 Rx d 8 00 00 00 00 00 00 00 00 
0.458700 1 384 Rx d 8 00 00 00 00 00 00 00 00 
0.459000 1 380 Rx d 8 00 00 00 00 00 00 00 00 
0.459100 1 2aa Rx d 3 7f 70 9b 
0.459400 1 712 Rx d 8 02 2a 0c 0c 20 0c 32 0c 
0.459600 1 360 Rx d 8 02 00 00 00 00 00 00 00 
0.459800 1 129 Rx d 8 26 28 bb 5f 00 20 ff 3f 
0.460000 1 7b5 Rx d 3 03 00 00 
0.460300 1 1f9 Rx d 8 00 00 00 00 00 00 00 00 
0.460400 1 229 Rx d 3 8c 0b 00 
0.460600 1 545 Rx d 8 02 00 02 00 00 00 d0 1e 
0.460800 1 249 Rx d 4 e8 01 00 00 
0.461100 1 3c0 Rx d 8 03 00 00 00 00 00 00 00 
0.461300 1 54f Rx d 8 00 00 00 00 00 00 00 00 
0.461600 1 3cc Rx d 8 03 11 43 19 00 0e 09 00 
0.462100 1 2e1 Rx d 8 04 00 00 80 48 44 26 00 
0.462300 1 441 Rx d 8 22 85 89 00 32 00 00 cb 
0.462900 1 263 Rx d 8 00 d0 e7 89 d4 07 55 1f 
0.463400 1 142 Rx d 8 28 00 02 5a 18 00 01 00 
0.464100 1 201 Rx d 8 01 04 18 01 00 00 80 c4 
0.464600 1 132 Rx d 6 05 88 f5 ff 24 40 
0.465100 1 6a2 Rx d 5 00 00 00 00 00 
0.465400 1 118 Rx d 8 00 6d 32 00 00 48 00 00 
0.465600 1 266 Rx d 8 00 00 01 22 00 00 9f 01 
0.465900 1 3ae Rx d 8 c5 3f 00 08 00 00 c1 ce 
0.466100 1 257 Rx d 8 79 4f 1f 00 02 a0 0f 01 
0.466300 1 788 Rx d 8 01 00 00 00 ff a1 c8 12 
0.466600 1 102 Rx d 8 22 b3 88 04 8c 0c 21 08 
0.466800 1 1d8 Rx d 8 29 00 00 00 00 00 e0 e2 
0.467000 1 103 Rx d 8 22 b3 88 04 92 2c 21 02 
0.467200 1 119 Rx d 4 00 00 00 00 
0.467400 1 1e5 Rx d 8 02 ac 04 00 00 00 60 f8 
0.469100 1 241 Rx d 7 28 28 14 0a 0a 45 00 
0.469700 1 129 Rx d 8 73 29 bb 5f 00 20 ff 3f 
0.470100 1 22b Rx d 8 ff ff ff ff ff c7 1f fc 
0.470300 1 261 Rx d 8 05 22 f1 c7 9a 42 90 41 
0.471200 1 3ae Rx d 8 c7 3f 00 08 00 00 d1 e0 
0.471400 1 288 Rx d 8 03 11 00 40 80 00 11 6f 
0.472900 1 123 Rx d 8 01 00 00 00 00 3f 00 00 
0.473100 1 243 Rx d 8 01 fc 68 00 69 00 7c 7c 
0.473300 1 70b Rx d 8 06 8a 8c 9e 2e 3d 00 00 
0.473600 1 122 Rx d 8 01 00 00 00 00 3f 00 00 
0.473800 1 39d Rx d 5 1e 55 01 28 00 
0.474100 1 2c1 Rx d 8 02 0d 06 05 00 d0 92 c1 
0.474300 1 439 Rx d 8 02 00 40 00 00 14 00 00 
0.474600 1 132 Rx d 6 fc 87 f5 ff 22 40 
0.474800 1 372 Rx d 8 06 1d 63 19 2b a3 0f 01 
0.475100 1 401 Rx d 8 12 2a 47 80 49 80 48 80 
0.476200 1 118 Rx d 8 01 6e 32 00 00 48 00 00 
0.476400 1 266 Rx d 8 00 00 01 22 00 00 9f 01 
0.476700 1 1d8 Rx d 8 29 00 00 00 00 00 00 02 
0.476900 1 1e5 Rx d 8 02 ac 04 00 00 00 00 98 
0.477200 1 798 Rx d 8 9b 93 4c 66 8e 09 70 93 
0.477500 1 23e Rx d 8 f4 01 3a be fa fc 2f 52 
0.478100 1 2e1 Rx d 8 65 80 08 00 02 d5 8f 6a 
0.478300 1 381 Rx d 8 d5 52 48 3e 39 00 00 01 
0.478900 1 3a3 Rx d 8 00 d0 00 00 38 03 fc 01 
0.479700 1 129 Rx d 8 58 2a ba 5f 00 20 ff 3f 
0.480100 1 2f1 Rx d 8 10 90 03 00 00 00 00 00 
0.480300 1 221 Rx d 8 60 55 55 05 54 51 f1 c8 
0.480600 1 272 Rx d 8 06 00 f1 88 07 48 06 08 
0.481000 1 7aa Rx d 8 c0 e3 8e 3c 00 08 8c 29 
0.481400 1 797 Rx d 4 15 0d 70 2d 
0.482900 1 263 Rx d 8 01 d0 bf b1 8c c7 54 1f 
0.483100 1 2b3 Rx d 8 10 00 00 7c 7c 00 00 00 
0.483400 1 2a8 Rx d 8 02 11 00 00 06 80 60 a3 
0.483600 1 234 Rx d 8 23 20 02 27 9d 04 40 e8 
0.483900 1 719 Rx d 8 15 00 00 00 00 00 00 00 
0.484400 1 3a2 Rx d 8 d2 29 00 00 22 00 00 00 
0.484600 1 132 Rx d 6 f8 87 f5 ff 23 40 
0.484900 1 393 Rx d 8 06 00 f0 80 07 48 06 08 
0.485300 1 118 Rx d 8 02 6f 32 00 00 48 00 00 
0.485600 1 266 Rx d 8 00 00 01 22 00 00 9f 01 
0.485800 1 257 Rx d 8 6a 40 1f 00 02 a0 0f 01 
0.486100 1 261 Rx d 8 00 10 02 00 d2 4c a0 c6 
0.486400 1 108 Rx d 8 19 03 00 02 00 ff ff 0d 
0.486600 1 1d8 Rx d 8 29 00 00 00 00 00 20 22 
0.486800 1 126 Rx d 5 01 b0 1d 18 0d 
0.487000 1 1e5 Rx d 8 02 ac 04 00 00 00 20 b8 
0.487200 1 128 Rx d 5 80 02 e4 0a 02 
0.487500 1 1d6 Rx d 8 00 08 04 00 0a cc 11 05 
0.487700 1 282 Rx d 8 00 00 00 00 e8 23 0b 24 
0.487900 1 268 Rx d 5 01 01 f8 00 c0 
0.488100 1 3e8 Rx d 8 02 00 00 00 00 00 00 00 
0.488400 1 279 Rx d 8 48 03 0d 01 74 05 62 02 
0.488500 1 2b6 Rx d 3 00 03 00 
0.488800 1 395 Rx d 8 09 0f 12 4d 0a 00 08 7d 
0.489000 1 3c2 Rx d 8 00 55 55 55 00 00 5a 45 
0.489200 1 201 Rx d 8 82 02 00 00 00 00 98 3b 
0.489500 1 397 Rx d 8 00 00 00 d8 1d 00 00 00 
0.489700 1 129 Rx d 8 a9 2b ba 5f 00 20 ff 3f 
0.489900 1 3e2 Rx d 7 00 00 80 1a f0 cf 04 
0.490200 1 428 Rx d 7 00 00 10 10 00 00 00 
0.490400 1 379 Rx d 8 09 00 00 00 00 00 0d 03 
0.490600 1 682 Rx d 8 00 00 00 40 05 02 90 b7 
0.490800 1 744 Rx d 1 00 
0.491000 1 20c Rx d 8 00 e0 56 1e 00 e0 08 00 
0.491200 1 3f5 Rx d 8 00 00 c8 08 82 04 00 00 
0.491500 1 78a Rx d 8 01 00 05 00 9d 0d 07 00 
0.492900 1 243 Rx d 8 02 b0 09 13 00 4c 00 00 
0.493100 1 45a Rx d 8 a0 54 54 d4 3f 35 00 68 
0.493300 1 545 Rx d 8 d0 01 27 00 97 64 e9 26 
0.493500 1 2ec Rx d 3 7f 70 dd 
0.494100 1 2e1 Rx d 8 10 21 04 00 12 00 20 08 
0.494300 1 2c1 Rx d 8 2b 17 13 00 00 00 00 00 
0.494500 1 1f8 Rx d 4 00 00 00 00 
0.494700 1 132 Rx d 6 fe 87 f5 ff 20 40 
0.495000 1 401 Rx d 8 13 2a 4a 80 49 80 49 80 
0.495200 1 677 Rx d 8 01 00 00 00 00 00 00 00 
0.495900 1 113 Rx d 3 01 97 01 
0.496100 1 118 Rx d 8 f3 60 32 00 00 48 00 00 
0.496400 1 318 Rx d 8 1a 08 0e 06 1b 0b 39 b0 
0.496600 1 266 Rx d 8 00 00 01 22 00 00 9f 01 
0.496900 1 3a1 Rx d 8 29 8b 40 05 3e 00 10 07 
0.497100 1 1d8 Rx d 8 29 00 00 00 00 00 40 42 
0.497200 1 139 Rx d 1 00 
0.497500 1 1e5 Rx d 8 02 ac 04 00 00 00 40 d8 
0.497700 1 4e3 Rx d 8 07 00 00 00 00 00 00 00 
0.498000 1 7d5 Rx d 8 2b 00 00 00 00 00 00 00 
0.498200 1 7d5 Rx d 8 2c 00 3f 00 00 00 00 00 
0.498500 1 7d5 Rx d 8 32 00 00 00 00 00 00 00 
0.498700 1 7d7 Rx d 8 32 01 00 00 00 00 00 00 
0.498800 1 7f4 Rx d 1 01 
0.499100 1 7ff Rx d 8 06 84 32 00 00 00 08 c0 
0.499300 1 458 Rx d 7 00 00 00 00 40 00 00 
0.499500 1 7a8 Rx d 8 01 00 00 00 ff a1 c8 12 
0.499800 1 129 Rx d 8 3d 2c bb 5f 00 20 ff 3f 
0.501400 1 289 Rx d 8 a6 02 01 00 99 00 3d 0f 
0.502000 1 2d1 Rx d 2 7f 01 
0.502200 1 261 Rx d 8 31 00 fa ff 6c 49 b8 8d 
0.502900 1 343 Rx d 8 00 92 60 fe 96 00 00 00 
0.503100 1 263 Rx d 8 02 00 00 00 00 00 00 00 
0.504200 1 37a Rx d 8 01 00 31 34 92 00 00 17 
0.504600 1 132 Rx d 6 fd 87 f5 ff 20 40 
0.505300 1 118 Rx d 8 f4 61 32 00 00 48 00 00 
0.505600 1 228 Rx d 8 03 11 00 40 80 00 11 0f 
0.505800 1 266 Rx d 8 00 00 01 22 00 00 9f 01 
0.506100 1 257 Rx d 8 6b 41 1f 00 02 a0 0f 01 
0.506400 1 1d8 Rx d 8 29 00 00 00 00 00 60 62 
0.506700 1 1e5 Rx d 8 02 ac 04 00 00 00 60 f8 
0.508400 1 4e2 Rx d 8 2f 20 00 00 00 00 00 00 
0.508900 1 3c3 Rx d 8 00 00 00 00 00 45 00 00 
0.509100 1 3e3 Rx d 4 00 00 00 00 
0.509400 1 333 Rx d 5 04 10 e8 07 00 
0.509500 1 419 Rx d 1 00 
0.509800 1 129 Rx d 8 db 2d ba 5f 00 20 ff 3f 
0.510000 1 334 Rx d 8 bf 3f 0a 04 ff 01 12 55 
0.510200 1 249 Rx d 4 2a 02 00 00 
0.510400 1 2e1 Rx d 8 39 8d 55 af 1f 28 00 00 
0.510600 1 3fd Rx d 8 00 00 00 3c 20 00 01 80 
0.511000 1 20e Rx d 3 11 01 00 
0.511300 1 359 Rx d 8 01 00 00 00 00 00 00 00 
0.511500 1 7b8 Rx d 8 ab ed 35 c2 19 07 70 39 
0.512100 1 441 Rx d 8 2a 00 b6 c3 58 00 05 69 
0.512300 1 3ae Rx d 8 c7 3f 00 08 00 00 e1 f0 
0.512400 1 409 Rx d 1 00 
0.512900 1 243 Rx d 8 03 00 00 80 42 62 1d 00 
0.513100 1 421 Rx d 7 00 14 00 00 00 d0 48 
0.513400 1 142 Rx d 8 01 00 40 0a c0 1b 00 00 
0.513600 1 39d Rx d 5 1f 56 01 28 00 
0.514100 1 407 Rx d 8 0c 01 00 00 00 00 00 00 
0.514300 1 201 Rx d 8 83 02 00 00 00 00 b8 3b 
0.514600 1 2bf Rx d 7 0a 00 00 00 00 10 01 
0.514800 1 132 Rx d 6 f6 87 f5 ff 20 40 
0.515000 1 2c1 Rx d 8 04 00 10 0e 0a 11 08 14 
0.515300 1 320 Rx d 8 02 00 00 00 00 00 00 00 
0.515500 1 381 Rx d 8 16 10 00 00 00 64 64 00 
0.515700 1 3e9 Rx d 8 f0 08 00 00 00 00 f0 d4 
0.516000 1 400 Rx d 7 00 e0 fb be ef fb 00 
0.516200 1 118 Rx d 8 f5 62 32 00 00 48 00 00 
0.516500 1 1d8 Rx d 8 29 00 00 00 00 00 80 82 
0.516700 1 266 Rx d 8 00 00 01 22 00 00 9f 01 
0.516900 1 1e5 Rx d 8 02 ac 04 00 00 00 00 98 
0.517200 1 401 Rx d 8 14 2a 49 80 53 80 50 80 
0.517400 1 23e Rx d 8 f4 01 3a be fa fc 3f 62 
0.517600 1 2e8 Rx d 8 02 11 00 00 06 80 20 a3 
0.517900 1 3a2 Rx d 8 60 85 f2 b7 04 80 41 72 
0.518100 1 261 Rx d 8 fa 28 5e 02 80 5c c2 16 
0.518400 1 552 Rx d 8 00 00 00 00 00 00 80 d7 
0.518600 1 553 Rx d 8 00 00 00 00 00 00 80 d8 
0.519700 1 129 Rx d 8 f0 2e bb 5f 00 20 ff 3f 
0.520100 1 22b Rx d 8 ff ff ff ff ff c7 1f fc 
0.520900 1 383 Rx d 8 bf 18 3b 00 15 81 03 52 
0.522400 1 422 Rx d 6 70 00 10 00 00 00 
0.522900 1 263 Rx d 8 03 00 00 00 00 00 00 22 
0.523100 1 2a6 Rx d 8 00 00 6a 18 00 00 00 00 
0.523400 1 2a7 Rx d 8 00 00 00 00 00 70 05 84 
0.523600 1 2c7 Rx d 8 00 00 00 00 00 00 4c ff 
0.523900 1 3ae Rx d 8 c5 3f 00 08 00 00 f1 fe 
0.524100 1 448 Rx d 7 00 00 10 10 00 00 00 
0.524600 1 132 Rx d 6 05 88 f4 ff 20 40 
0.525100 1 2a1 Rx d 6 00 00 98 3a 00 00 
0.525300 1 39a Rx d 8 fd fd fd fd fd 01 00 00 
0.525500 1 118 Rx d 8 f6 63 32 00 00 48 00 00 
0.525800 1 266 Rx d 8 00 00 01 22 00 00 9f 01 
0.526000 1 257 Rx d 8 6c 42 1f 00 02 a0 0f 01 
0.526300 1 2e1 Rx d 8 02 6c 7f 02 3e 62 00 00 
0.526500 1 1d8 Rx d 8 29 00 00 00 00 00 a0 a2 
0.526700 1 1e5 Rx d 8 02 ac 04 00 00 00 20 b8 
0.527000 1 420 Rx d 8 28 01 40 4b 00 00 00 00 
0.527200 1 423 Rx d 7 00 00 00 00 08 00 00 
0.527400 1 545 Rx d 8 01 00 00 00 00 10 f0 4b 
0.529400 1 2c2 Rx d 8 20 40 80 20 01 00 80 cb 
0.529700 1 129 Rx d 8 01 2f bb 5f 00 20 ff 3f 
0.530100 1 221 Rx d 8 61 05 55 55 01 02 00 36 
0.530300 1 22a Rx d 4 00 00 c9 15 
0.530800 1 211 Rx d 6 94 12 71 0d 00 f1 
0.532100 1 31e Rx d 8 03 00 00 00 00 00 00 00 
0.532400 1 219 Rx d 7 03 80 4a 49 97 9b 04 
0.532600 1 21d Rx d 8 04 00 35 00 00 00 00 00 
0.532700 1 41d Rx d 1 00 
0.532900 1 243 Rx d 8 04 b4 f1 ff fd 7f 69 69 
0.533200 1 25d Rx d 8 36 41 01 2a 04 f0 d8 03 
0.533400 1 2c3 Rx d 8 55 5b a9 b6 02 00 12 a5 
0.533600 1 234 Rx d 8 28 e1 03 80 43 00 54 be 
0.533900 1 719 Rx d 8 16 00 00 00 00 00 00 00 
0.534100 1 261 Rx d 8 7b 4b 0a 00 00 40 d5 db 
0.534400 1 2c1 Rx d 8 50 24 7e 00 00 8a 02 47 
0.534600 1 677 Rx d 8 02 00 00 00 00 00 00 00 
0.534800 1 132 Rx d 6 06 88 f5 ff 1f 40 
0.535100 1 372 Rx d 8 07 00 00 00 00 00 00 00 
0.535300 1 401 Rx d 8 15 2a 52 80 4f 80 55 80 
0.536100 1 118 Rx d 8 f7 64 32 00 00 48 00 00 
0.536300 1 266 Rx d 8 00 00 01 22 00 00 9f 01 
0.536600 1 1d8 Rx d 8 29 00 00 00 00 00 c0 c2 
0.536800 1 1e5 Rx d 8 02 ac 04 00 00 00 40 d8 
0.538400 1 3a8 Rx d 8 04 80 05 60 01 00 00 00 
0.538700 1 3c2 Rx d 8 29 55 00 00 00 00 00 80 
0.539100 1 201 Rx d 8 f8 c9 01 80 22 8b f1 07 
0.539300 1 2f9 Rx d 8 b0 fb 07 18 00 00 00 00 
0.539700 1 129 Rx d 8 10 20 ba 5f 00 20 ff 3f 
0.542100 1 2e1 Rx d 8 fb 19 6c f9 93 5f 09 00 
0.542900 1 263 Rx d 8 04 00 00 00 10 04 00 00 
0.543100 1 2b3 Rx d 8 00 9b 96 89 9b 8d 78 86 
0.543400 1 45a Rx d 8 fd 07 f8 ff 03 00 00 2a 
0.543900 1 3f1 Rx d 8 07 00 00 00 00 00 00 00 
0.544600 1 132 Rx d 6 09 88 f6 ff 24 40 
0.545300 1 25b Rx d 8 d3 c0 02 05 6a 86 90 75 
0.545500 1 118 Rx d 8 f8 65 32 00 00 48 00 00 
0.545700 1 1fa Rx d 3 22 c0 01 
0.545900 1 266 Rx d 8 00 00 01 22 00 00 9f 01 
0.546100 1 257 Rx d 8 6d 43 1f 00 02 a0 0f 01 
0.546400 1 2c4 Rx d 8 16 53 b5 02 00 00 00 01 
0.546600 1 1d8 Rx d 8 29 00 00 00 00 00 e0 e2 
0.546900 1 1e5 Rx d 8 02 ac 04 00 00 00 60 f8 
0.547100 1 204 Rx d 8 01 00 00 ff 00 00 00 10 
0.547300 1 264 Rx d 6 38 00 00 00 a0 00 
0.547600 1 3a1 Rx d 8 e8 4e 0e ca 00 10 22 00 
0.547800 1 224 Rx d 8 04 08 00 48 19 01 10 08 
0.548000 1 3f9 Rx d 8 03 00 00 00 00 00 00 00 
0.548200 1 2b4 Rx d 6 21 05 9d 0d 02 01 
0.548400 1 789 Rx d 4 55 19 80 f0 
0.548800 1 225 Rx d 4 45 55 fa 00 
0.549700 1 129 Rx d 8 f3 21 bb 5f 00 20 ff 3f 
0.550100 1 261 Rx d 8 cc 02 f8 49 00 40 e4 29 
0.550300 1 381 Rx d 8 17 00 00 00 00 00 00 00 
0.550600 1 3a2 Rx d 8 01 10 20 00 14 f0 ff 00 
0.552000 1 2d2 Rx d 8 6e 29 a8 4e c4 09 d5 14 
0.552200 1 212 Rx d 8 59 04 00 00 81 ff 77 31 
0.552400 1 242 Rx d 4 55 15 86 05 
0.552600 1 252 Rx d 8 47 23 93 4a 00 fc 0f 00 
0.552800 1 292 Rx d 8 c7 45 27 5e 72 01 00 00 
0.553100 1 243 Rx d 8 00 fc 4f cc cf 02 41 29 
0.553200 1 2f2 Rx d 2 12 01 
0.553400 1 339 Rx d 8 04 e1 02 00 00 00 40 0f 
0.553600 1 39d Rx d 5 20 57 01 28 00 
0.553800 1 3b2 Rx d 8 47 00 e0 ff 00 00 e0 14 
0.554100 1 3c8 Rx d 8 03 00 00 00 00 00 00 00 
0.554300 1 2c1 Rx d 8 21 1b 0d 0a 02 00 00 00 
0.554600 1 712 Rx d 8 03 2a 32 0c 2f 0c 36 0c 
0.554800 1 132 Rx d 6 08 88 f5 ff 20 40 
0.555000 1 283 Rx d 6 00 00 00 00 00 00 
0.555300 1 2f3 Rx d 8 0e 0e 0b 00 00 20 00 00 
0.555500 1 273 Rx d 8 81 e1 10 00 c8 00 10 01 
0.555700 1 401 Rx d 8 16 2a 50 80 4c 80 48 80 
0.556200 1 118 Rx d 8 f9 66 32 00 00 48 00 00 
0.556400 1 266 Rx d 8 00 00 01 22 00 00 9f 01 
0.556700 1 1d8 Rx d 8 29 00 00 00 00 00 00 02 
0.556900 1 1e5 Rx d 8 02 ac 04 00 00 00 00 98 
0.557300 1 23e Rx d 8 f4 01 3a be fa fc 4f 72 
0.557600 1 7e8 Rx d 8 0b 2d 01 01 00 01 00 00 
0.558100 1 340 Rx d 8 01 00 00 00 00 00 00 00 
0.558300 1 2e1 Rx d 8 04 00 00 80 48 44 26 00 
0.559100 1 545 Rx d 8 02 00 02 00 00 00 00 4e 
0.559200 1 2aa Rx d 3 7f 80 ab 
0.559500 1 360 Rx d 8 03 00 00 00 00 00 00 00 
0.559700 1 129 Rx d 8 4e 22 ba 5f 00 20 ff 3f 
0.559900 1 229 Rx d 3 49 0c 00 
0.560100 1 249 Rx d 4 d3 03 00 00 
0.560300 1 1f9 Rx d 8 00 00 00 00 00 00 00 00 
0.560600 1 3fd Rx d 8 01 00 02 00 00 08 12 80 
0.560800 1 54f Rx d 8 00 00 00 00 00 00 00 00 
0.561100 1 3c0 Rx d 8 04 00 00 00 00 00 00 00 
0.561300 1 7aa Rx d 8 01 9a 0d 9c 0d 01 00 2e 
0.561800 1 3ae Rx d 8 c5 3f 00 08 00 00 01 0e 
0.562100 1 441 Rx d 8 22 85 89 00 32 00 08 d3 
0.562900 1 263 Rx d 8 00 d0 e7 89 d4 07 55 1f 
0.563400 1 142 Rx d 8 28 00 02 5a 18 00 01 00 
0.564100 1 201 Rx d 8 01 04 18 01 00 00 80 c4 
0.564600 1 132 Rx d 6 fb 87 f5 ff 22 40 
0.565100 1 6a2 Rx d 5 00 00 00 00 00 
0.565400 1 118 Rx d 8 fa 67 32 00 00 48 00 00 
0.565600 1 266 Rx d 8 00 00 01 22 00 00 9f 01 
0.565900 1 257 Rx d 8 6e 44 1f 00 02 a0 0f 01 
0.566100 1 788 Rx d 8 02 40 ce d7 4c 03 00 00 
0.566300 1 261 Rx d 8 05 22 f1 c7 9a 42 f0 a1 
0.566500 1 102 Rx d 8 22 b3 88 04 8c 0c 21 08 
0.566800 1 1d8 Rx d 8 29 00 00 00 00 00 20 22 
0.567000 1 103 Rx d 8 22 b3 88 04 92 2c 21 02 
0.567200 1 119 Rx d 4 00 00 00 00 
0.567400 1 1e5 Rx d 8 02 ac 04 00 00 00 20 b8 
0.569100 1 241 Rx d 7 28 28 14 0a 0a 45 00 
0.569700 1 129 Rx d 8 59 23 ba 5f 00 20 ff 3f 
0.570100 1 22b Rx d 8 ff ff ff ff ff c7 1f fc 
0.571000 1 3ae Rx d 8 c5 3f 00 08 00 00 10 1d 
0.571300 1 288 Rx d 8 03 11 00 40 80 00 21 7f 
0.572900 1 123 Rx d 8 00 00 12 92 d2 00 00 80 
0.573100 1 243 Rx d 8 01 fc 68 00 69 00 7c 7c 
0.573400 1 122 Rx d 8 00 00 12 92 12 00 00 00 
0.574100 1 2e1 Rx d 8 65 80 08 00 02 d5 8f 6a 
0.574300 1 2c1 Rx d 8 02 0d 06 05 00 d0 92 c1 
0.574600 1 439 Rx d 8 02 00 40 00 00 14 00 00 
0.574800 1 132 Rx d 6 01 88 f5 ff 20 40 
0.575000 1 31a Rx d 8 60 fc ff 02 00 00 c0 3a 
0.575200 1 401 Rx d 8 17 2a 49 80 49 80 4e 80 
0.575500 1 677 Rx d 8 03 00 00 00 00 00 00 00 
0.576100 1 118 Rx d 8 fb 68 32 00 00 48 00 00 
0.576400 1 266 Rx d 8 00 00 01 22 00 00 9f 01 
0.576600 1 1d8 Rx d 8 29 00 00 00 00 00 40 42 
0.576900 1 1e5 Rx d 8 02 ac 04 00 00 00 40 d8 
0.577200 1 319 Rx d 8 24 00 00 00 ff ff ff ff 
0.577400 1 798 Rx d 8 0c 0b 5d e8 9e 0b 80 31 
0.578900 1 3a3 Rx d 8 00 d0 00 00 38 03 fc 01 
0.579700 1 129 Rx d 8 2b 24 bb 5f 00 20 ff 3f 
0.580100 1 2f1 Rx d 8 11 4c 00 44 00 ca 0e 00 
0.580300 1 221 Rx d 8 60 55 55 05 54 51 11 e8 
0.580600 1 272 Rx d 8 09 80 63 00 00 00 00 00 
0.581400 1 797 Rx d 4 15 0d 80 3d 
0.582100 1 261 Rx d 8 00 10 02 00 d2 4c 00 26 
0.582900 1 263 Rx d 8 01 d0 bf b1 8c c7 54 1f 
0.583200 1 42a Rx d 8 33 d5 4c b5 51 6d 55 aa 
0.583400 1 2a8 Rx d 8 02 11 00 00 06 80 70 b3 
0.583700 1 234 Rx d 8 23 20 02 27 9d 04 60 08 
0.583900 1 3a2 Rx d 8 d2 29 00 00 22 00 00 00 
0.584100 1 3db Rx d 8 0b 38 0f 00 00 03 00 00 
0.584400 1 43b Rx d 8 03 7f 04 ff 00 00 00 00 
0.584600 1 719 Rx d 8 17 00 00 00 00 00 00 00 
0.584800 1 132 Rx d 6 f7 87 f5 ff 22 40 
0.585100 1 393 Rx d 8 09 80 63 00 00 00 00 00 
0.585300 1 118 Rx d 8 fc 69 32 00 00 48 00 00 
0.585600 1 266 Rx d 8 00 00 01 22 00 00 9f 01 
0.585800 1 257 Rx d 8 6f 45 1f 00 02 a0 0f 01 
0.586100 1 3aa Rx d 8 00 00 00 00 00 00 00 00 
0.586400 1 108 Rx d 8 1c 04 00 02 00 00 00 0d 
0.586600 1 1d8 Rx d 8 29 00 00 00 00 00 60 62 
0.586800 1 126 Rx d 5 01 b0 1d 20 15 
0.587000 1 1e5 Rx d 8 02 ac 04 00 00 00 60 f8 
0.587200 1 128 Rx d 5 80 02 e4 0a 02 
0.587500 1 381 Rx d 8 18 00 00 00 00 00 00 00 
0.587700 1 1d6 Rx d 8 00 08 04 00 0a 4c 0e 05 
0.587900 1 268 Rx d 5 01 01 f8 00 c0 
0.588100 1 279 Rx d 8 49 04 0d 01 74 05 62 02 
0.588400 1 282 Rx d 8 00 00 00 00 e8 23 0b 24 
0.588500 1 2b6 Rx d 3 00 03 00 
0.588800 1 395 Rx d 8 09 0f 11 4d 0a 00 08 7d 
0.589000 1 3c2 Rx d 8 00 55 55 55 00 00 5a 45 
0.589200 1 201 Rx d 8 82 02 00 00 00 00 98 3b 
0.589500 1 397 Rx d 8 00 00 00 d8 1d 00 00 00 
0.589700 1 129 Rx d 8 3c 25 bb 5f 00 20 ff 3f 
0.590000 1 3e8 Rx d 8 03 00 00 00 00 00 00 00 
0.590200 1 2e1 Rx d 8 10 21 04 00 12 00 20 08 
0.590500 1 379 Rx d 8 0a 00 00 00 00 00 12 03 
0.590700 1 40a Rx d 8 09 00 01 00 00 00 c0 d8 
0.590900 1 20c Rx d 8 00 e0 56 1e 00 e0 08 00 
0.591200 1 3f5 Rx d 8 00 00 c8 08 82 04 00 00 
0.591400 1 428 Rx d 7 00 00 10 10 00 00 00 
0.591700 1 682 Rx d 8 00 00 00 40 05 02 a0 c7 
0.591900 1 77a Rx d 8 00 e6 1d 00 f1 0c 5f 61 
0.592100 1 545 Rx d 8 d0 01 27 c0 96 5f 19 10 
0.592400 1 78a Rx d 8 01 00 06 00 02 00 00 00 
0.592900 1 243 Rx d 8 02 b0 09 13 00 4c 00 00 
0.593100 1 45a Rx d 8 a0 54 54 d4 3f 35 00 68 
0.593300 1 2ec Rx d 3 7f 80 ed 
0.593500 1 39d Rx d 5 21 58 01 28 00 
0.594100 1 2c1 Rx d 8 2b 17 13 00 00 00 00 00 
0.594400 1 1f8 Rx d 4 00 00 00 00 
0.594600 1 132 Rx d 6 ff 87 f5 ff 24 40 
0.594800 1 372 Rx d 8 08 00 00 00 00 00 00 00 
0.595100 1 22b Rx d 8 ff ff ff ff ff c7 1f f8 
0.595300 1 401 Rx d 8 18 2a 4f 80 4d 80 4c 80 
0.595900 1 113 Rx d 3 01 97 01 
0.596100 1 3a1 Rx d 8 29 8b 40 17 3e 00 30 39 
0.596400 1 118 Rx d 8 fd 6a 32 00 00 48 00 00 
0.596600 1 7d5 Rx d 8 2b 00 00 00 00 00 00 00 
0.596900 1 1d8 Rx d 8 29 00 00 00 00 00 80 82 
0.597100 1 4e3 Rx d 8 20 06 03 00 00 00 a8 1f 
0.597200 1 139 Rx d 1 00 
0.597500 1 23e Rx d 8 f4 01 3a be fa fc 5f 82 
0.597700 1 266 Rx d 8 00 00 01 22 00 00 9f 01 
0.598000 1 7d5 Rx d 8 2c 00 3f 00 00 00 00 00 
0.598200 1 1e5 Rx d 8 02 ac 04 00 00 00 00 98 
0.598400 1 261 Rx d 8 31 00 f5 ff 6c 49 18 e8 
0.598700 1 7d5 Rx d 8 32 00 00 00 00 00 00 00 
0.598800 1 7f4 Rx d 1 01 
0.599100 1 7d7 Rx d 8 32 01 00 00 00 00 00 00 
0.599300 1 7ff Rx d 8 07 20 80 44 40 00 02 20 
0.599500 1 7a8 Rx d 8 02 40 ce c7 4c 07 00 00 
0.599800 1 129 Rx d 8 e6 26 bb 5f 00 20 ff 3f 
0.600000 1 318 Rx d 8 1a 08 0e 06 1b 0b 3b b2 
0.600200 1 458 Rx d 7 00 00 00 00 40 00 00 
0.601400 1 289 Rx d 8 a6 02 01 40 8c 00 3d 0f 
0.602000 1 2d1 Rx d 2 7f 01 
0.602900 1 343 Rx d 8 00 92 5c 2e 97 00 00 00 
0.603100 1 263 Rx d 8 02 00 00 00 00 00 00 00 
0.603400 1 2b3 Rx d 8 01 bc a9 9b 93 a8 a8 a7 
0.604200 1 37a Rx d 8 02 00 7d 0f 2e 00 00 00 
0.604600 1 294 Rx d 8 14 c1 40 00 00 00 00 00 
0.604800 1 132 Rx d 6 05 88 f5 ff 24 40 
0.605300 1 118 Rx d 8 fe 6b 32 00 00 48 00 00 
0.605600 1 228 Rx d 8 03 11 00 40 80 00 21 1f 
0.605800 1 266 Rx d 8 00 00 01 22 00 00 9f 01 
0.606100 1 257 Rx d 8 70 46 1f 00 02 a0 0f 01 
0.606300 1 2e1 Rx d 8 39 8d 55 af 1f 28 00 00 
0.606500 1 1d8 Rx d 8 29 00 00 00 00 00 a0 a2 
0.606800 1 1e5 Rx d 8 02 ac 04 00 00 00 20 b8 
0.608400 1 4e2 Rx d 8 20 50 02 00 00 00 28 18 
0.608900 1 3c3 Rx d 8 55 55 55 01 00 80 43 00 
0.609400 1 419 Rx d 1 00 
0.609700 1 129 Rx d 8 05 27 ba 5f 00 20 ff 3f 
0.609900 1 249 Rx d 4 d3 04 00 00 
0.611000 1 20e Rx d 3 12 02 00 
0.611300 1 359 Rx d 8 02 02 00 00 64 82 86 24 
0.611500 1 3ae Rx d 8 c5 3f 00 08 00 00 20 2d 
0.611600 1 409 Rx d 1 00 
0.611900 1 7b8 Rx d 8 54 77 5c 00 00 00 80 c1 
0.612100 1 3fd Rx d 8 02 00 00 00 00 00 00 90 
0.612300 1 441 Rx d 8 2a 00 b6 c3 58 00 0d 71 
0.612900 1 243 Rx d 8 03 00 00 80 42 62 1d 00 
0.613100 1 421 Rx d 7 00 14 00 00 00 d0 48 
0.613400 1 142 Rx d 8 01 00 40 0a c0 1b 00 00 
0.614200 1 261 Rx d 8 fa 28 5e 02 80 5c 22 76 
0.614400 1 201 Rx d 8 83 02 00 00 00 00 b8 3b 
0.614700 1 2c1 Rx d 8 04 00 10 0e 0a 11 08 14 
0.614900 1 132 Rx d 6 f5 87 f5 ff 1f 40 
0.615100 1 401 Rx d 8 19 2a 54 80 54 80 58 80 
0.615300 1 400 Rx d 7 00 e0 fb be ef fb 00 
0.615500 1 443 Rx d 6 6c 01 ff 03 00 00 
0.615800 1 552 Rx d 8 00 00 00 00 00 00 90 e7 
0.616000 1 553 Rx d 8 00 00 00 00 00 00 90 e8 
0.616200 1 118 Rx d 8 ff 6c 32 00 00 48 00 00 
0.616500 1 1d8 Rx d 8 29 00 00 00 00 00 c0 c2 
0.616700 1 3a2 Rx d 8 60 85 f2 b7 04 00 41 72 
0.617000 1 266 Rx d 8 00 00 01 22 00 00 9f 01 
0.617200 1 677 Rx d 8 04 00 00 00 00 00 00 00 
0.617500 1 1e5 Rx d 8 02 ac 04 00 00 00 40 d8 
0.617700 1 2e8 Rx d 8 02 11 00 00 06 80 30 b3 
0.617900 1 718 Rx d 7 04 00 00 00 00 00 00 
0.619700 1 129 Rx d 8 d2 28 ba 5f 00 20 ff 3f 
0.620900 1 383 Rx d 8 bf 18 3b 00 15 81 03 52 
0.621500 1 3ae Rx d 8 c7 3f 00 08 00 00 30 3f 
0.622100 1 2e1 Rx d 8 02 6c 7f 02 3e 62 00 00 
0.622400 1 381 Rx d 8 d9 12 00 3d 00 1e 00 00 
0.622600 1 422 Rx d 6 70 00 10 00 00 00 
0.622800 1 709 Rx d 8 1f 00 00 00 00 00 00 00 
0.623100 1 263 Rx d 8 03 00 00 00 00 00 00 22 
0.623300 1 2a6 Rx d 8 00 00 6a 18 00 00 00 00 
0.623600 1 2a7 Rx d 8 00 00 00 00 00 70 05 84 
0.623800 1 2c7 Rx d 8 00 00 00 00 00 00 4c ff 
0.624000 1 448 Rx d 7 00 00 10 10 00 00 00 
0.624600 1 132 Rx d 6 05 88 f6 ff 25 40 
0.625100 1 2a1 Rx d 6 00 00 98 3a 00 00 
0.625300 1 39a Rx d 8 fc fd fd fd fd fd fd 01 
0.625500 1 118 Rx d 8 00 6d 32 00 00 48 00 00 
0.625800 1 266 Rx d 8 00 00 01 22 00 00 9f 01 
0.626000 1 257 Rx d 8 71 47 1f 00 02 a0 0f 01 
0.626300 1 39b Rx d 8 01 0a df e0 b0 48 c0 20 
0.626500 1 1d8 Rx d 8 29 00 00 00 00 00 e0 e2 
0.626700 1 1e5 Rx d 8 02 ac 04 00 00 00 60 f8 
0.627000 1 420 Rx d 8 28 01 40 4b 00 00 80 00 
0.627200 1 423 Rx d 7 00 00 00 00 08 00 00 
0.627500 1 545 Rx d 8 01 00 00 00 00 10 20 7b 
0.629400 1 2c2 Rx d 8 55 63 a9 b6 02 00 1c a5 
0.629700 1 129 Rx d 8 87 29 ba 5f 00 20 ff 3f 
0.630100 1 261 Rx d 8 7b 4b 0a 00 00 40 35 3b 
0.630300 1 221 Rx d 8 61 05 55 55 01 02 20 56 
0.630500 1 22a Rx d 4 00 00 c9 15 
0.630700 1 7aa Rx d 8 02 08 ab f9 4b 07 21 00 
0.630900 1 211 Rx d 6 95 13 71 0d 00 f1 
0.632100 1 75d Rx d 8 06 00 00 00 00 00 00 00 
0.632400 1 219 Rx d 7 04 74 74 00 00 00 00 
0.632600 1 21d Rx d 8 04 00 35 00 00 00 00 00 
0.632800 1 262 Rx d 8 0b 00 d5 de 00 f0 d1 11 
0.633100 1 243 Rx d 8 04 b4 f1 ff fd 7f 69 69 
0.633300 1 25d Rx d 8 36 41 01 2a 04 f0 d8 03 
0.633500 1 2c3 Rx d 8 00 00 c0 4b 01 00 80 cb 
0.633800 1 234 Rx d 8 28 e1 03 80 43 00 74 de 
0.634000 1 39d Rx d 5 22 59 01 28 00 
0.634200 1 2c1 Rx d 8 50 24 7e 00 00 8a 02 47 
0.634300 1 41d Rx d 1 00 
0.634600 1 719 Rx d 8 00 03 14 14 14 00 05 00 
0.634700 1 132 Rx d 6 00 88 f5 ff 22 40 
0.635000 1 401 Rx d 8 1a 2a 56 80 55 80 54 80 
0.636200 1 118 Rx d 8 01 6e 32 00 00 48 00 00 
0.636400 1 266 Rx d 8 00 00 01 22 00 00 9f 01 
0.636600 1 1d8 Rx d 8 29 00 00 00 00 00 00 02 
0.636900 1 1e5 Rx d 8 02 ac 04 00 00 00 00 98 
0.637300 1 23e Rx d 8 f4 01 3a be fa fc 6f 92 
0.638100 1 2e1 Rx d 8 fb 19 6c f9 93 5c 09 00 
0.638400 1 2e2 Rx d 8 e2 11 29 5c 49 59 29 0c 
0.638700 1 3c2 Rx d 8 29 55 00 00 00 00 00 80 
0.638800 1 743 Rx d 1 00 
0.639100 1 201 Rx d 8 f0 d1 01 80 22 8b f1 07 
0.639300 1 2f9 Rx d 8 b0 fb 07 20 00 00 00 00 
0.639700 1 129 Rx d 8 58 2a ba 5f 00 20 ff 3f 
0.640900 1 2e3 Rx d 7 06 00 00 00 00 00 00 
0.641700 1 717 Rx d 7 01 fd ff 54 00 6f ff 
0.642900 1 263 Rx d 8 04 00 00 00 10 04 00 00 
0.643200 1 45a Rx d 8 fd 07 f8 ff 03 00 00 2a 
0.644600 1 132 Rx d 6 00 88 f4 ff 20 40 
0.645100 1 22b Rx d 8 ff ff ff ff ff c7 1f f8 
0.645300 1 25b Rx d 8 d3 c0 02 05 6a 86 a0 85 
0.645500 1 118 Rx d 8 02 6f 32 00 00 48 00 00 
0.645700 1 1fa Rx d 3 22 c0 01 
0.645900 1 266 Rx d 8 00 00 01 22 00 00 9f 01 
0.646200 1 257 Rx d 8 72 48 1f 00 02 a0 0f 01 
0.646400 1 261 Rx d 8 cc 02 f8 49 00 40 44 89 
0.646600 1 1d8 Rx d 8 29 00 00 00 00 00 20 22 
0.646900 1 204 Rx d 8 01 00 00 ff 00 00 00 10 
0.647100 1 1e5 Rx d 8 02 ac 04 00 00 00 20 b8 
0.647300 1 264 Rx d 6 38 00 00 00 a0 00 
0.647600 1 2c4 Rx d 8 17 80 ff 12 04 00 20 00 
0.647800 1 3a1 Rx d 8 e8 4e 0e ca 00 0c 42 1c 
0.648100 1 224 Rx d 8 04 08 00 48 19 01 10 08 
0.648300 1 2b4 Rx d 6 25 05 9d 0d 0d 01 
0.648500 1 2a4 Rx d 8 ae 97 7d ec 73 bf fd 42 
0.648700 1 364 Rx d 4 00 82 6c 1f 
0.648800 1 225 Rx d 4 45 55 fa 00 
0.649100 1 3f9 Rx d 8 04 00 00 00 00 00 00 00 
0.649300 1 3a4 Rx d 8 01 00 00 00 00 00 00 00 
0.649600 1 3a2 Rx d 8 01 10 20 00 14 f0 ff 00 
0.649800 1 129 Rx d 8 a9 2b ba 5f 00 20 ff 3f 
0.650000 1 405 Rx d 8 12 43 32 35 36 38 32 33 
0.650300 1 414 Rx d 8 12 20 20 20 20 20 20 20 
0.650500 1 55a Rx d 8 05 00 00 00 00 00 00 00 
0.650700 1 666 Rx d 4 00 00 a0 00 
0.650800 1 789 Rx d 4 55 19 90 00 
0.652100 1 2d2 Rx d 8 6e 29 a8 4e c4 09 d5 14 
0.652400 1 212 Rx d 8 59 04 00 00 81 ff 77 31 
0.652500 1 242 Rx d 4 55 15 86 05 
0.652800 1 252 Rx d 8 47 23 93 4a 00 fc 0f 00 
0.653000 1 243 Rx d 8 00 fc 4f cc cf 02 41 29 
0.653200 1 292 Rx d 8 c7 45 27 5e 72 01 00 00 
0.653400 1 2f2 Rx d 2 12 01 
0.653600 1 339 Rx d 8 04 e1 02 00 00 00 40 0f 
0.653900 1 3c8 Rx d 8 04 00 00 00 00 00 00 00 
0.654100 1 712 Rx d 8 04 00 00 00 00 00 00 00 
0.654300 1 2c1 Rx d 8 21 1b 0d 0a 02 00 00 00 
0.654600 1 2e1 Rx d 8 04 00 00 80 48 44 26 00 
0.654800 1 677 Rx d 8 00 00 00 00 00 00 00 00 
0.655000 1 132 Rx d 6 f9 87 f5 ff 22 40 
0.655200 1 283 Rx d 6 00 00 00 00 00 00 
0.655500 1 372 Rx d 8 09 00 00 00 00 f8 3f 00 
0.655700 1 401 Rx d 8 1b 2a 4d 80 50 80 51 80 
0.655900 1 61d Rx d 8 12 14 8a 34 ac 36 16 08 
0.656200 1 118 Rx d 8 f3 60 32 00 00 48 00 00 
0.656400 1 238 Rx d 8 b0 2b 9c d0 1f 00 f6 96 
0.656700 1 266 Rx d 8 00 00 01 22 00 00 9f 01 
0.656900 1 1d8 Rx d 8 29 00 00 00 00 00 40 42 
0.657200 1 1e5 Rx d 8 02 ac 04 00 00 00 40 d8 
0.658100 1 340 Rx d 8 02 00 00 00 00 00 00 00 
0.658300 1 381 Rx d 8 1a 16 16 70 00 00 00 00 
0.658600 1 545 Rx d 8 02 00 02 00 00 00 30 7e 
0.659100 1 2aa Rx d 3 7f 90 bb 
0.659500 1 360 Rx d 8 04 00 00 00 00 00 00 00 
0.659700 1 129 Rx d 8 3d 2c bb 5f 00 20 ff 3f 
0.659900 1 229 Rx d 3 2f 0d 00 
0.660000 1 249 Rx d 4 83 05 00 00 
0.660300 1 1f9 Rx d 8 00 00 00 00 00 00 00 00 
0.660500 1 54f Rx d 8 00 00 00 00 00 00 00 00 
0.660900 1 3c0 Rx d 8 05 00 00 00 00 00 00 00 
0.661600 1 3ae Rx d 8 c7 3f 00 08 00 00 40 4f 
0.662100 1 261 Rx d 8 05 22 f1 c7 9a 42 50 01 
0.662300 1 441 Rx d 8 22 85 89 00 32 00 10 db 
0.662900 1 263 Rx d 8 00 d0 e7 89 d4 07 55 1f 
0.663100 1 2b3 Rx d 8 22 51 00 00 00 00 00 0e 
0.663500 1 142 Rx d 8 28 00 02 5a 18 00 01 00 
0.664100 1 201 Rx d 8 01 04 18 01 00 00 80 c4 
0.664600 1 132 Rx d 6 f5 87 f5 ff 24 40 
0.665100 1 6a2 Rx d 5 00 00 00 00 00 
0.665400 1 788 Rx d 8 b4 c4 71 63 00 00 8a 00 
0.665600 1 118 Rx d 8 f4 61 32 00 00 48 00 00 
0.665800 1 266 Rx d 8 00 00 01 22 00 00 9f 01 
0.666100 1 257 Rx d 8 73 49 1f 00 02 a0 0f 01 
0.666400 1 1d8 Rx d 8 29 00 00 00 00 00 60 62 
0.666700 1 102 Rx d 8 22 b3 88 04 8c 0c 21 08 
0.666900 1 1e5 Rx d 8 02 ac 04 00 00 00 60 f8 
0.667100 1 103 Rx d 8 22 b3 88 04 92 2c 21 02 
0.667300 1 119 Rx d 4 00 00 00 00 
0.669100 1 241 Rx d 7 28 28 14 0a 0a 45 00 
0.669700 1 129 Rx d 8 2f 2d bb 5f 00 20 ff 3f 
0.670100 1 2e1 Rx d 8 65 80 08 00 02 d5 8f 6a 
0.670900 1 3ae Rx d 8 c7 3f 00 08 00 00 51 60 
0.671300 1 288 Rx d 8 03 11 00 40 80 00 31 8f 
0.672900 1 123 Rx d 8 01 00 00 00 00 3f 00 00 
0.673100 1 243 Rx d 8 01 fc 69 00 69 00 7c 7c 
0.673300 1 39d Rx d 5 23 5a 01 28 00 
0.673600 1 122 Rx d 8 01 00 00 00 00 3f 00 00 
0.674100 1 2c1 Rx d 8 02 0d 06 05 00 d0 92 c1 
0.674300 1 439 Rx d 8 02 00 40 00 00 14 00 00 
0.674600 1 132 Rx d 6 fc 87 f5 ff 20 40 
0.674900 1 401 Rx d 8 1c 2a 52 80 51 80 51 80 
0.675800 1 3ae Rx d 8 c5 3f 00 08 00 00 61 6e 
0.676200 1 118 Rx d 8 f5 62 32 00 00 48 00 00 
0.676400 1 266 Rx d 8 00 00 01 22 00 00 9f 01 
0.676600 1 1d8 Rx d 8 29 00 00 00 00 00 80 82 
0.676900 1 1e5 Rx d 8 02 ac 04 00 00 00 00 98 
0.677200 1 798 Rx d 8 05 00 00 00 00 00 90 41 
0.677500 1 23e Rx d 8 f4 01 3a be fa fc 7f a2 
0.678100 1 261 Rx d 8 00 10 02 00 d2 4c 60 86 
0.678900 1 3a3 Rx d 8 00 d0 00 00 38 03 fc 01 
0.679700 1 129 Rx d 8 f0 2e bb 5f 00 20 ff 3f 
0.680100 1 2f1 Rx d 8 32 11 00 82 00 01 00 00 
0.680300 1 221 Rx d 8 60 55 55 05 54 51 31 08 
0.680600 1 272 Rx d 8 06 00 f1 88 07 48 06 08 
0.681400 1 797 Rx d 4 15 0d 90 4d 
0.682400 1 3a2 Rx d 8 d2 29 00 00 22 00 00 00 
0.682900 1 263 Rx d 8 01 d0 bf b1 8c c7 54 1f 
0.683200 1 719 Rx d 8 01 00 00 00 00 00 00 00 
0.683500 1 2a8 Rx d 8 02 11 00 00 06 80 80 c3 
0.683700 1 234 Rx d 8 22 20 02 27 9d 04 80 27 
0.684600 1 132 Rx d 6 fe 87 f5 ff 25 40 
0.684900 1 393 Rx d 8 06 00 f0 80 07 48 06 08 
0.685300 1 118 Rx d 8 f6 63 32 00 00 48 00 00 
0.685600 1 266 Rx d 8 00 00 01 22 00 00 9f 01 
0.685800 1 257 Rx d 8 74 4a 1f 00 02 a0 0f 01 
0.686100 1 78a Rx d 8 01 00 00 00 20 13 13 0d 
0.686400 1 108 Rx d 8 1d 05 00 02 00 00 00 0d 
0.686600 1 1d8 Rx d 8 29 00 00 00 00 00 a0 a2 
0.686800 1 126 Rx d 5 01 b0 1d 28 1d 
0.687000 1 1e5 Rx d 8 02 ac 04 00 00 00 20 b8 
0.687200 1 128 Rx d 5 80 02 e4 0a 02 
0.687500 1 2e1 Rx d 8 10 21 04 00 12 00 20 08 
0.687700 1 1d6 Rx d 8 00 08 04 00 0a 4c 0c 05 
0.687900 1 282 Rx d 8 00 00 00 00 e8 23 0b 24 
0.688100 1 268 Rx d 5 01 01 f8 00 c0 
0.688400 1 279 Rx d 8 4a 05 0d 01 74 05 62 02 
0.688500 1 2b6 Rx d 3 00 03 00 
0.688700 1 395 Rx d 8 09 0f 11 4d 0a 00 08 7d 
0.689000 1 3c2 Rx d 8 00 55 55 55 00 00 5a 45 
0.689200 1 201 Rx d 8 82 02 00 00 00 00 98 3b 
0.689500 1 397 Rx d 8 00 00 00 d8 1d 00 00 00 
0.689700 1 3e2 Rx d 7 00 00 80 1a f0 cf 04 
0.689900 1 129 Rx d 8 01 2f bb 5f 00 20 ff 3f 
0.690200 1 3e8 Rx d 8 04 00 00 00 00 00 00 00 
0.690400 1 379 Rx d 8 0b 00 00 00 01 00 17 0a 
0.690600 1 428 Rx d 7 00 00 10 10 00 00 00 
0.690900 1 682 Rx d 8 00 00 00 40 05 02 b0 d7 
0.691100 1 20c Rx d 8 00 e0 56 1e 00 e0 08 00 
0.691400 1 3f5 Rx d 8 00 00 c8 08 82 04 00 00 
0.691600 1 545 Rx d 8 d0 01 2c 70 96 5e 49 f4 
0.692900 1 243 Rx d 8 02 b0 09 13 00 4c 00 00 
0.693100 1 45a Rx d 8 a0 54 54 d4 3f 35 00 69 
0.693300 1 2ec Rx d 3 7f 90 fd 
0.694100 1 261 Rx d 8 31 00 f0 ff 6c 49 78 43 
0.694300 1 2c1 Rx d 8 2b 17 13 00 00 00 00 00 
0.694500 1 1f8 Rx d 4 00 00 00 00 
0.694700 1 132 Rx d 6 01 88 f5 ff 23 40 
0.694900 1 381 Rx d 8 a0 c2 e5 92 b9 5c b2 10 
0.695200 1 22b Rx d 8 ff ff ff ff ff c7 3f f8 
0.695400 1 401 Rx d 8 1d 2a 51 80 55 80 54 80 
0.695700 1 677 Rx d 8 01 00 00 00 00 00 00 00 
0.695900 1 113 Rx d 3 01 97 01 
0.696200 1 118 Rx d 8 f7 64 32 00 00 48 00 00 
0.696400 1 318 Rx d 8 1a 08 0e 06 1b 0b 3d b4 
0.696600 1 266 Rx d 8 00 00 01 22 00 00 9f 01 
0.696900 1 3a1 Rx d 8 29 8b 40 0b 3e 00 50 4d 
0.697100 1 1d8 Rx d 8 29 00 00 00 00 00 c0 c2 
0.697200 1 139 Rx d 1 00 
0.697500 1 1e5 Rx d 8 02 ac 04 00 00 00 40 d8 
0.697700 1 458 Rx d 7 00 00 00 00 40 00 00 
0.697900 1 4e3 Rx d 8 01 e3 06 00 00 00 28 29 
0.698200 1 7d5 Rx d 8 2b 00 00 00 00 00 00 00 
0.698400 1 7d5 Rx d 8 2c 00 3f 00 00 00 00 00 
0.698700 1 7d5 Rx d 8 32 00 00 00 00 00 00 00 
0.698800 1 7f4 Rx d 1 01 
0.699100 1 7d7 Rx d 8 32 01 00 00 00 00 00 00 
0.699300 1 7ff Rx d 8 08 00 00 01 00 00 00 00 
0.699600 1 7a8 Rx d 8 b4 bc 71 63 00 00 82 00 
0.699800 1 129 Rx d 8 10 20 ba 5f 00 20 ff 3f 
0.701400 1 289 Rx d 8 a6 02 01 00 8a 00 3d 0f 
0.702000 1 2d1 Rx d 2 7f 01 
0.702200 1 2e1 Rx d 8 39 8d 55 af 1f 28 00 00 
0.702900 1 343 Rx d 8 00 92 5c 5e 97 00 00 00 
0.703100 1 263 Rx d 8 02 00 00 00 00 00 00 00 
0.704200 1 37a Rx d 8 03 00 00 00 00 00 00 00 
0.704300 1 1bb Rx d 1 02 
0.704500 1 284 Rx d 8 30 00 00 00 40 08 a0 9e 
0.704700 1 132 Rx d 6 02 88 f5 ff 22 40 
0.705300 1 118 Rx d 8 f8 65 32 00 00 48 00 00 
0.705600 1 228 Rx d 8 03 11 00 40 80 00 31 2f 
0.705800 1 266 Rx d 8 00 00 01 22 00 00 9f 01 
0.706100 1 257 Rx d 8 75 4b 1f 00 02 a0 0f 01 
0.706400 1 1d8 Rx d 8 29 00 00 00 00 00 e0 e2 
0.706700 1 1e5 Rx d 8 02 ac 04 00 00 00 60 f8 
0.708400 1 4e2 Rx d 8 01 c9 06 00 00 00 a8 28 
0.708900 1 3c3 Rx d 8 00 00 00 00 00 45 00 00 
0.709100 1 3e3 Rx d 4 00 00 00 00 
0.709500 1 419 Rx d 1 00 
0.709700 1 129 Rx d 8 aa 21 ba 5f 01 20 ff 3f 
0.709900 1 249 Rx d 4 4c 06 00 00 
0.710100 1 20a Rx d 6 f6 15 09 82 18 01 
0.710300 1 261 Rx d 8 fa 28 5e 02 80 5c 82 d6 
0.710900 1 7aa Rx d 8 23 a8 f9 43 07 13 00 1c 
0.711100 1 20e Rx d 3 13 03 00 
0.711300 1 359 Rx d 8 03 00 00 00 ff 01 00 00 
0.711600 1 7b8 Rx d 8 05 20 4c a1 a1 03 90 60 
0.711800 1 409 Rx d 1 00 
0.712100 1 441 Rx d 8 2a 00 b6 c3 58 00 15 79 
0.712900 1 243 Rx d 8 03 00 00 80 42 62 1d 00 
0.713100 1 421 Rx d 7 00 14 00 00 00 d0 48 
0.713400 1 142 Rx d 8 01 00 40 0a c0 1b 00 00 
0.713600 1 39d Rx d 5 24 5b 01 28 00 
0.714100 1 361 Rx d 5 33 0e 1f 03 01 
0.714300 1 201 Rx d 8 83 02 00 00 00 00 b8 3b 
0.714500 1 2bf Rx d 7 0a 00 00 00 00 10 01 
0.714700 1 132 Rx d 6 fe 87 f5 ff 23 40 
0.715000 1 2c1 Rx d 8 04 00 10 0e 0a 11 08 14 
0.715200 1 320 Rx d 8 03 00 00 00 00 00 00 00 
0.715400 1 372 Rx d 8 0a 01 40 06 00 00 00 82 
0.715700 1 3a2 Rx d 8 60 85 f2 b5 1c 80 41 72 
0.715900 1 3ae Rx d 8 c5 3f 00 08 00 00 71 7e 
0.716100 1 400 Rx d 7 00 e0 fb be ef fb 00 
0.716400 1 118 Rx d 8 f9 66 32 00 00 48 00 00 
0.716600 1 401 Rx d 8 1e 2a 52 80 53 80 53 80 
0.716900 1 1d8 Rx d 8 29 00 00 00 00 00 00 02 
0.717100 1 266 Rx d 8 00 00 01 22 00 00 9f 01 
0.717300 1 1e5 Rx d 8 02 ac 04 00 00 00 00 98 
0.717600 1 23e Rx d 8 f4 01 3a be fa fc 8f b2 
0.717800 1 2e8 Rx d 8 02 11 00 00 06 80 40 c3 
0.718100 1 552 Rx d 8 00 00 00 00 00 00 a0 f7 
0.718300 1 2e1 Rx d 8 02 6c 7f 02 3e 62 00 00 
0.718600 1 553 Rx d 8 00 00 00 00 00 00 a0 f8 
0.719700 1 129 Rx d 8 4e 22 ba 5f 00 20 ff 3f 
0.720900 1 383 Rx d 8 bf 18 3b 00 15 81 03 52 
0.722400 1 422 Rx d 6 70 00 10 00 00 00 
0.722900 1 263 Rx d 8 03 00 00 00 00 00 00 22 
0.723100 1 2a6 Rx d 8 00 00 6a 18 00 00 00 00 
0.723400 1 2a7 Rx d 8 00 00 00 00 00 70 05 84 
0.723600 1 2b3 Rx d 8 03 46 46 11 00 00 80 3c 
0.723900 1 2c7 Rx d 8 00 00 00 00 00 00 4c ff 
0.724100 1 448 Rx d 7 00 00 10 10 00 00 00 
0.724300 1 545 Rx d 8 01 00 00 00 00 10 50 ab 
0.724600 1 6e8 Rx d 8 a4 62 00 12 04 00 00 00 
0.724800 1 132 Rx d 6 f6 87 f5 ff 24 40 
0.725100 1 2a1 Rx d 6 00 00 98 3a 00 00 
0.725300 1 39a Rx d 8 fd fd fd fd fd 01 00 00 
0.725600 1 118 Rx d 8 fa 67 32 00 00 48 00 00 
0.725800 1 266 Rx d 8 00 00 01 22 00 00 9f 01 
0.726000 1 257 Rx d 8 76 4c 1f 00 02 a0 0f 01 
0.726300 1 261 Rx d 8 7b 4b 0a 00 00 40 95 9b 
0.726500 1 1d8 Rx d 8 29 00 00 00 00 00 20 22 
0.726800 1 1e5 Rx d 8 02 ac 04 00 00 00 20 b8 
0.727000 1 3ae Rx d 8 c7 3f 00 08 00 00 81 90 
0.727200 1 3c9 Rx d 8 02 81 f3 de 61 00 00 00 
0.727500 1 420 Rx d 8 28 01 40 4b 00 00 00 01 
0.727700 1 423 Rx d 7 00 00 00 00 08 00 00 
0.729400 1 2c2 Rx d 8 20 40 80 20 01 00 80 cb 
0.729700 1 129 Rx d 8 59 23 ba 5f 00 20 ff 3f 
0.730100 1 381 Rx d 8 01 00 00 20 9b 9a 9a 00 
0.730300 1 221 Rx d 8 61 05 55 55 01 02 40 76 
0.730500 1 22a Rx d 4 00 00 c9 15 
0.730700 1 211 Rx d 6 96 14 71 0d 00 f1 
0.731900 1 41d Rx d 1 00 
0.732200 1 219 Rx d 7 05 00 6d 6d 6c 6d 00 
0.732400 1 21d Rx d 8 04 00 35 00 00 00 00 00 
0.732600 1 25d Rx d 8 36 41 01 2a 04 f0 d8 03 
0.732900 1 2c3 Rx d 8 55 5b a9 b6 02 00 12 a5 
0.733100 1 243 Rx d 8 04 b4 f1 ff fd 7f 68 69 
0.733400 1 719 Rx d 8 0e 00 00 00 00 00 00 14 
0.733600 1 234 Rx d 8 27 e1 03 80 43 00 94 fd 
0.734100 1 2e1 Rx d 8 fb 19 6c f9 93 60 09 00 
0.734300 1 2c1 Rx d 8 50 24 7e 00 00 8a 02 47 
0.734600 1 677 Rx d 8 02 00 00 00 00 00 00 00 
0.734800 1 132 Rx d 6 fa 87 f6 ff 22 40 
0.735000 1 401 Rx d 8 1f 2a 51 80 4b 80 4c 80 
0.736100 1 118 Rx d 8 fb 68 32 00 00 48 00 00 
0.736400 1 266 Rx d 8 00 00 01 22 00 00 9f 01 
0.736600 1 1d8 Rx d 8 29 00 00 00 00 00 40 42 
0.736900 1 1e5 Rx d 8 02 ac 04 00 00 00 40 d8 
0.738400 1 3a8 Rx d 8 00 ff 01 7f 00 00 00 00 
0.738700 1 3c2 Rx d 8 29 55 00 00 00 00 00 80 
0.739100 1 201 Rx d 8 f0 d1 01 80 22 8b f1 07 
0.739400 1 2f9 Rx d 8 b0 fb 07 28 00 00 00 00 
0.739700 1 129 Rx d 8 df 24 ba 5f 00 20 ff 3f 
0.742100 1 261 Rx d 8 cc 02 f8 49 00 40 a4 e9 
0.742900 1 263 Rx d 8 04 00 00 00 10 04 00 00 
0.743200 1 45a Rx d 8 fd 07 f8 ff 03 00 00 2a 
0.744600 1 132 Rx d 6 03 88 f4 ff 22 40 
0.745100 1 22b Rx d 8 ff ff ff ff ff c7 3f f8 
0.745300 1 25b Rx d 8 d3 c0 02 05 6a 86 b0 95 
0.745500 1 118 Rx d 8 fc 69 32 00 00 48 00 00 
0.745700 1 1fa Rx d 3 22 c0 01 
0.745900 1 266 Rx d 8 00 00 01 22 00 00 9f 01 
0.746200 1 257 Rx d 8 77 4d 1f 00 02 a0 0f 01 
0.746400 1 3a1 Rx d 8 e8 4e 0e ca 00 10 62 40 
0.746600 1 1d8 Rx d 8 29 00 00 00 00 00 60 62 
0.746900 1 2c4 Rx d 8 19 7b 1f 42 02 14 60 00 
0.747100 1 1e5 Rx d 8 02 ac 04 00 00 00 60 f8 
0.747400 1 204 Rx d 8 01 00 00 ff 00 00 00 10 
0.747600 1 264 Rx d 6 38 00 00 00 a0 00 
0.747800 1 3f9 Rx d 8 05 00 00 00 00 00 00 00 
0.748100 1 224 Rx d 8 04 08 00 48 19 01 10 08 
0.748200 1 789 Rx d 4 55 19 a0 10 
0.748400 1 2b4 Rx d 6 25 05 9d 0d 0b 01 
0.748600 1 3a2 Rx d 8 01 10 20 00 14 f0 ff 00 
0.748800 1 225 Rx d 4 45 55 fa 00 
0.749700 1 129 Rx d 8 3c 25 bb 5f 00 20 ff 3f 
0.750100 1 2e1 Rx d 8 04 00 00 80 48 44 26 00 
0.751000 1 3ae Rx d 8 c5 3f 00 08 00 00 91 9e 
0.751900 1 2d2 Rx d 8 6e 29 a8 4e c4 09 d5 14 
0.752200 1 212 Rx d 8 59 04 00 00 81 ff 77 31 
0.752400 1 252 Rx d 8 47 23 93 4a 00 fc 0f 00 
0.752600 1 242 Rx d 4 55 15 86 05 
0.752800 1 292 Rx d 8 c7 45 27 5e 72 01 00 00 
0.753000 1 243 Rx d 8 00 fc 4f cc cf 02 41 29 
0.753200 1 2f2 Rx d 2 12 01 
0.753400 1 312 Rx d 8 f1 81 c7 14 1c 8d 00 00 
0.753600 1 339 Rx d 8 04 e1 02 00 00 00 40 0f 
0.753900 1 392 Rx d 8 01 1c a9 67 10 27 02 00 
0.754100 1 39d Rx d 5 25 5c 01 28 00 
0.754300 1 2c1 Rx d 8 21 1b 0d 0a 02 00 00 00 
0.754500 1 285 Rx d 8 41 03 65 01 0d 00 08 00 
0.754800 1 3c8 Rx d 8 05 00 00 00 00 00 00 00 
0.755000 1 132 Rx d 6 fd 87 f5 ff 1f 40 
0.755200 1 283 Rx d 6 00 00 00 00 00 00 
0.755400 1 286 Rx d 5 ff ff ff ff 71 
0.755600 1 401 Rx d 8 20 2a 49 80 4d 80 4f 80 
0.755900 1 712 Rx d 8 05 00 00 00 00 00 00 00 
0.756200 1 118 Rx d 8 fd 6a 32 00 00 48 00 00 
0.756400 1 266 Rx d 8 00 00 01 22 00 00 9f 01 
0.756700 1 1d8 Rx d 8 29 00 00 00 00 00 80 82 
0.756900 1 1e5 Rx d 8 02 ac 04 00 00 00 00 98 
0.757200 1 545 Rx d 8 02 00 02 00 00 00 60 ae 
0.757400 1 23e Rx d 8 f4 01 3a be fa fc 9f c2 
0.758100 1 340 Rx d 8 03 01 00 00 00 00 00 00 
0.758300 1 261 Rx d 8 05 22 f1 c7 9a 42 b0 61 
0.759200 1 2aa Rx d 3 7f a0 cb 
0.759500 1 360 Rx d 8 05 00 00 00 00 00 00 00 
0.759700 1 129 Rx d 8 e6 26 bb 5f 00 20 ff 3f 
0.759900 1 229 Rx d 3 31 0e 00 
0.760000 1 249 Rx d 4 5e 07 00 00 
0.760300 1 1f9 Rx d 8 00 00 00 00 00 00 00 00 
0.760500 1 54f Rx d 8 00 00 00 00 00 00 00 00 
0.760900 1 3c0 Rx d 8 06 00 00 00 00 00 00 00 
0.762100 1 441 Rx d 8 22 85 89 00 32 00 18 e3 
0.762900 1 263 Rx d 8 00 d0 e7 89 d4 07 55 1f 
0.763400 1 142 Rx d 8 28 00 02 5a 18 00 01 00 
0.764100 1 201 Rx d 8 01 04 18 01 00 00 80 c4 
0.764600 1 132 Rx d 6 ee 87 f5 ff 22 40 
0.765100 1 6a2 Rx d 5 00 00 00 00 00 
0.765300 1 788 Rx d 8 01 00 00 00 ff a1 d8 12 
0.765600 1 118 Rx d 8 fe 6b 32 00 00 48 00 00 
0.765800 1 266 Rx d 8 00 00 01 22 00 00 9f 01 
0.766100 1 257 Rx d 8 78 4e 1f 00 02 a0 0f 01 
0.766300 1 2e1 Rx d 8 65 80 08 00 02 d5 8f 6a 
0.766500 1 102 Rx d 8 22 b3 88 04 8c 0c 21 08 
0.766800 1 1d8 Rx d 8 29 00 00 00 00 00 a0 a2 
0.767000 1 103 Rx d 8 22 b3 88 04 92 2c 21 02 
0.767200 1 119 Rx d 4 00 00 00 00 
0.767400 1 1e5 Rx d 8 02 ac 04 00 00 00 20 b8 
0.767700 1 381 Rx d 8 22 62 f6 f7 0d 10 01 00 
0.769100 1 241 Rx d 7 28 28 14 0a 0a 45 00 
0.769700 1 129 Rx d 8 05 27 ba 5f 00 20 ff 3f 
0.770700 1 3ae Rx d 8 c5 3f 00 08 00 00 a0 ad 
0.771300 1 288 Rx d 8 03 11 00 40 80 00 41 9f 
0.772900 1 123 Rx d 8 00 00 12 92 d2 00 00 80 
0.773100 1 243 Rx d 8 01 fc 69 00 69 00 7c 7c 
0.773500 1 122 Rx d 8 00 00 12 92 12 00 00 00 
0.774100 1 261 Rx d 8 00 10 01 00 d2 4c c0 e5 
0.774300 1 2c1 Rx d 8 02 0d 06 05 00 d0 92 c1 
0.774600 1 439 Rx d 8 02 00 40 00 00 14 00 00 
0.774800 1 132 Rx d 6 f9 87 f4 ff 1f 40 
0.775000 1 232 Rx d 8 8a 00 e0 09 e0 04 00 00 
0.775300 1 31a Rx d 8 60 fc ff 02 00 00 d0 4a 
0.775500 1 372 Rx d 8 0b ec ff 41 00 65 66 00 
0.775700 1 401 Rx d 8 21 2a 4d 80 4c 80 4e 80 
0.776000 1 677 Rx d 8 03 00 00 00 00 00 00 00 
0.776200 1 118 Rx d 8 ff 6c 32 00 00 48 00 00 
0.776500 1 1d8 Rx d 8 29 00 00 00 00 00 c0 c2 
0.776700 1 266 Rx d 8 00 00 01 22 00 00 9f 01 
0.776900 1 1e5 Rx d 8 02 ac 04 00 00 00 40 d8 
0.777300 1 798 Rx d 8 ce 04 00 00 00 00 a0 1e 
0.778900 1 3a3 Rx d 8 00 d0 00 00 38 03 fc 01 
0.779700 1 129 Rx d 8 26 28 bb 5f 00 20 ff 3f 
0.780100 1 2f1 Rx d 8 00 92 3c 81 41 00 0a 00 
0.780300 1 221 Rx d 8 60 55 55 05 54 51 51 28 
0.780600 1 272 Rx d 8 09 80 63 00 00 00 00 00 
0.780800 1 382 Rx d 5 47 1b 28 00 00 
0.781400 1 3a2 Rx d 8 d2 29 00 00 22 00 00 00 
0.781600 1 797 Rx d 4 15 0d a0 5d 
0.782100 1 2e1 Rx d 8 10 21 04 00 12 00 20 08 
0.782900 1 263 Rx d 8 01 d0 bf b1 8c c7 54 1f 
0.783100 1 2b3 Rx d 8 c4 22 c5 79 f3 0c 0a 80 
0.783400 1 2a8 Rx d 8 02 11 00 00 06 80 90 d3 
0.783600 1 234 Rx d 8 22 30 02 28 a1 04 a0 5c 
0.783800 1 42a Rx d 8 33 d5 50 b5 51 6d 55 aa 
0.784100 1 719 Rx d 8 0c c0 0f 00 50 00 00 00 
0.784600 1 132 Rx d 6 f8 87 f5 ff 22 40 
0.784900 1 393 Rx d 8 09 80 63 00 00 00 00 00 
0.785300 1 118 Rx d 8 00 6d 32 00 00 48 00 00 
0.785600 1 266 Rx d 8 00 00 01 22 00 00 9f 01 
0.785800 1 257 Rx d 8 79 4f 1f 00 02 a0 0f 01 
