date Thu Aug 27 02:07:23 PM 2026
base hex timestamps absolute
// version 7.0.0
0.000000 1 381 Rx d 8 17 00 00 00 00 00 00 00 
0.000200 1 219 Rx d 7 05 00 6d 6d 6d 6d 00 
0.000500 1 221 Rx d 8 61 05 55 55 01 02 80 b6 
0.000700 1 37d Rx d 8 01 6c 6c 6b 00 00 00 00 
0.001000 1 21d Rx d 8 04 00 35 00 00 00 00 00 
0.001200 1 243 Rx d 8 04 b0 f1 ff fd 7f 68 69 
0.001400 1 25d Rx d 8 36 41 01 2a 04 f0 d8 03 
0.001700 1 2c3 Rx d 8 55 5b a9 b6 02 00 12 a5 
0.001900 1 3dd Rx d 8 15 51 20 53 c0 00 00 00 
0.002000 1 41d Rx d 1 00 
0.002300 1 420 Rx d 8 28 01 40 4b 00 00 00 02 
0.002500 1 719 Rx d 8 03 00 00 00 00 00 00 00 
0.003000 1 545 Rx d 8 01 00 00 00 00 10 60 bb 
0.003500 1 132 Rx d 6 e6 87 f5 ff 20 40 
0.004000 1 261 Rx d 8 12 29 57 02 80 5c a2 08 
0.004300 1 2c1 Rx d 8 50 28 7e 00 3c 0e 03 47 
0.004500 1 677 Rx d 8 02 00 00 00 00 00 00 00 
0.004700 1 118 Rx d 8 fc 69 32 00 00 48 00 00 
0.005000 1 266 Rx d 8 00 00 01 22 00 00 9f 01 
0.005200 1 257 Rx d 8 6f 45 1f 00 02 a0 0f 01 
0.005600 1 1d8 Rx d 8 29 00 00 00 00 00 60 62 
0.005900 1 1e5 Rx d 8 02 ac 04 00 00 00 60 f8 
0.006300 1 2c7 Rx d 8 00 00 00 00 00 00 4c ff 
0.006500 1 2a6 Rx d 8 00 00 6a 18 00 00 00 00 
0.006800 1 2a7 Rx d 8 00 00 00 00 00 70 05 84 
0.007000 1 3a8 Rx d 8 02 00 18 01 00 00 00 80 
0.007300 1 129 Rx d 8 af 27 ea 5f ff 1f ff 3f 
0.007500 1 2f9 Rx d 8 b0 fb 07 28 00 00 00 00 
0.007800 1 3c2 Rx d 8 29 55 00 00 00 00 00 80 
0.008800 1 303 Rx d 8 0a 01 cd 00 2d 00 24 00 
0.009000 1 201 Rx d 8 f0 d1 99 80 22 8b f1 07 
0.010000 1 211 Rx d 6 98 16 71 0d 00 f1 
0.010600 1 3ae Rx d 8 f5 3f 00 08 00 00 e1 1e 
0.010800 1 263 Rx d 8 04 00 00 00 10 04 00 00 
0.011100 1 45a Rx d 8 fd 07 f8 ff 03 00 00 31 
0.011700 1 22a Rx d 4 00 00 c9 15 
0.012000 1 2e1 Rx d 8 02 6c 7f 02 3e 62 00 00 
0.012400 1 789 Rx d 4 55 19 c0 30 
0.013400 1 414 Rx d 8 10 00 00 00 00 20 20 20 
0.013600 1 132 Rx d 6 e0 87 f5 ff 23 40 
0.013800 1 1fa Rx d 3 22 c0 01 
0.014000 1 401 Rx d 8 01 2a 51 80 55 80 50 80 
0.014300 1 3f9 Rx d 8 07 00 00 00 00 00 00 00 
0.014500 1 55a Rx d 8 02 00 00 00 00 00 00 00 
0.014700 1 666 Rx d 4 00 00 a0 00 
0.014900 1 405 Rx d 8 10 00 00 00 00 4c 52 57 
0.015500 1 118 Rx d 8 fd 6a 32 00 00 48 00 00 
0.015800 1 1d8 Rx d 8 29 00 00 00 00 00 80 82 
0.016000 1 266 Rx d 8 00 00 01 22 00 00 9f 01 
0.016300 1 1e5 Rx d 8 02 ac 04 00 00 00 00 98 
0.016500 1 3a1 Rx d 8 e8 4e 0e ca 00 10 a2 80 
0.016700 1 225 Rx d 4 45 55 fa 00 
0.017200 1 129 Rx d 8 78 28 ea 5f ff 1f ff 3f 
0.018000 1 25b Rx d 8 d3 c0 02 05 6a 86 50 35 
0.018500 1 3c8 Rx d 8 01 00 00 00 00 00 00 00 
0.019100 1 43a Rx d 6 08 01 ef be ad de 
0.020000 1 261 Rx d 8 9b 4b 0a 00 00 40 b5 db 
0.020600 1 242 Rx d 4 55 15 86 05 
0.020800 1 243 Rx d 8 00 fc 4f 4c ce 02 41 29 
0.021300 1 339 Rx d 8 04 e1 02 00 00 00 40 0f 
0.022800 1 283 Rx d 6 00 00 00 00 00 00 
0.023000 1 22b Rx d 8 ff ff ff ff ff ff ff ff 
0.023500 1 132 Rx d 6 f1 87 f5 ff 20 40 
0.024000 1 2c1 Rx d 8 21 1b 0d 0a 02 00 00 00 
0.024300 1 2aa Rx d 3 7f c0 eb 
0.024800 1 118 Rx d 8 fe 6b 32 00 00 48 00 00 
0.025000 1 266 Rx d 8 00 00 01 22 00 00 9f 01 
0.025300 1 257 Rx d 8 70 46 1f 00 02 a0 0f 01 
0.025700 1 1d8 Rx d 8 29 00 00 00 00 00 a0 a2 
0.025900 1 1e5 Rx d 8 02 ac 04 00 00 00 20 b8 
0.026100 1 3a2 Rx d 8 01 10 20 00 0b f0 ff 00 
0.027200 1 129 Rx d 8 77 29 e9 5f 00 20 ff 3f 
0.027700 1 360 Rx d 8 08 00 00 00 00 00 04 00 
0.028000 1 340 Rx d 8 00 00 00 00 00 00 00 00 
0.028300 1 1f9 Rx d 8 00 00 00 00 00 00 00 00 
0.028500 1 2e1 Rx d 8 fb 19 6f 39 94 58 09 00 
0.028800 1 3c0 Rx d 8 08 00 00 00 00 00 00 00 
0.030400 1 788 Rx d 8 01 00 00 00 ff a1 d8 12 
0.030700 1 39d Rx d 5 22 59 01 28 00 
0.030900 1 234 Rx d 8 28 e1 03 80 43 00 d4 3e 
0.031200 1 263 Rx d 8 00 d0 e7 89 d4 07 55 1f 
0.031400 1 3ae Rx d 8 f5 3f 00 08 00 00 f0 2d 
0.031700 1 142 Rx d 8 28 00 02 59 18 00 01 00 
0.032000 1 441 Rx d 8 24 85 89 00 32 00 28 f5 
0.032800 1 2d2 Rx d 8 6e 29 a8 4e c4 09 d5 14 
0.033000 1 212 Rx d 8 59 04 00 00 81 ff 77 31 
0.033300 1 23e Rx d 8 f4 01 3a 9d fa fc 6f 71 
0.033500 1 252 Rx d 8 48 23 90 4a 00 fc 0f 00 
0.033700 1 292 Rx d 8 c7 45 27 9e 72 01 00 00 
0.033900 1 132 Rx d 6 f6 87 f4 ff 22 40 
0.034200 1 201 Rx d 8 09 04 18 01 00 00 80 c4 
0.034400 1 273 Rx d 8 81 e1 10 00 c8 00 10 01 
0.034500 1 2f2 Rx d 2 12 01 
0.034800 1 102 Rx d 8 22 b3 88 04 8c 0c 21 08 
0.035000 1 103 Rx d 8 22 b3 88 04 92 2c 21 02 
0.035200 1 119 Rx d 4 00 00 00 00 
0.035400 1 2f3 Rx d 8 0e 0e 0b 00 00 20 00 00 
0.035700 1 118 Rx d 8 ff 6c 32 00 00 48 00 00 
0.035900 1 1d8 Rx d 8 29 00 00 00 00 00 c0 c2 
0.036100 1 261 Rx d 8 ec 02 18 4a 00 40 c4 4a 
0.036400 1 266 Rx d 8 00 00 01 22 00 00 9f 01 
0.036600 1 1e5 Rx d 8 02 ac 04 00 00 00 40 d8 
0.036900 1 288 Rx d 8 03 11 00 40 80 00 61 bf 
0.037100 1 33a Rx d 8 6a 34 b3 5a fd ff 03 45 
0.037300 1 129 Rx d 8 9b 2a ea 5f 00 20 ff 3f 
0.037400 1 35f Rx d 1 00 
0.037600 1 229 Rx d 3 46 00 00 
0.037800 1 381 Rx d 8 18 00 00 00 00 00 00 00 
0.038000 1 249 Rx d 4 83 05 00 00 
0.038200 1 39b Rx d 8 01 0a df e0 b0 44 91 ed 
0.038400 1 3bb Rx d 3 14 0f 14 
0.038600 1 3fd Rx d 8 01 00 02 00 00 08 12 80 
0.038900 1 401 Rx d 8 02 2a 54 80 51 80 56 80 
0.039100 1 241 Rx d 7 28 28 14 0a 0a 45 00 
0.039300 1 42e Rx d 8 00 e0 bf ff fe ef bf ff 
0.039500 1 42f Rx d 7 a7 3f c9 02 fa 00 ff 
0.039800 1 295 Rx d 8 c8 00 ab ff 00 00 00 08 
0.040000 1 545 Rx d 8 02 00 01 00 00 00 70 bd 
0.040300 1 54f Rx d 8 00 00 00 00 00 00 00 00 
0.040800 1 123 Rx d 8 01 00 00 00 00 3f 00 00 
0.041000 1 243 Rx d 8 01 fc 68 00 69 00 7c 7c 
0.041700 1 122 Rx d 8 01 00 00 00 00 3f 00 00 
0.042100 1 439 Rx d 8 02 00 40 00 00 14 00 00 
0.042500 1 798 Rx d 8 42 e3 76 3d 10 01 c0 55 
0.042800 1 31a Rx d 8 60 fc ff 02 00 00 60 da 
0.043000 1 2c4 Rx d 8 02 00 00 d2 00 00 00 00 
0.043300 1 204 Rx d 8 01 00 00 ff 00 00 00 10 
0.043500 1 264 Rx d 6 38 00 00 00 a0 00 
0.043700 1 132 Rx d 6 f4 87 f5 ff 23 40 
0.043900 1 224 Rx d 8 04 08 00 48 19 01 10 08 
0.044200 1 2c1 Rx d 8 02 0d 06 05 00 d0 92 c1 
0.044400 1 2b4 Rx d 6 24 05 9d 0d 06 01 
0.044600 1 2e1 Rx d 8 04 00 00 80 48 44 26 00 
0.044800 1 118 Rx d 8 00 6d 32 00 00 48 00 00 
0.045100 1 677 Rx d 8 03 00 00 00 00 00 00 00 
0.045300 1 266 Rx d 8 00 00 01 22 00 00 9f 01 
0.045600 1 257 Rx d 8 71 47 1f 00 02 a0 0f 01 
0.045800 1 1d8 Rx d 8 29 00 00 00 00 00 e0 e2 
0.046100 1 1e5 Rx d 8 02 ac 04 00 00 00 60 f8 
0.046800 1 3a3 Rx d 8 00 d0 00 00 38 03 fc 01 
0.047200 1 129 Rx d 8 6a 2b ea 5f 00 20 ff 3f 
0.047400 1 797 Rx d 4 15 0d c0 7d 
0.048500 1 2a8 Rx d 8 02 11 00 00 06 80 60 a3 
0.048700 1 272 Rx d 8 09 80 63 00 00 00 00 00 
0.050000 1 2f1 Rx d 8 0d 00 00 00 00 00 00 00 
0.050200 1 221 Rx d 8 60 55 55 05 54 51 91 68 
0.050800 1 263 Rx d 8 01 d0 bf b1 8c c7 54 1f 
0.051100 1 2b3 Rx d 8 02 51 00 00 00 00 00 0e 
0.051300 1 42a Rx d 8 4b d5 5a 35 56 6d 54 aa 
0.051500 1 719 Rx d 8 14 00 00 00 00 00 00 00 
0.051800 1 7aa Rx d 8 09 fc 06 fc 06 01 00 00 
0.052000 1 261 Rx d 8 05 22 f1 c7 9a 42 d0 81 
0.052800 1 393 Rx d 8 09 80 63 00 00 00 00 00 
0.053500 1 3e8 Rx d 8 01 00 00 00 00 00 00 00 
0.053700 1 132 Rx d 6 f5 87 f5 ff 22 40 
0.053900 1 372 Rx d 8 01 21 56 03 40 00 48 01 
0.054200 1 401 Rx d 8 03 2a 54 80 55 80 52 80 
0.054400 1 428 Rx d 7 00 00 10 10 00 00 00 
0.055500 1 118 Rx d 8 01 6e 32 00 00 48 00 00 
0.055800 1 282 Rx d 8 00 00 00 00 e8 23 0b 24 
0.056000 1 1d8 Rx d 8 29 00 00 00 00 00 00 02 
0.056300 1 266 Rx d 8 00 00 01 22 00 00 9f 01 
0.056500 1 1e5 Rx d 8 02 ac 04 00 00 00 00 98 
0.056800 1 40a Rx d 8 09 00 01 00 00 00 60 78 
0.057000 1 3c2 Rx d 8 00 55 55 55 00 00 5a 45 
0.057200 1 129 Rx d 8 39 2c e9 5f 00 20 ff 3f 
0.058100 1 379 Rx d 8 06 00 54 d4 10 49 00 25 
0.058600 1 3a2 Rx d 8 c2 29 00 00 22 00 00 00 
0.058900 1 20c Rx d 8 00 c0 56 1e 00 d0 08 00 
0.059100 1 201 Rx d 8 82 02 00 00 00 00 98 3b 
0.059400 1 2ec Rx d 3 7f c0 2d 
0.060000 1 2e1 Rx d 8 65 80 08 00 1e d4 8f 6a 
0.060800 1 243 Rx d 8 02 ac f1 12 00 5a 00 00 
0.061000 1 3f5 Rx d 8 00 00 c8 08 82 04 00 00 
0.061300 1 45a Rx d 8 a0 53 53 d3 3f 36 00 68 
0.062400 1 113 Rx d 3 01 97 01 
0.062600 1 1f8 Rx d 4 00 00 00 00 
0.062700 1 7f4 Rx d 1 01 
0.062900 1 7ff Rx d 8 09 ef 00 00 08 00 00 00 
0.063200 1 318 Rx d 8 1a 08 1a 06 1b 07 23 a2 
0.063400 1 458 Rx d 7 00 00 00 00 40 00 00 
0.063600 1 132 Rx d 6 e5 87 f5 ff 22 40 
0.064100 1 2c1 Rx d 8 2b 17 13 00 00 00 00 00 
0.064400 1 6a2 Rx d 5 00 00 00 00 00 
0.064800 1 118 Rx d 8 02 6f 32 00 00 48 00 00 
0.065000 1 266 Rx d 8 00 00 01 22 00 00 9f 01 
0.065100 1 139 Rx d 1 00 
0.065400 1 257 Rx d 8 72 48 1f 00 02 a0 0f 01 
0.065600 1 4e3 Rx d 8 04 00 00 00 00 00 00 00 
0.065900 1 1d8 Rx d 8 29 00 00 00 00 00 20 22 
0.066100 1 1e5 Rx d 8 02 ac 04 00 00 00 20 b8 
0.066300 1 3a1 Rx d 8 a9 8d 40 e5 3d 00 b0 08 
0.066600 1 7a8 Rx d 8 01 00 00 00 ff a1 d8 12 
0.067200 1 129 Rx d 8 2b 2d e9 5f 00 20 ff 3f 
0.068000 1 261 Rx d 8 00 10 fb ff d2 4c e0 fe 
0.068300 1 78a Rx d 8 01 00 04 00 ac 04 91 00 
0.069000 1 545 Rx d 8 d0 01 2c b0 96 62 89 78 
0.069300 1 682 Rx d 8 00 00 00 40 05 02 e0 07 
0.069700 1 289 Rx d 8 a6 02 01 c0 a5 00 3d 0f 
0.070500 1 39d Rx d 5 23 5a 01 28 00 
0.070800 1 343 Rx d 8 00 92 5c 2e 97 00 00 00 
0.071100 1 263 Rx d 8 02 00 00 00 00 00 00 00 
0.071300 1 3ae Rx d 8 f5 3f 00 08 00 00 00 3d 
0.071500 1 228 Rx d 8 03 11 00 40 80 00 61 5f 
0.071900 1 2d1 Rx d 2 7f 01 
0.072200 1 37a Rx d 8 02 00 7d 0f 2e 00 00 00 
0.072400 1 381 Rx d 8 d9 12 00 3b 00 1e 00 00 
0.072800 1 22b Rx d 8 ff ff ff ff ff ff ff ff 
0.073100 1 23e Rx d 8 f4 01 3a 9d fa fc 7f 81 
0.073500 1 132 Rx d 6 03 88 f5 ff 22 40 
0.073700 1 401 Rx d 8 04 2a 56 80 53 80 4b 80 
0.074500 1 726 Rx d 3 03 00 00 
0.075500 1 118 Rx d 8 f3 60 32 00 00 48 00 00 
0.075800 1 1d8 Rx d 8 29 00 00 00 00 00 40 42 
0.076000 1 266 Rx d 8 00 00 01 22 00 00 9f 01 
0.076300 1 1e5 Rx d 8 02 ac 04 00 00 00 40 d8 
0.076500 1 2e1 Rx d 8 10 21 04 00 12 00 20 08 
0.076700 1 4e2 Rx d 8 04 1c 20 02 0c c0 00 00 
0.077000 1 3c3 Rx d 8 55 55 55 01 00 80 43 00 
0.077200 1 129 Rx d 8 c7 2e ea 5f 00 20 ff 3f 
0.077500 1 7b8 Rx d 8 92 bd 11 b8 38 05 c0 2f 
0.079100 1 359 Rx d 8 07 00 00 00 00 00 00 00 
0.080700 1 234 Rx d 8 22 30 02 28 a1 04 e0 9c 
0.081000 1 243 Rx d 8 03 00 00 00 43 62 1e 00 
0.081600 1 142 Rx d 8 01 00 40 0a c0 1b 00 00 
0.082000 1 441 Rx d 8 25 00 b6 c3 58 00 2d 8c 
0.082800 1 553 Rx d 8 00 00 00 00 00 00 d0 28 
0.083000 1 421 Rx d 7 00 14 00 00 00 d0 48 
0.083200 1 409 Rx d 1 00 
0.083400 1 419 Rx d 1 00 
0.083600 1 132 Rx d 6 ea 87 f5 ff 25 40 
0.083800 1 294 Rx d 8 14 c1 40 00 00 00 00 00 
0.084000 1 2e8 Rx d 8 02 11 00 00 06 80 30 b3 
0.084300 1 201 Rx d 8 83 02 00 00 00 00 b8 3b 
0.084500 1 261 Rx d 8 31 00 08 00 70 49 f8 e0 
0.084800 1 2c1 Rx d 8 04 00 10 0e 0a 11 08 14 
0.085000 1 118 Rx d 8 f4 61 32 00 00 48 00 00 
0.085100 1 20e Rx d 3 16 06 00 
0.085400 1 266 Rx d 8 00 00 01 22 00 00 9f 01 
0.085600 1 108 Rx d 8 21 08 00 02 00 01 00 0d 
0.085900 1 257 Rx d 8 73 49 1f 00 02 a0 0f 01 
0.086100 1 126 Rx d 5 01 b0 1d 40 35 
0.086300 1 1d8 Rx d 8 29 00 00 00 00 00 60 62 
0.086500 1 128 Rx d 5 80 02 e4 0a 02 
0.086700 1 1e5 Rx d 8 02 ac 04 00 00 00 60 f8 
0.087000 1 1d6 Rx d 8 00 08 04 00 4a 4c 14 05 
0.087200 1 129 Rx d 8 05 2f e9 5f 00 20 ff 3f 
0.087400 1 268 Rx d 5 01 01 f8 00 c0 
0.087600 1 249 Rx d 4 4c 06 00 00 
0.087800 1 279 Rx d 8 4d 08 0d 01 74 05 62 02 
0.088000 1 3fd Rx d 8 02 00 00 00 00 00 00 90 
0.088200 1 2b6 Rx d 3 00 03 00 
0.088400 1 395 Rx d 8 09 0f 11 4c 0b 00 08 7d 
0.088700 1 397 Rx d 8 00 00 00 d8 1d 00 00 00 
0.088900 1 383 Rx d 8 bd 18 3d 00 4b 21 24 54 
0.089100 1 400 Rx d 7 00 e0 fb be ef fb 00 
0.089400 1 552 Rx d 8 00 00 00 00 00 00 d0 27 
0.089600 1 448 Rx d 7 00 00 10 10 00 00 00 
0.089800 1 677 Rx d 8 04 00 00 00 00 00 00 00 
0.090100 1 718 Rx d 7 02 00 00 00 00 00 00 
0.090200 1 724 Rx d 3 08 00 00 
0.090700 1 295 Rx d 8 2b 48 00 00 00 00 00 09 
0.090900 1 263 Rx d 8 03 00 00 00 00 00 00 24 
0.091100 1 422 Rx d 6 70 00 10 00 00 00 
0.091700 1 3a2 Rx d 8 60 85 f2 b7 1c 80 41 72 
0.092100 1 2e1 Rx d 8 39 8d 55 af 1f 28 00 00 
0.093200 1 39a Rx d 8 fc fd fd fd fd fd fd 01 
0.093500 1 132 Rx d 6 f6 87 f5 ff 23 40 
0.093800 1 401 Rx d 8 05 2a 4c 80 4f 80 50 80 
0.094800 1 423 Rx d 7 00 00 00 00 08 00 00 
0.095000 1 2a1 Rx d 6 00 00 98 3a 00 00 
0.095500 1 118 Rx d 8 f5 62 32 00 00 48 00 00 
0.095800 1 7d5 Rx d 8 2b 00 00 00 00 00 00 00 
0.096000 1 1d8 Rx d 8 29 00 00 00 00 00 80 82 
0.096300 1 7d5 Rx d 8 2c 00 3f 00 00 00 00 00 
0.096500 1 266 Rx d 8 00 00 01 22 00 00 9f 01 
0.096800 1 7d5 Rx d 8 32 00 00 00 00 00 00 00 
0.097000 1 1e5 Rx d 8 02 ac 04 00 00 00 00 98 
0.097200 1 129 Rx d 8 d3 20 ea 5f 00 20 ff 3f 
0.097500 1 7d7 Rx d 8 32 01 00 00 00 00 00 00 
0.097700 1 2c2 Rx d 8 55 63 a9 b6 02 00 1c a5 
0.100000 1 261 Rx d 8 12 29 57 02 80 5c 02 68 
0.100200 1 219 Rx d 7 00 80 4a 4a 97 98 04 
0.100500 1 221 Rx d 8 61 05 55 55 01 02 a0 d6 
0.100600 1 41d Rx d 1 00 
0.100800 1 420 Rx d 8 28 01 40 4b 00 00 80 02 
0.101100 1 21d Rx d 8 04 00 35 00 00 00 00 00 
0.101300 1 243 Rx d 8 04 b0 f1 ff fd 7f 68 69 
0.101500 1 25d Rx d 8 36 41 01 2a 04 f0 d7 03 
0.101800 1 2c3 Rx d 8 00 00 c0 4b 01 00 80 cb 
0.102000 1 719 Rx d 8 15 00 00 00 00 00 00 00 
0.102300 1 545 Rx d 8 01 00 00 00 00 10 90 eb 
0.102500 1 75d Rx d 8 05 00 00 00 00 00 88 04 
0.102800 1 31e Rx d 8 00 00 00 00 00 00 00 00 
0.103500 1 132 Rx d 6 f1 87 f6 ff 23 40 
0.104100 1 2c1 Rx d 8 50 28 7e 00 3c 0e 03 47 
0.104400 1 6c8 Rx d 8 a4 62 00 13 04 00 00 00 
0.104700 1 118 Rx d 8 f6 63 32 00 00 48 00 00 
0.105000 1 266 Rx d 8 00 00 01 22 00 00 9f 01 
0.105200 1 257 Rx d 8 74 4a 1f 00 02 a0 0f 01 
0.105600 1 1d8 Rx d 8 29 00 00 00 00 00 a0 a2 
0.105900 1 1e5 Rx d 8 02 ac 04 00 00 00 20 b8 
0.106300 1 2c7 Rx d 8 00 00 00 00 00 00 4c ff 
0.106500 1 2a6 Rx d 8 00 00 6a 18 00 00 00 00 
0.106800 1 2a7 Rx d 8 00 00 00 00 00 70 05 84 
0.107000 1 2e2 Rx d 8 00 00 00 7a 02 0b 00 40 
0.107300 1 129 Rx d 8 f7 21 e9 5f 00 20 ff 3f 
0.107500 1 2f9 Rx d 8 b0 fb 07 01 9f a0 6f b2 
0.107700 1 3c2 Rx d 8 29 55 00 00 00 00 00 80 
0.108100 1 2e1 Rx d 8 02 6c 7f 02 3e 62 00 00 
0.108300 1 381 Rx d 8 1a 16 16 70 00 00 00 00 
0.108500 1 709 Rx d 8 19 12 12 12 1a 02 00 00 
0.108800 1 2e3 Rx d 7 03 00 00 91 02 0b 00 
0.109000 1 201 Rx d 8 f0 d1 99 80 22 8b f1 07 
0.110300 1 211 Rx d 6 99 17 71 0d 00 f1 
0.110700 1 39d Rx d 5 24 5b 01 28 00 
0.111000 1 263 Rx d 8 04 00 00 00 10 04 00 00 
0.111200 1 2b3 Rx d 8 03 46 46 11 00 00 80 3c 
0.111500 1 45a Rx d 8 fd 07 f8 ff 03 00 00 31 
0.111600 1 22a Rx d 4 00 00 c9 15 
0.111900 1 3ae Rx d 8 f6 3f 00 08 00 00 10 4e 
0.112100 1 3f1 Rx d 8 01 00 00 00 00 00 00 00 
0.112400 1 789 Rx d 4 55 19 d0 40 
0.113200 1 23e Rx d 8 f4 01 3a 9d fa fc 8f 91 
0.113500 1 132 Rx d 6 f3 87 f5 ff 22 40 
0.113700 1 1fa Rx d 3 22 c0 01 
0.113900 1 372 Rx d 8 02 89 40 3f 80 01 08 5b 
0.114100 1 401 Rx d 8 06 2a 50 80 50 80 53 80 
0.114400 1 3f9 Rx d 8 08 00 00 00 00 00 00 00 
0.115500 1 118 Rx d 8 f7 64 32 00 00 48 00 00 
0.115800 1 1d8 Rx d 8 29 00 00 00 00 00 c0 c2 
0.116000 1 266 Rx d 8 00 00 01 22 00 00 9f 01 
0.116200 1 261 Rx d 8 9b 4b 0a 00 00 40 15 3b 
0.116500 1 1e5 Rx d 8 02 ac 04 00 00 00 40 d8 
0.116700 1 3a1 Rx d 8 e8 4e 0e ca 00 10 c2 a0 
0.116900 1 225 Rx d 4 45 55 fa 00 
0.117200 1 129 Rx d 8 be 22 e9 5f 00 20 ff 3f 
0.118000 1 25b Rx d 8 d3 c0 02 05 6a 86 60 45 
0.118500 1 3c8 Rx d 8 02 00 00 00 00 00 00 00 
0.120600 1 242 Rx d 4 55 15 86 05 
0.120800 1 243 Rx d 8 00 fc 4f 4c ce 02 41 29 
0.121300 1 339 Rx d 8 04 e1 02 00 00 00 40 0f 
0.122800 1 283 Rx d 6 00 00 00 00 00 00 
0.123000 1 22b Rx d 8 ff ff ff ff ff ff ff ff 
0.123500 1 132 Rx d 6 e4 87 f5 ff 22 40 
0.124000 1 2e1 Rx d 8 fb 19 6f 39 94 64 09 00 
0.124300 1 2c1 Rx d 8 21 1b 0d 0a 02 00 00 00 
0.124400 1 2aa Rx d 3 7f d0 fb 
0.124700 1 677 Rx d 8 00 00 00 00 00 00 00 00 
0.124900 1 118 Rx d 8 f8 65 32 00 00 48 00 00 
0.125200 1 266 Rx d 8 00 00 01 22 00 00 9f 01 
0.125400 1 3a2 Rx d 8 01 10 20 00 0b f0 ff 00 
0.125600 1 257 Rx d 8 75 4b 1f 00 02 a0 0f 01 
0.125900 1 1d8 Rx d 8 29 00 00 00 00 00 e0 e2 
0.126100 1 1e5 Rx d 8 02 ac 04 00 00 00 60 f8 
0.127200 1 129 Rx d 8 9a 23 ea 5f 00 20 ff 3f 
0.127700 1 360 Rx d 8 09 00 00 00 00 00 00 00 
0.128100 1 340 Rx d 8 01 00 00 00 00 00 00 00 
0.128300 1 1f9 Rx d 8 00 00 00 00 00 00 00 00 
0.128800 1 3c0 Rx d 8 09 00 00 00 00 00 00 00 
0.130300 1 3ae Rx d 8 f6 3f 00 08 00 00 21 5f 
0.130600 1 788 Rx d 8 02 40 cf 07 4d 03 00 00 
0.130800 1 212 Rx d 8 59 04 00 00 81 ff 77 31 
0.131000 1 234 Rx d 8 29 e1 03 80 43 00 f4 5f 
0.131300 1 252 Rx d 8 48 23 90 4a 00 fc 0f 00 
0.131500 1 263 Rx d 8 00 d0 e7 89 d4 07 55 1f 
0.131800 1 142 Rx d 8 28 00 02 59 18 00 01 00 
0.132000 1 292 Rx d 8 c7 45 27 9e 72 01 00 00 
0.132200 1 261 Rx d 8 ec 02 18 4a 00 40 24 aa 
0.132400 1 2d2 Rx d 8 6e 29 a8 4e c4 09 d5 14 
0.132600 1 2f2 Rx d 2 12 01 
0.132800 1 312 Rx d 8 70 e4 66 44 5c 39 16 14 
0.133000 1 392 Rx d 8 00 10 00 00 00 00 00 00 
0.133300 1 3b2 Rx d 8 0a 91 1f 85 e0 e9 07 5d 
0.133500 1 441 Rx d 8 24 85 89 00 32 00 30 fd 
0.133700 1 712 Rx d 8 00 2a 1c 0c 2b 0c 13 0c 
0.133900 1 132 Rx d 6 ec 87 f5 ff 22 40 
0.134200 1 201 Rx d 8 09 04 18 01 00 00 80 c4 
0.134400 1 238 Rx d 8 b0 2b 9c d0 1f 00 66 06 
0.134600 1 401 Rx d 8 07 2a 4d 80 53 80 53 80 
0.134900 1 102 Rx d 8 22 b3 88 04 8a 0c 21 08 
0.135100 1 103 Rx d 8 22 b3 88 04 92 2c 21 02 
0.135300 1 119 Rx d 4 00 00 00 00 
0.135500 1 545 Rx d 8 02 00 01 00 00 00 a0 ed 
0.135800 1 118 Rx d 8 f9 66 32 00 00 48 00 00 
0.136000 1 1d8 Rx d 8 29 00 00 00 00 00 00 02 
0.136200 1 266 Rx d 8 00 00 01 22 00 00 9f 01 
0.136500 1 1e5 Rx d 8 02 ac 04 00 00 00 00 98 
0.136700 1 288 Rx d 8 03 11 00 40 80 00 71 cf 
0.137000 1 61d Rx d 8 0e 14 8a 34 ac 36 16 08 
0.137200 1 7aa Rx d 8 0a 74 06 74 06 00 5b 00 
0.137400 1 129 Rx d 8 2f 24 e9 5f 00 20 ff 3f 
0.137600 1 229 Rx d 3 44 01 00 
0.137800 1 249 Rx d 4 5e 07 00 00 
0.138000 1 54f Rx d 8 00 00 00 00 00 00 00 00 
0.138300 1 3ae Rx d 8 f5 3f 00 08 00 00 31 6e 
0.139000 1 241 Rx d 7 28 28 14 0a 0a 45 00 
0.140000 1 2e1 Rx d 8 04 00 00 80 48 44 26 00 
0.140800 1 123 Rx d 8 00 00 12 92 d2 00 00 80 
0.141100 1 243 Rx d 8 01 fc 68 00 69 00 7c 7c 
0.141600 1 295 Rx d 8 96 00 a1 ff 00 00 00 0a 
0.141800 1 122 Rx d 8 00 00 12 92 12 00 00 00 
0.142100 1 439 Rx d 8 02 00 40 00 00 14 00 00 
0.142500 1 798 Rx d 8 ab 33 4d 6a 9e 09 d0 b8 
0.143000 1 2c4 Rx d 8 23 01 0e 00 01 10 80 00 
0.143200 1 204 Rx d 8 01 00 00 ff 00 00 00 10 
0.143400 1 264 Rx d 6 38 00 00 00 a0 00 
0.143600 1 132 Rx d 6 df 87 f5 ff 20 40 
0.143900 1 224 Rx d 8 04 08 00 48 19 01 10 08 
0.144100 1 2c1 Rx d 8 02 0d 06 05 00 d0 92 c1 
0.144300 1 381 Rx d 8 a0 c2 e5 92 b9 5c b2 10 
0.144500 1 2b4 Rx d 6 26 05 9d 0d 0e 01 
0.144800 1 118 Rx d 8 fa 67 32 00 00 48 00 00 
0.145000 1 266 Rx d 8 00 00 01 22 00 00 9f 01 
0.145300 1 257 Rx d 8 76 4c 1f 00 02 a0 0f 01 
0.145700 1 1d8 Rx d 8 29 00 00 00 00 00 20 22 
0.145900 1 1e5 Rx d 8 02 ac 04 00 00 00 20 b8 
0.146800 1 3a3 Rx d 8 00 d0 00 00 38 03 fc 01 
0.147200 1 129 Rx d 8 38 25 e9 5f 00 20 ff 3f 
0.147400 1 797 Rx d 4 15 0d d0 8d 
0.148000 1 261 Rx d 8 05 22 f1 c7 9a 42 30 e1 
0.148500 1 2a8 Rx d 8 02 11 00 00 06 80 70 b3 
0.148700 1 272 Rx d 8 06 00 f1 88 07 48 06 08 
0.150000 1 2f1 Rx d 8 2e 00 80 20 c4 00 18 04 
0.150200 1 221 Rx d 8 60 55 55 05 54 51 b1 88 
0.150500 1 39d Rx d 5 25 5c 01 28 00 
0.150800 1 263 Rx d 8 01 d0 bf b1 8c c7 54 1f 
0.151200 1 719 Rx d 8 16 00 00 00 00 00 00 00 
0.152800 1 393 Rx d 8 06 00 f0 80 07 48 06 08 
0.153000 1 23e Rx d 8 f4 01 3a 9d fa fc 9f a1 
0.153500 1 3e8 Rx d 8 02 00 00 00 00 00 00 00 
0.153700 1 132 Rx d 6 f0 87 f4 ff 22 40 
0.153900 1 401 Rx d 8 08 2a 54 80 4e 80 4e 80 
0.154400 1 428 Rx d 7 00 00 10 10 00 00 00 
0.155500 1 118 Rx d 8 fb 68 32 00 00 48 00 00 
0.155800 1 282 Rx d 8 00 00 00 00 e8 23 0b 24 
0.156000 1 1d8 Rx d 8 29 00 00 00 00 00 40 42 
0.156300 1 266 Rx d 8 00 00 01 22 00 00 9f 01 
0.156500 1 2e1 Rx d 8 65 80 08 00 1e d4 8f 6a 
0.156700 1 1e5 Rx d 8 02 ac 04 00 00 00 40 d8 
0.157000 1 3c2 Rx d 8 00 55 55 55 00 00 5a 45 
0.157200 1 3e2 Rx d 7 00 00 80 1a 00 c0 04 
0.157400 1 129 Rx d 8 e2 26 e9 5f 00 20 ff 3f 
0.157700 1 3a2 Rx d 8 b2 29 00 00 22 00 00 00 
0.158200 1 379 Rx d 8 07 a0 4c 09 00 20 16 06 
0.158800 1 20c Rx d 8 00 c0 56 1e 00 d0 08 00 
0.159100 1 201 Rx d 8 82 02 00 00 00 00 98 3b 
0.159400 1 2ec Rx d 3 7f d0 3d 
0.160800 1 243 Rx d 8 02 ac f1 12 00 5a 00 00 
0.161000 1 3f5 Rx d 8 00 00 c8 08 82 04 00 00 
0.161300 1 23a Rx d 8 50 26 ed 21 08 00 00 00 
0.161500 1 45a Rx d 8 a0 53 53 d3 3f 36 00 68 
0.162400 1 113 Rx d 3 01 97 01 
0.162500 1 7f4 Rx d 1 01 
0.162700 1 1f8 Rx d 4 00 00 00 00 
0.162900 1 318 Rx d 8 1a 08 1a 06 1b 07 25 a4 
0.163200 1 458 Rx d 7 00 00 00 00 40 00 00 
0.163400 1 3ae Rx d 8 f6 3f 00 08 00 00 41 7f 
0.163600 1 132 Rx d 6 ec 87 f5 ff 23 40 
0.163800 1 7ff Rx d 8 01 a5 4e 43 42 4c 7b 00 
0.164100 1 261 Rx d 8 00 10 fb ff d2 4c 40 5e 
0.164300 1 2c1 Rx d 8 2b 17 13 00 00 00 00 00 
0.164600 1 677 Rx d 8 01 00 00 00 00 00 00 00 
0.164800 1 118 Rx d 8 fc 69 32 00 00 48 00 00 
0.165000 1 4e3 Rx d 8 cd 04 6b 51 00 0a 00 00 
0.165100 1 139 Rx d 1 00 
0.165400 1 266 Rx d 8 00 00 01 22 00 00 9f 01 
0.165600 1 6a2 Rx d 5 00 00 00 00 00 
0.165800 1 257 Rx d 8 77 4d 1f 00 02 a0 0f 01 
0.166100 1 1d8 Rx d 8 29 00 00 00 00 00 60 62 
0.166300 1 1e5 Rx d 8 02 ac 04 00 00 00 60 f8 
0.166500 1 3a1 Rx d 8 a9 8d 40 01 3e 00 d0 45 
0.166800 1 7a8 Rx d 8 02 40 d1 97 4c 07 00 00 
0.167000 1 78a Rx d 8 01 00 05 00 9d 0d 07 00 
0.167300 1 129 Rx d 8 f5 27 e9 5f 00 20 ff 3f 
0.168000 1 545 Rx d 8 20 02 2c f0 96 62 b9 39 
0.169000 1 682 Rx d 8 00 00 00 40 05 02 f0 17 
0.169700 1 289 Rx d 8 a6 02 01 00 99 00 3d 0f 
0.170500 1 717 Rx d 7 01 fd ff 54 00 6f ff 
0.170800 1 343 Rx d 8 00 92 58 be 96 00 00 00 
0.171100 1 263 Rx d 8 02 00 00 00 00 00 00 00 
0.171300 1 2b3 Rx d 8 c4 22 45 7a f4 0e 0c 80 
0.171500 1 228 Rx d 8 03 11 00 40 80 00 71 6f 
0.171900 1 2d1 Rx d 2 7f 01 
0.172200 1 2e1 Rx d 8 10 21 04 00 12 00 20 08 
0.172400 1 37a Rx d 8 03 00 00 00 00 00 00 00 
0.172800 1 22b Rx d 8 ff ff ff ff ff ff ff ff 
0.173500 1 132 Rx d 6 ee 87 f5 ff 22 40 
0.173800 1 372 Rx d 8 03 10 0b 50 00 01 00 00 
0.174000 1 401 Rx d 8 09 2a 50 80 50 80 51 80 
0.174700 1 727 Rx d 2 00 00 
0.175500 1 118 Rx d 8 fd 6a 32 00 00 48 00 00 
0.175800 1 1d8 Rx d 8 29 00 00 00 00 00 80 82 
0.176000 1 266 Rx d 8 00 00 01 22 00 00 9f 01 
0.176200 1 1e5 Rx d 8 02 ac 04 00 00 00 00 98 
0.176700 1 4e2 Rx d 8 ad 03 66 41 02 00 00 00 
0.176900 1 3c3 Rx d 8 00 00 00 00 00 45 00 00 
0.177100 1 3e3 Rx d 4 00 00 00 00 
0.177300 1 129 Rx d 8 22 28 e9 5f 00 20 ff 3f 
0.177600 1 7b8 Rx d 8 bb 4d 36 c3 19 07 d0 0b 
0.179100 1 359 Rx d 8 08 04 00 00 c0 3c 37 33 
0.180000 1 261 Rx d 8 31 00 07 00 70 49 58 3f 
0.180300 1 381 Rx d 8 01 00 04 20 9b 9a 9c 04 
0.180700 1 234 Rx d 8 23 30 02 28 a1 04 00 bd 
0.180900 1 243 Rx d 8 03 00 00 00 43 62 1e 00 
0.181600 1 142 Rx d 8 01 00 40 0a c0 1b 00 00 
0.182000 1 441 Rx d 8 25 00 b6 c3 58 00 35 94 
0.182800 1 553 Rx d 8 00 00 00 00 00 00 e0 38 
0.183000 1 421 Rx d 7 00 14 00 00 00 d0 48 
0.183200 1 409 Rx d 1 00 
0.183400 1 419 Rx d 1 00 
0.183600 1 132 Rx d 6 e3 87 f5 ff 22 40 
0.183800 1 2e8 Rx d 8 02 11 00 00 06 80 40 c3 
0.184000 1 552 Rx d 8 00 00 00 00 00 00 e0 37 
0.184200 1 1bb Rx d 1 02 
0.184400 1 201 Rx d 8 83 02 00 00 00 00 b8 3b 
0.184600 1 284 Rx d 8 30 00 00 00 40 08 10 0e 
0.184900 1 118 Rx d 8 fe 6b 32 00 00 48 00 00 
0.185000 1 20e Rx d 3 17 07 00 
0.185300 1 266 Rx d 8 00 00 01 22 00 00 9f 01 
0.185500 1 2bf Rx d 7 0a 00 00 00 00 10 01 
0.185700 1 257 Rx d 8 78 4e 1f 00 02 a0 0f 01 
0.186000 1 108 Rx d 8 22 09 00 02 00 01 00 0d 
0.186200 1 1d8 Rx d 8 29 00 00 00 00 00 a0 a2 
0.186400 1 126 Rx d 5 01 b0 1d 48 3d 
0.186600 1 1e5 Rx d 8 02 ac 04 00 00 00 20 b8 
0.186800 1 128 Rx d 5 80 02 e4 0a 02 
0.187100 1 2c1 Rx d 8 04 00 10 0e 0a 11 08 14 
0.187300 1 129 Rx d 8 44 29 ea 5f 00 20 ff 3f 
0.187500 1 1d6 Rx d 8 00 08 04 00 4a 4c 1a 05 
0.187700 1 249 Rx d 4 3f 08 00 00 
0.187900 1 268 Rx d 5 01 01 f8 00 c0 
0.188100 1 279 Rx d 8 4e 09 0d 01 74 05 62 02 
0.188400 1 2e1 Rx d 8 39 8d 55 af 1f 28 00 00 
0.188500 1 2b6 Rx d 3 00 03 00 
0.188600 1 390 Rx d 2 17 06 
0.188900 1 383 Rx d 8 bd 18 3d 00 4b 21 24 54 
0.189100 1 395 Rx d 8 09 0f 11 4c 0b 00 08 7d 
0.189400 1 397 Rx d 8 00 00 00 d8 1d 00 00 00 
0.189600 1 400 Rx d 7 00 e0 fb be ef fb 00 
0.189800 1 448 Rx d 7 00 00 10 10 00 00 00 
0.190000 1 453 Rx d 4 00 00 00 00 
0.190600 1 422 Rx d 6 70 00 10 00 00 00 
0.190900 1 263 Rx d 8 03 00 00 00 00 00 00 24 
0.191100 1 3a2 Rx d 8 60 85 72 b9 1c 80 41 72 
0.191900 1 39d Rx d 5 26 5d 01 28 00 
0.192500 1 295 Rx d 8 c8 00 ab ff 00 00 00 0b 
0.193200 1 39a Rx d 8 fd fd fd fd fd 01 00 00 
0.193500 1 132 Rx d 6 f1 87 f5 ff 24 40 
0.193800 1 23e Rx d 8 f4 01 3a 9d fa fc af b1 
0.194000 1 320 Rx d 8 01 00 00 08 00 00 00 00 
0.194300 1 401 Rx d 8 0a 2a 50 80 4f 80 50 80 
0.194500 1 3ae Rx d 8 f5 3f 00 08 00 00 51 8e 
0.194800 1 423 Rx d 7 00 00 00 00 08 00 00 
0.195000 1 2a1 Rx d 6 00 00 98 3a 00 00 
0.195500 1 118 Rx d 8 ff 6c 32 00 00 48 00 00 
0.195800 1 7d5 Rx d 8 2b 00 00 00 00 00 00 00 
0.196000 1 1d8 Rx d 8 29 00 00 00 00 00 c0 c2 
0.196200 1 261 Rx d 8 12 29 57 02 80 5c 62 c8 
0.196500 1 266 Rx d 8 00 00 01 22 00 00 9f 01 
0.196700 1 7d5 Rx d 8 2c 00 3f 00 00 00 00 00 
0.197000 1 1e5 Rx d 8 02 ac 04 00 00 00 40 d8 
0.197200 1 129 Rx d 8 9b 2a ea 5f 00 20 ff 3f 
0.197500 1 7d5 Rx d 8 32 00 00 00 00 00 00 00 
0.197700 1 7d7 Rx d 8 32 01 00 00 00 00 00 00 
0.197900 1 2c2 Rx d 8 20 40 80 20 01 00 80 cb 
0.200000 1 31e Rx d 8 01 00 00 00 00 00 00 00 
0.200200 1 219 Rx d 7 01 80 4a 49 97 99 04 
0.200500 1 21d Rx d 8 04 00 35 00 00 00 00 00 
0.200700 1 221 Rx d 8 61 05 55 55 01 02 c0 f6 
0.200900 1 243 Rx d 8 04 b0 f1 ff fd 7f 68 69 
0.201200 1 25d Rx d 8 36 41 01 2a 04 f0 d8 03 
0.201400 1 2c3 Rx d 8 55 5b a9 b6 02 00 12 a5 
0.201700 1 34a Rx d 8 01 07 00 00 00 00 00 60 
0.201800 1 41d Rx d 1 00 
0.202000 1 420 Rx d 8 28 01 40 4b 00 00 00 03 
0.202300 1 43b Rx d 8 02 7f 04 ff 00 00 00 00 
0.202500 1 545 Rx d 8 01 00 00 00 00 10 c0 1b 
0.202800 1 719 Rx d 8 17 00 00 00 00 00 00 00 
0.203500 1 132 Rx d 6 f5 87 f5 ff 23 40 
0.204100 1 2e1 Rx d 8 02 6c 7f 02 3e 62 00 00 
0.204300 1 2c1 Rx d 8 50 28 7e 00 3c 0e 03 47 
0.204500 1 677 Rx d 8 02 00 00 00 00 00 00 00 
0.204800 1 118 Rx d 8 00 6d 32 00 00 48 00 00 
0.205000 1 266 Rx d 8 00 00 01 22 00 00 9f 01 
0.205300 1 257 Rx d 8 79 4f 1f 00 02 a0 0f 01 
0.205700 1 1d8 Rx d 8 29 00 00 00 00 00 e0 e2 
0.205900 1 1e5 Rx d 8 02 ac 04 00 00 00 60 f8 
0.206300 1 2c7 Rx d 8 00 00 00 00 00 00 4c ff 
0.206500 1 2a6 Rx d 8 00 00 6a 18 00 00 00 00 
0.206800 1 2a7 Rx d 8 00 00 00 00 00 70 05 84 
0.207000 1 366 Rx d 8 0b 00 01 01 01 00 00 00 
0.207300 1 129 Rx d 8 59 2b e9 5f 00 20 ff 3f 
0.207500 1 2f9 Rx d 8 b0 fb 07 08 00 00 00 00 
0.207800 1 3a8 Rx d 8 03 00 00 00 00 00 00 00 
0.208000 1 3c2 Rx d 8 29 55 00 00 00 00 00 80 
0.209000 1 201 Rx d 8 f0 e1 99 80 22 8b f1 07 
0.210000 1 211 Rx d 6 9a 18 71 0d 00 f1 
0.210800 1 263 Rx d 8 04 00 00 00 10 04 00 00 
0.211100 1 45a Rx d 8 fd 07 f8 ff 03 00 00 31 
0.211600 1 22a Rx d 4 00 00 c9 15 
0.211900 1 7aa Rx d 8 0b 4b 00 29 3d 00 33 00 
0.212200 1 261 Rx d 8 9b 4b 0a 00 00 40 75 9b 
0.212400 1 789 Rx d 4 55 19 e0 50 
0.213500 1 132 Rx d 6 ec 87 f5 ff 22 40 
0.213700 1 1fa Rx d 3 22 c0 01 
0.213900 1 401 Rx d 8 0b 2a 50 80 50 80 4f 80 
0.214200 1 3f9 Rx d 8 00 00 00 00 00 00 00 00 
0.215500 1 118 Rx d 8 01 6e 32 00 00 48 00 00 
0.215800 1 1d8 Rx d 8 29 00 00 00 00 00 00 02 
0.216000 1 266 Rx d 8 00 00 01 22 00 00 9f 01 
0.216200 1 1e5 Rx d 8 02 ac 04 00 00 00 00 98 
0.216500 1 381 Rx d 8 22 62 f6 f7 0d 10 01 00 
0.216600 1 2d7 Rx d 4 a2 9c 00 03 
0.216800 1 225 Rx d 4 45 55 fa 00 
0.217000 1 3a1 Rx d 8 e8 4e 0e ca 00 0c e2 bc 
0.217300 1 129 Rx d 8 39 2c e9 5f 00 20 ff 3f 
0.218500 1 3c8 Rx d 8 03 00 00 00 00 00 00 00 
0.218700 1 25b Rx d 8 d3 c0 02 05 6a 86 70 55 
0.220000 1 2e1 Rx d 8 fb 19 6d 39 94 5c 09 00 
0.220600 1 242 Rx d 4 55 15 86 05 
0.220800 1 243 Rx d 8 00 fc 4f 4c ce 02 41 29 
0.221300 1 339 Rx d 8 04 e1 02 00 00 00 40 0f 
0.222800 1 283 Rx d 6 00 00 00 00 00 00 
0.223000 1 22b Rx d 8 ff ff ff ff ff ff ff ff 
0.223500 1 132 Rx d 6 ed 87 f4 ff 22 40 
0.223800 1 3a2 Rx d 8 01 10 20 00 09 f0 ff 00 
0.224100 1 2c1 Rx d 8 21 1b 0d 0a 02 00 00 00 
0.224300 1 2aa Rx d 3 7f e0 0b 
0.224800 1 118 Rx d 8 02 6f 32 00 00 48 00 00 
0.225000 1 266 Rx d 8 00 00 01 22 00 00 9f 01 
0.225300 1 257 Rx d 8 6a 40 1f 00 02 a0 0f 01 
0.225700 1 1d8 Rx d 8 29 00 00 00 00 00 20 22 
0.225900 1 1e5 Rx d 8 02 ac 04 00 00 00 20 b8 
0.227200 1 129 Rx d 8 18 2d ea 5f 00 20 ff 3f 
0.227700 1 360 Rx d 8 0a 00 00 00 00 00 00 00 
0.228100 1 340 Rx d 8 02 00 00 00 00 00 00 00 
0.228300 1 1f9 Rx d 8 00 00 00 00 00 00 00 00 
0.228500 1 261 Rx d 8 ec 02 18 4a 00 40 84 0a 
0.228900 1 3c0 Rx d 8 0a 00 10 00 00 00 00 00 
0.230400 1 788 Rx d 8 b8 c4 81 63 00 00 8a 00 
0.230700 1 2d2 Rx d 8 6e 29 a8 4e c4 09 d5 14 
0.230900 1 212 Rx d 8 59 04 00 00 81 ff 77 31 
0.231200 1 234 Rx d 8 29 e1 03 80 43 00 14 7f 
0.231400 1 252 Rx d 8 48 23 90 4a 00 fc 0f 00 
0.231700 1 263 Rx d 8 00 d0 e7 89 d4 07 55 1f 
0.231900 1 142 Rx d 8 28 00 02 59 18 00 01 00 
0.232100 1 292 Rx d 8 c7 45 27 9e 72 01 00 00 
0.232400 1 2b3 Rx d 8 05 00 00 00 20 82 a7 a7 
0.232500 1 2f2 Rx d 2 12 01 
0.232700 1 39d Rx d 5 27 5e 01 28 00 
0.232900 1 441 Rx d 8 24 85 89 00 32 00 38 05 
0.233200 1 23e Rx d 8 f4 01 3a 9d fa fc bf c1 
0.233400 1 3ae Rx d 8 f5 3f 00 08 00 00 60 9d 
0.233600 1 712 Rx d 8 01 2a fe 0b 20 0c 05 0c 
0.233800 1 132 Rx d 6 e7 87 f5 ff 22 40 
0.234100 1 201 Rx d 8 09 04 18 01 00 00 80 c4 
0.234300 1 285 Rx d 8 41 03 65 01 0d 00 08 00 
0.234500 1 286 Rx d 5 ff ff ff ff 71 
0.234700 1 102 Rx d 8 22 b3 88 04 8c 0c 21 08 
0.234900 1 103 Rx d 8 22 b3 88 04 92 2c 21 02 
0.235100 1 119 Rx d 4 00 00 00 00 
0.235400 1 353 Rx d 8 7b 0f 39 80 07 14 00 04 
0.235600 1 118 Rx d 8 f3 60 32 00 00 48 00 00 
0.235800 1 1d8 Rx d 8 29 00 00 00 00 00 40 42 
0.236100 1 266 Rx d 8 00 00 01 22 00 00 9f 01 
0.236300 1 1e5 Rx d 8 02 ac 04 00 00 00 40 d8 
0.236600 1 288 Rx d 8 03 11 00 40 80 00 81 df 
0.236800 1 2e1 Rx d 8 04 00 00 80 48 44 26 00 
0.237000 1 372 Rx d 8 04 00 00 00 00 00 fa 10 
0.237300 1 129 Rx d 8 c7 2e ea 5f 00 20 ff 3f 
0.237500 1 373 Rx d 8 06 1b a9 00 00 de 0a 1f 
0.237700 1 229 Rx d 3 52 02 00 
0.237800 1 3d8 Rx d 4 49 00 54 00 
0.238000 1 249 Rx d 4 5e 09 00 00 
0.238200 1 401 Rx d 8 0c 2a 4d 80 4d 80 4a 80 
0.238500 1 545 Rx d 8 02 00 01 00 00 00 d0 1d 
0.238700 1 54f Rx d 8 00 00 00 00 00 00 00 00 
0.239000 1 241 Rx d 7 29 28 54 0a 0a 45 00 
0.240800 1 123 Rx d 8 01 00 00 00 00 3f 00 00 
0.241000 1 243 Rx d 8 01 fc 68 00 69 00 7c 7c 
0.241700 1 122 Rx d 8 01 00 00 00 00 3f 00 00 
0.242200 1 439 Rx d 8 02 00 40 00 00 14 00 00 
0.242500 1 798 Rx d 8 fc 2a 5d e9 a2 0b e0 a5 
0.242800 1 31a Rx d 8 60 fc ff 02 00 00 70 ea 
0.243100 1 2c4 Rx d 8 04 00 00 00 00 20 59 4a 
0.243300 1 204 Rx d 8 01 00 00 ff 00 00 00 10 
0.243500 1 264 Rx d 6 38 00 00 00 a0 00 
0.243700 1 132 Rx d 6 ef 87 f5 ff 22 40 
0.244000 1 224 Rx d 8 04 08 00 48 19 01 10 08 
0.244200 1 261 Rx d 8 05 22 f1 c7 9a 42 90 41 
0.244400 1 2b4 Rx d 6 25 05 9d 0d 11 01 
0.244600 1 2c1 Rx d 8 02 0d 06 05 00 d0 92 c1 
0.244900 1 118 Rx d 8 f4 61 32 00 00 48 00 00 
0.245100 1 266 Rx d 8 00 00 01 22 00 00 9f 01 
0.245300 1 257 Rx d 8 6b 41 1f 00 02 a0 0f 01 
0.245600 1 677 Rx d 8 03 00 00 00 00 00 00 00 
0.245800 1 1d8 Rx d 8 29 00 00 00 00 00 60 62 
0.246100 1 1e5 Rx d 8 02 ac 04 00 00 00 60 f8 
0.246800 1 3a3 Rx d 8 00 d0 00 00 38 03 fc 01 
0.247200 1 129 Rx d 8 05 2f e9 5f 00 20 ff 3f 
0.247400 1 797 Rx d 4 15 0d e0 9d 
0.248500 1 2a8 Rx d 8 02 11 00 00 06 80 80 c3 
0.248700 1 272 Rx d 8 09 80 63 00 00 00 00 00 
0.250000 1 2f1 Rx d 8 0f 27 69 93 98 83 39 00 
0.250300 1 221 Rx d 8 60 55 55 05 54 51 d1 a8 
0.250800 1 263 Rx d 8 01 d0 bf b1 8c c7 54 1f 
0.251200 1 42a Rx d 8 4b d5 5a 35 55 6d 54 aa 
0.251400 1 719 Rx d 8 00 03 14 14 14 00 05 00 
0.252000 1 2e1 Rx d 8 65 80 08 00 1e d4 8f 6a 
0.252300 1 381 Rx d 8 03 fa 3d 08 00 b0 04 00 
0.252800 1 393 Rx d 8 09 80 63 00 00 00 00 00 
0.253500 1 3e8 Rx d 8 03 00 00 00 00 00 00 00 
0.253700 1 132 Rx d 6 e4 87 f4 ff 22 40 
0.253900 1 401 Rx d 8 0d 2a 49 80 4e 80 4c 80 
0.254400 1 428 Rx d 7 00 00 10 10 00 00 00 
0.255500 1 118 Rx d 8 f5 62 32 00 00 48 00 00 
0.255800 1 282 Rx d 8 00 00 00 00 e8 23 0b 24 
0.256000 1 1d8 Rx d 8 29 00 00 00 00 00 80 82 
0.256200 1 266 Rx d 8 00 00 01 22 00 00 9f 01 
0.256500 1 1e5 Rx d 8 02 ac 04 00 00 00 00 98 
0.256700 1 3a2 Rx d 8 b2 29 00 00 22 00 00 00 
0.257000 1 3c2 Rx d 8 00 55 55 55 00 00 5a 45 
0.257200 1 129 Rx d 8 d3 20 ea 5f 00 20 ff 3f 
0.257400 1 40a Rx d 8 09 00 01 00 00 00 70 88 
0.257600 1 748 Rx d 5 31 25 0c 00 00 
0.258200 1 379 Rx d 8 08 00 00 00 00 00 0d 03 
0.258800 1 20c Rx d 8 00 c0 56 1e 00 d0 08 00 
0.259100 1 201 Rx d 8 82 02 00 00 00 00 98 3b 
0.259400 1 2ec Rx d 3 7f e0 4d 
0.260000 1 261 Rx d 8 00 10 fc ff d2 4c a0 bf 
0.260800 1 243 Rx d 8 02 ac f1 12 00 5a 00 00 
0.261100 1 3f5 Rx d 8 00 00 c8 08 82 04 00 00 
0.261300 1 45a Rx d 8 a0 53 53 d3 3f 36 00 68 
0.262400 1 113 Rx d 3 01 97 01 
0.262600 1 1f8 Rx d 4 00 00 00 00 
0.262700 1 7f4 Rx d 1 01 
0.262900 1 7ff Rx d 8 02 53 26 2c 8c 51 a3 90 
0.263200 1 318 Rx d 8 1a 08 1a 06 1b 07 27 a6 
0.263500 1 458 Rx d 7 00 00 00 00 40 00 00 
0.263700 1 132 Rx d 6 f5 87 f5 ff 22 40 
0.263900 1 405 Rx d 8 11 33 45 37 46 41 35 4d 
0.264100 1 2c1 Rx d 8 2b 17 13 00 00 00 00 00 
0.264400 1 414 Rx d 8 11 20 20 20 20 20 20 20 
0.264600 1 55a Rx d 8 04 00 00 00 00 00 00 00 
0.264900 1 118 Rx d 8 f6 63 32 00 00 48 00 00 
0.265100 1 4e3 Rx d 8 06 00 00 00 00 00 00 00 
0.265200 1 139 Rx d 1 00 
0.265500 1 266 Rx d 8 00 00 01 22 00 00 9f 01 
0.265600 1 666 Rx d 4 00 00 a0 00 
0.265900 1 1d8 Rx d 8 29 00 00 00 00 00 a0 a2 
0.266100 1 3a1 Rx d 8 a9 8d 40 f9 3d 00 f0 5c 
0.266300 1 257 Rx d 8 6c 42 1f 00 02 a0 0f 01 
0.266500 1 6a2 Rx d 5 00 00 00 00 00 
0.266800 1 1e5 Rx d 8 02 ac 04 00 00 00 20 b8 
0.267000 1 7a8 Rx d 8 b4 bc 71 63 00 00 82 00 
0.267200 1 129 Rx d 8 c4 21 ea 5f 00 20 ff 3f 
0.267500 1 545 Rx d 8 d0 01 31 f0 96 62 e9 1d 
0.267800 1 78a Rx d 8 01 00 06 00 02 00 00 00 
0.268100 1 2e1 Rx d 8 10 21 04 00 12 00 20 08 
0.269700 1 289 Rx d 8 a6 02 01 40 8c 00 3d 0f 
0.269900 1 682 Rx d 8 00 00 00 40 05 02 00 27 
0.270600 1 39d Rx d 5 28 5f 01 28 00 
0.270800 1 343 Rx d 8 00 92 60 5e 97 00 00 00 
0.271100 1 263 Rx d 8 02 00 00 00 00 00 00 00 
0.271400 1 228 Rx d 8 03 11 00 40 80 00 81 7f 
0.271900 1 2d1 Rx d 2 7f 01 
0.272200 1 37a Rx d 8 00 00 7c 5b 49 00 00 01 
0.272800 1 22b Rx d 8 ff ff ff ff ff ff ff ff 
0.273100 1 23e Rx d 8 f4 01 3a 9d fa fc cf d1 
0.273300 1 3ae Rx d 8 f5 3f 00 08 00 00 70 ad 
0.273500 1 132 Rx d 6 fe 87 f5 ff 22 40 
0.273700 1 401 Rx d 8 0e 2a 4d 80 4d 80 4c 80 
0.275500 1 118 Rx d 8 f7 64 32 00 00 48 00 00 
0.275800 1 1d8 Rx d 8 29 00 00 00 00 00 c0 c2 
0.276000 1 266 Rx d 8 00 00 01 22 00 00 9f 01 
0.276200 1 1e5 Rx d 8 02 ac 04 00 00 00 40 d8 
0.276500 1 261 Rx d 8 31 00 05 00 6f 49 b8 9c 
0.276700 1 4e2 Rx d 8 06 00 00 00 00 00 00 00 
0.276900 1 3c3 Rx d 8 55 55 55 01 00 80 43 00 
0.277200 1 129 Rx d 8 8d 22 ea 5f 00 20 ff 3f 
0.277500 1 7b8 Rx d 8 5c 97 5c 00 00 00 e0 49 
0.279100 1 359 Rx d 8 09 00 00 00 00 00 00 00 
0.279400 1 2d3 Rx d 8 ef 00 9b 03 43 1e 1e 61 
0.280700 1 234 Rx d 8 23 30 02 29 a5 04 20 e2 
0.280900 1 243 Rx d 8 03 00 00 00 43 62 1e 00 
0.281600 1 142 Rx d 8 01 00 40 0a c0 1b 00 00 
0.282000 1 7aa Rx d 8 0c 00 00 00 00 00 00 39 
0.282200 1 441 Rx d 8 25 00 b6 c3 58 00 3d 9c 
0.282800 1 553 Rx d 8 00 00 00 00 00 00 f0 48 
0.283000 1 421 Rx d 7 00 14 00 00 00 d0 48 
0.283200 1 409 Rx d 1 00 
0.283400 1 419 Rx d 1 00 
0.283600 1 132 Rx d 6 f4 87 f5 ff 1f 40 
0.283800 1 285 Rx d 8 02 d5 00 00 00 00 de 00 
0.284000 1 2e8 Rx d 8 02 11 00 00 06 80 50 d3 
0.284300 1 201 Rx d 8 83 02 00 00 00 00 b8 3b 
0.284500 1 2c1 Rx d 8 04 00 10 0e 0a 11 08 14 
0.284800 1 2e1 Rx d 8 39 8d 55 af 1f 28 00 00 
0.285000 1 118 Rx d 8 f8 65 32 00 00 48 00 00 
0.285100 1 20e Rx d 3 10 00 00 
0.285400 1 266 Rx d 8 00 00 01 22 00 00 9f 01 
0.285600 1 108 Rx d 8 22 0a 00 02 00 00 00 0d 
0.285900 1 257 Rx d 8 6d 43 1f 00 02 a0 0f 01 
0.286100 1 126 Rx d 5 01 b0 1d 50 45 
0.286300 1 1d8 Rx d 8 29 00 00 00 00 00 e0 e2 
0.286500 1 128 Rx d 5 80 02 e4 0a 02 
0.286700 1 1e5 Rx d 8 02 ac 04 00 00 00 60 f8 
0.287000 1 1d6 Rx d 8 00 08 04 00 4a 4c 08 05 
0.287200 1 129 Rx d 8 a9 23 e9 5f 00 20 ff 3f 
0.287400 1 268 Rx d 5 01 01 f8 00 c0 
0.287600 1 249 Rx d 4 e2 0a 00 00 
0.287800 1 279 Rx d 8 4f 0a 0d 01 74 05 62 02 
0.287900 1 2b6 Rx d 3 00 1b 00 
0.288200 1 313 Rx d 8 02 64 64 05 00 00 c0 a5 
0.288400 1 321 Rx d 8 3f fa a8 8d 01 8b 50 6e 
0.288600 1 381 Rx d 8 04 8d 97 8c 97 94 8e 69 
0.288900 1 383 Rx d 8 bd 18 3d 00 4b 21 24 54 
0.289100 1 395 Rx d 8 09 0f 11 4c 0b 00 08 7d 
0.289300 1 397 Rx d 8 00 00 00 d8 1d 00 00 00 
0.289600 1 400 Rx d 7 00 e0 fb be ef fb 00 
0.289800 1 3a2 Rx d 8 60 85 f2 b7 1c 80 41 72 
0.290000 1 448 Rx d 7 00 00 10 10 00 00 00 
0.290300 1 552 Rx d 8 00 00 00 00 00 00 f0 47 
0.290500 1 677 Rx d 8 04 00 00 00 00 00 00 00 
0.290700 1 422 Rx d 6 70 00 10 00 00 00 
0.291000 1 263 Rx d 8 03 00 00 00 00 00 00 24 
0.291200 1 2b3 Rx d 8 06 19 d9 3f 93 40 a2 d4 
0.291400 1 718 Rx d 7 03 00 00 00 00 00 00 
0.292000 1 261 Rx d 8 12 29 57 02 80 5c c2 28 
0.293200 1 39a Rx d 8 fc fd fd fd fd fd fd 01 
0.293500 1 132 Rx d 6 f0 87 f5 ff 22 40 
0.293800 1 372 Rx d 8 05 46 3b 0d 00 00 00 00 
0.294000 1 401 Rx d 8 0f 2a 4a 80 53 80 53 80 
0.294800 1 423 Rx d 7 00 00 00 00 08 00 00 
0.295000 1 2a1 Rx d 6 00 00 98 3a 00 00 
0.295500 1 118 Rx d 8 f9 66 32 00 00 48 00 00 
0.295800 1 7d5 Rx d 8 2b 00 00 00 00 00 00 00 
0.296000 1 1d8 Rx d 8 29 00 00 00 00 00 00 02 
0.296200 1 315 Rx d 8 10 4f 48 4e 50 48 c8 7d 
0.296500 1 266 Rx d 8 00 00 01 22 00 00 9f 01 
0.296700 1 315 Rx d 8 01 48 48 00 4c 48 00 00 
0.297000 1 1e5 Rx d 8 02 ac 04 00 00 00 00 98 
0.297200 1 315 Rx d 8 02 00 ad 0e 00 00 00 00 
0.297400 1 129 Rx d 8 1c 24 ea 5f 00 20 ff 3f 
0.297700 1 315 Rx d 8 7b 1c 20 5a 98 00 80 04 
0.297900 1 2c2 Rx d 8 55 63 a9 b6 02 00 1c a5 
0.298100 1 315 Rx d 8 04 24 2b c6 00 48 48 4d 
0.298400 1 7d5 Rx d 8 2c 00 3f 00 00 00 00 00 
0.298600 1 3b6 Rx d 8 65 6e a2 03 00 00 10 41 
0.298900 1 7d5 Rx d 8 32 00 00 00 00 00 00 00 
0.299100 1 3d5 Rx d 8 4d 4d 4d 4d 4d 2b 00 6c 
0.299300 1 7d7 Rx d 8 32 01 00 00 00 00 00 00 
0.299600 1 3fe Rx d 8 c1 71 c4 11 46 18 01 1b 
0.299800 1 7d5 Rx d 8 42 f8 00 ba 00 00 29 00 
0.300000 1 5d7 Rx d 5 50 6e 05 00 02 
0.300200 1 219 Rx d 7 02 80 4a 4a 97 9a 04 
0.300400 1 221 Rx d 8 61 05 55 55 01 02 e0 16 
0.300700 1 2e1 Rx d 8 02 6c 7f 02 3e 62 00 00 
0.300900 1 21d Rx d 8 04 00 35 00 00 00 00 00 
0.301100 1 243 Rx d 8 04 b0 f1 ff fd 7f 68 69 
0.301400 1 25d Rx d 8 36 41 01 2a 04 f0 d8 03 
0.301600 1 2c3 Rx d 8 00 00 c0 4b 01 00 80 cb 
0.301900 1 335 Rx d 8 23 de 02 aa 0f 00 00 00 
0.302000 1 41d Rx d 1 00 
0.302200 1 3a7 Rx d 8 00 00 00 00 00 00 00 00 
0.302500 1 420 Rx d 8 28 01 40 4b 00 00 80 03 
0.302700 1 3b5 Rx d 8 00 00 00 00 00 00 00 00 
0.303000 1 545 Rx d 8 01 00 00 00 00 10 f0 4b 
0.303100 1 399 Rx d 3 00 00 00 
0.303400 1 3c5 Rx d 8 00 00 00 00 00 00 00 00 
0.303600 1 132 Rx d 6 f7 87 f5 ff 22 40 
0.303800 1 3e5 Rx d 8 00 00 00 00 00 00 00 00 
0.304100 1 719 Rx d 8 01 00 00 00 00 00 00 00 
0.304300 1 2c1 Rx d 8 50 28 7e 00 3c fe 02 47 
0.304500 1 367 Rx d 8 00 00 00 00 00 00 00 00 
0.304800 1 118 Rx d 8 fa 67 32 00 00 48 00 00 
0.305000 1 368 Rx d 8 00 00 00 00 00 00 00 00 
0.305300 1 266 Rx d 8 00 00 01 22 00 00 9f 01 
0.305500 1 36b Rx d 8 00 00 00 00 00 00 00 00 
0.305800 1 257 Rx d 8 6e 44 1f 00 02 a0 0f 01 
0.306000 1 36e Rx d 8 00 00 00 00 00 00 00 00 
0.306300 1 1d8 Rx d 8 29 00 00 00 00 00 20 22 
0.306500 1 2a6 Rx d 8 00 00 6a 18 00 00 00 00 
0.306700 1 1e5 Rx d 8 02 ac 04 00 00 00 20 b8 
0.307000 1 2a7 Rx d 8 00 00 00 00 00 70 05 84 
0.307200 1 129 Rx d 8 0b 25 ea 5f 00 20 ff 3f 
0.307500 1 2c7 Rx d 8 00 00 00 00 00 00 4c ff 
0.307700 1 2e2 Rx d 8 e2 11 29 5c 49 59 29 0c 
0.307900 1 2f9 Rx d 8 b0 fb 07 10 00 00 00 00 
0.308200 1 261 Rx d 8 9b 4b 0a 00 00 40 d5 fb 
0.308400 1 3c2 Rx d 8 29 55 00 00 00 00 00 80 
0.308700 1 75d Rx d 8 06 00 00 00 00 00 00 00 
0.308900 1 2e3 Rx d 7 94 12 62 00 1c 06 00 
0.309100 1 201 Rx d 8 f0 e1 99 80 22 8b f1 07 
0.309400 1 31e Rx d 8 02 00 00 00 00 00 00 00 
0.309600 1 7d5 Rx d 8 43 b9 be b0 b7 3f 00 00 
0.309800 1 7d5 Rx d 8 44 92 51 64 58 3f 00 47 
0.310100 1 7d5 Rx d 8 46 4a 49 4d 49 46 49 4a 
0.310300 1 7d5 Rx d 8 48 4e 4b 00 00 c0 d3 57 
0.310500 1 211 Rx d 6 9b 19 71 0d 00 f1 
0.310800 1 39d Rx d 5 19 50 01 28 00 
0.311000 1 263 Rx d 8 04 00 00 00 10 04 00 00 
0.311300 1 45a Rx d 8 fd 07 f8 ff 03 00 00 31 
0.311600 1 22a Rx d 4 00 00 c9 15 
0.312400 1 789 Rx d 4 55 19 f0 60 
0.312900 1 23e Rx d 8 f4 01 3a 9d fa fc df e1 
0.313200 1 3ae Rx d 8 f5 3f 00 08 00 00 80 bd 
0.313500 1 132 Rx d 6 f5 87 f4 ff 22 40 
0.313700 1 1fa Rx d 3 22 c0 01 
0.313900 1 401 Rx d 8 10 2a 52 80 4f 80 50 80 
0.314200 1 3f9 Rx d 8 01 00 00 00 00 00 00 00 
0.315500 1 118 Rx d 8 fb 68 32 00 00 48 00 00 
0.315800 1 1d8 Rx d 8 29 00 00 00 00 00 40 42 
0.316000 1 266 Rx d 8 00 00 01 22 00 00 9f 01 
0.316200 1 1e5 Rx d 8 02 ac 04 00 00 00 40 d8 
0.316500 1 2e1 Rx d 8 fb 19 6e 39 94 60 09 00 
0.316700 1 3a1 Rx d 8 e8 4e 0e ca 00 10 02 e0 
0.316900 1 225 Rx d 4 45 55 fa 00 
0.317200 1 129 Rx d 8 e2 26 e9 5f 00 20 ff 3f 
0.318000 1 25b Rx d 8 d3 c0 02 05 6a 86 80 65 
0.318500 1 3c8 Rx d 8 04 00 00 00 00 00 00 00 
0.320600 1 242 Rx d 4 55 15 86 05 
0.320800 1 243 Rx d 8 00 fc 4f 4c ce 02 41 29 
0.321300 1 339 Rx d 8 04 e1 02 00 00 00 40 0f 
0.322700 1 3a2 Rx d 8 01 10 20 00 14 f0 ff 00 
0.322900 1 22b Rx d 8 ff ff ff ff ff ff ff ff 
0.323100 1 283 Rx d 6 00 00 00 00 00 00 
0.323500 1 132 Rx d 6 f6 87 f5 ff 20 40 
0.323800 1 752 Rx d 8 03 00 05 10 00 40 00 00 
0.324100 1 261 Rx d 8 ec 02 18 4a 00 40 e4 6a 
0.324300 1 2c1 Rx d 8 21 1b 0d 0a 02 00 00 00 
0.324500 1 2aa Rx d 3 7f f0 1b 
0.324700 1 381 Rx d 8 05 56 85 ff 80 6b c8 28 
0.324900 1 118 Rx d 8 fc 69 32 00 00 48 00 00 
0.325200 1 677 Rx d 8 00 00 00 00 00 00 00 00 
0.325400 1 266 Rx d 8 00 00 01 22 00 00 9f 01 
0.325700 1 1d8 Rx d 8 29 00 00 00 00 00 60 62 
0.325900 1 257 Rx d 8 6f 45 1f 00 02 a0 0f 01 
0.326100 1 1e5 Rx d 8 02 ac 04 00 00 00 60 f8 
0.327200 1 129 Rx d 8 f5 27 e9 5f 00 20 ff 3f 
0.327700 1 360 Rx d 8 00 00 00 00 02 00 00 00 
0.328100 1 340 Rx d 8 03 01 00 00 00 00 00 00 
0.328300 1 1f9 Rx d 8 00 00 00 00 00 00 00 00 
0.328800 1 3c0 Rx d 8 00 00 00 00 00 00 00 00 
0.330400 1 788 Rx d 8 01 00 00 00 ff a1 d8 12 
0.330700 1 2d2 Rx d 8 6e 29 a8 4e c4 09 d5 14 
0.331000 1 212 Rx d 8 59 04 00 00 81 ff 77 31 
0.331200 1 234 Rx d 8 28 e1 03 80 43 00 34 9e 
0.331400 1 252 Rx d 8 48 23 90 4a 00 fc 0f 00 
0.331700 1 263 Rx d 8 00 d0 e7 89 d4 07 55 1f 
0.331900 1 142 Rx d 8 28 00 02 59 18 00 01 00 
0.332100 1 292 Rx d 8 c7 45 27 9e 72 01 00 00 
0.332400 1 2e1 Rx d 8 04 00 00 80 48 44 26 00 
0.332500 1 2f2 Rx d 2 12 01 
0.332700 1 352 Rx d 8 02 42 04 41 04 48 40 35 
0.333000 1 3e9 Rx d 8 f0 08 00 00 00 00 30 14 
0.333200 1 3ae Rx d 8 f5 3f 00 08 00 00 91 ce 
0.333500 1 441 Rx d 8 24 85 89 00 32 00 00 cd 
0.333700 1 545 Rx d 8 02 00 01 00 00 00 00 4d 
0.333900 1 132 Rx d 6 f4 87 f5 ff 25 40 
0.334100 1 201 Rx d 8 09 04 18 01 00 00 80 c4 
0.334400 1 2d3 Rx d 8 ef 00 9b 03 43 1e 1e 61 
0.334600 1 401 Rx d 8 11 2a 51 80 51 80 45 80 
0.334800 1 102 Rx d 8 22 b3 88 04 8a 0c 21 08 
0.335100 1 103 Rx d 8 22 b3 88 04 92 2c 21 02 
0.335200 1 119 Rx d 4 00 00 00 00 
0.335500 1 285 Rx d 8 03 47 86 48 95 00 00 00 
0.335700 1 118 Rx d 8 fd 6a 32 00 00 48 00 00 
0.335900 1 293 Rx d 8 01 0c 15 90 55 14 6f 1f 
0.336200 1 1d8 Rx d 8 29 00 00 00 00 00 80 82 
0.336400 1 266 Rx d 8 00 00 01 22 00 00 9f 01 
0.336700 1 1e5 Rx d 8 02 ac 04 00 00 00 00 98 
0.336900 1 288 Rx d 8 03 11 00 40 80 00 91 ef 
0.337200 1 3cc Rx d 8 03 11 43 1b 00 0e 09 00 
0.337400 1 129 Rx d 8 22 28 e9 5f 00 20 ff 3f 
0.337600 1 3df Rx d 8 00 00 80 00 01 d0 00 1b 
0.337800 1 229 Rx d 3 6d 03 00 
0.338000 1 712 Rx d 8 02 2a ff 0b 13 0c 24 0c 
0.338200 1 249 Rx d 4 28 0b 00 00 
0.338400 1 54f Rx d 8 00 00 00 00 00 00 00 00 
0.339000 1 241 Rx d 7 29 28 54 0a 0a 45 00 
0.340000 1 261 Rx d 8 05 22 f1 c7 9a 42 f0 a1 
0.340800 1 123 Rx d 8 00 00 12 92 d2 00 00 80 
0.341100 1 243 Rx d 8 01 fc 68 00 69 00 7c 7c 
0.341300 1 70b Rx d 8 08 00 00 00 50 50 50 50 
0.341700 1 122 Rx d 8 00 00 12 92 12 00 00 00 
0.342200 1 439 Rx d 8 02 00 40 00 00 14 00 00 
0.342500 1 798 Rx d 8 05 00 00 00 00 00 f0 a1 
0.343000 1 2c4 Rx d 8 25 22 00 00 00 00 00 20 
0.343200 1 204 Rx d 8 01 00 00 ff 00 00 00 10 
0.343400 1 264 Rx d 6 38 00 00 00 a0 00 
0.343600 1 132 Rx d 6 f1 87 f4 ff 1e 40 
0.343900 1 224 Rx d 8 04 08 00 48 19 01 10 08 
0.344100 1 2c1 Rx d 8 02 0d 06 05 00 d0 92 c1 
0.344300 1 2b4 Rx d 6 24 05 9d 0d 16 01 
0.344700 1 118 Rx d 8 fe 6b 32 00 00 48 00 00 
0.345000 1 266 Rx d 8 00 00 01 22 00 00 9f 01 
0.345200 1 257 Rx d 8 70 46 1f 00 02 a0 0f 01 
0.345600 1 1d8 Rx d 8 29 00 00 00 00 00 a0 a2 
0.345900 1 1e5 Rx d 8 02 ac 04 00 00 00 20 b8 
0.346800 1 3a3 Rx d 8 00 d0 00 00 38 03 fc 01 
0.347200 1 129 Rx d 8 44 29 ea 5f 00 20 ff 3f 
0.347400 1 797 Rx d 4 15 0d f0 ad 
0.348000 1 2e1 Rx d 8 65 80 08 00 1e d4 8f 6a 
0.348500 1 2a8 Rx d 8 02 11 00 00 06 80 90 d3 
0.348700 1 272 Rx d 8 06 00 f1 88 07 48 06 08 
0.350000 1 2f1 Rx d 8 10 8f 03 00 00 00 00 00 
0.350300 1 221 Rx d 8 60 55 55 05 54 51 f1 c8 
0.350600 1 39d Rx d 5 1a 51 01 28 00 
0.350800 1 263 Rx d 8 01 d0 bf b1 8c c7 54 1f 
0.351100 1 2b3 Rx d 8 07 50 a5 50 c0 08 00 00 
0.351300 1 719 Rx d 8 0e 00 00 00 00 00 00 14 
0.352800 1 393 Rx d 8 06 00 f0 80 07 48 06 08 
0.353000 1 23e Rx d 8 f4 01 3a 9d fa fc ef f1 
0.353500 1 3e8 Rx d 8 04 00 00 00 00 00 00 00 
0.353700 1 132 Rx d 6 f0 87 f5 ff 22 40 
0.353900 1 372 Rx d 8 06 1c 5b 19 2a a3 0f 01 
0.354200 1 401 Rx d 8 12 2a 46 80 49 80 48 80 
0.354400 1 344 Rx d 8 00 00 00 00 00 00 20 67 
0.354600 1 428 Rx d 7 00 00 10 10 00 00 00 
0.354900 1 554 Rx d 7 60 eb 03 0b 14 e0 01 
0.355000 1 7b5 Rx d 3 03 00 00 
0.355300 1 6d4 Rx d 8 0b 00 1e 4b 02 00 00 00 
0.355500 1 386 Rx d 8 00 00 00 00 00 00 00 00 
0.355700 1 118 Rx d 8 ff 6c 32 00 00 48 00 00 
0.356000 1 282 Rx d 8 00 00 00 00 e8 23 0b 24 
0.356200 1 1d8 Rx d 8 29 00 00 00 00 00 c0 c2 
0.356500 1 261 Rx d 8 00 10 fc ff d2 4c 00 1f 
0.356700 1 266 Rx d 8 00 00 01 22 00 00 9f 01 
0.357000 1 3a0 Rx d 8 00 00 00 00 00 00 00 00 
0.357200 1 129 Rx d 8 a8 2a e9 5f 00 20 ff 3f 
0.357400 1 1e5 Rx d 8 02 ac 04 00 00 00 40 d8 
0.357700 1 384 Rx d 8 00 00 00 00 00 00 00 00 
0.358000 1 380 Rx d 8 00 00 00 00 00 00 00 00 
0.358200 1 379 Rx d 8 09 00 00 00 00 00 0d 03 
0.358400 1 3a2 Rx d 8 b2 29 00 00 22 00 00 00 
0.358700 1 3c2 Rx d 8 00 55 55 55 00 00 5a 45 
0.358900 1 20c Rx d 8 00 c0 56 1e 00 d0 08 00 
0.359200 1 201 Rx d 8 82 02 00 00 00 00 98 3b 
0.359400 1 3e2 Rx d 7 00 00 80 1a 00 c0 04 
0.359500 1 2ec Rx d 3 7f f0 5d 
0.359800 1 3f1 Rx d 8 02 00 00 00 00 00 00 00 
0.359900 1 744 Rx d 1 00 
0.360100 1 381 Rx d 8 46 00 00 00 08 01 00 03 
0.360800 1 243 Rx d 8 02 ac f1 12 00 5a 00 00 
0.361100 1 3f5 Rx d 8 00 00 c8 08 82 04 00 00 
0.361300 1 45a Rx d 8 a0 53 53 d3 3f 36 00 68 
0.362300 1 7aa Rx d 8 c0 e3 8e 3c 00 08 8c 29 
0.362400 1 113 Rx d 3 01 97 01 
0.362700 1 318 Rx d 8 1a 08 1a 06 1b 07 29 a8 
0.362800 1 1f8 Rx d 4 00 00 00 00 
0.363100 1 458 Rx d 7 00 00 00 00 40 00 00 
0.363200 1 7f4 Rx d 1 01 
0.363400 1 7ff Rx d 8 03 33 08 00 e0 22 16 00 
0.363600 1 132 Rx d 6 f4 87 f5 ff 23 40 
0.364100 1 2e1 Rx d 8 10 21 04 00 12 00 20 08 
0.364300 1 2c1 Rx d 8 2b 17 13 00 00 00 00 00 
0.364600 1 677 Rx d 8 01 00 00 00 00 00 00 00 
0.364800 1 118 Rx d 8 00 6d 32 00 00 48 00 00 
0.365100 1 4e3 Rx d 8 07 00 00 00 00 00 00 00 
0.365200 1 139 Rx d 1 00 
0.365400 1 266 Rx d 8 00 00 01 22 00 00 9f 01 
0.365600 1 6a2 Rx d 5 00 00 00 00 00 
0.365900 1 1d8 Rx d 8 29 00 00 00 00 00 e0 e2 
0.366100 1 257 Rx d 8 71 47 1f 00 02 a0 0f 01 
0.366400 1 1e5 Rx d 8 02 ac 04 00 00 00 60 f8 
0.366600 1 3a1 Rx d 8 a9 8d 40 f5 3d 00 10 78 
0.366800 1 545 Rx d 8 20 02 2c 20 97 66 19 ce 
0.367100 1 7a8 Rx d 8 01 00 00 00 ff a1 d8 12 
0.367300 1 129 Rx d 8 59 2b e9 5f 00 20 ff 3f 
0.368300 1 78a Rx d 8 01 00 00 00 1e 13 13 0d 
0.369200 1 682 Rx d 8 00 00 00 40 05 02 10 37 
0.369500 1 310 Rx d 8 14 05 00 00 47 77 e4 78 
0.369800 1 289 Rx d 8 a6 02 01 00 82 00 3d 0f 
0.370800 1 343 Rx d 8 00 92 5c 2e 97 00 00 00 
0.371100 1 263 Rx d 8 02 00 00 00 00 00 00 00 
0.371400 1 228 Rx d 8 03 11 00 40 80 00 91 8f 
0.371900 1 2d1 Rx d 2 7f 01 
0.372200 1 261 Rx d 8 31 00 08 00 6f 49 18 ff 
0.372400 1 37a Rx d 8 01 00 31 34 92 00 00 17 
0.372800 1 22b Rx d 8 ff ff ff ff ff ff ff ff 
0.373100 1 3ae Rx d 8 f5 3f 00 08 00 00 a1 de 
0.373500 1 132 Rx d 6 f7 87 f5 ff 1f 40 
0.373800 1 401 Rx d 8 13 2a 49 80 48 80 49 80 
0.375500 1 118 Rx d 8 01 6e 32 00 00 48 00 00 
0.375700 1 1d8 Rx d 8 29 00 00 00 00 00 00 02 
0.376000 1 266 Rx d 8 00 00 01 22 00 00 9f 01 
0.376200 1 1e5 Rx d 8 02 ac 04 00 00 00 00 98 
0.376700 1 4e2 Rx d 8 2f 20 00 00 00 00 00 00 
0.377000 1 3c3 Rx d 8 00 00 00 00 00 45 00 00 
0.377100 1 3e3 Rx d 4 00 00 00 00 
0.377400 1 129 Rx d 8 0a 2c ea 5f 00 20 ff 3f 
0.377600 1 7b8 Rx d 8 05 e0 4c 9d b1 02 f0 8b 
0.379100 1 359 Rx d 8 0a 78 c5 a5 5d 5d da c7 
0.380100 1 2e1 Rx d 8 39 8d 55 af 1f 28 00 00 
0.380700 1 234 Rx d 8 23 30 02 28 a1 04 40 fd 
0.380900 1 243 Rx d 8 03 00 00 00 43 62 1e 00 
0.381700 1 142 Rx d 8 01 00 40 0a c0 1b 00 00 
0.382000 1 441 Rx d 8 25 00 b6 c3 58 00 05 64 
0.382800 1 553 Rx d 8 00 00 00 00 00 00 00 58 
0.383100 1 421 Rx d 7 00 14 00 00 00 d0 48 
0.383200 1 409 Rx d 1 00 
0.383500 1 2e8 Rx d 8 02 11 00 00 06 80 60 e3 
0.383700 1 132 Rx d 6 f4 87 f4 ff 20 40 
0.384000 1 253 Rx d 8 00 64 34 85 64 62 00 15 
0.384200 1 201 Rx d 8 83 02 00 00 00 00 b8 3b 
0.384300 1 213 Rx d 2 78 8d 
0.384600 1 2bf Rx d 7 0a 00 00 00 00 10 01 
0.384800 1 118 Rx d 8 02 6f 32 00 00 48 00 00 
0.384900 1 20e Rx d 3 11 01 00 
0.385200 1 266 Rx d 8 00 00 01 22 00 00 9f 01 
0.385400 1 257 Rx d 8 72 48 1f 00 02 a0 0f 01 
0.385700 1 108 Rx d 8 23 0b 00 02 00 00 00 0d 
0.385900 1 1d8 Rx d 8 29 00 00 00 00 00 20 22 
0.386100 1 126 Rx d 5 01 b0 1d 58 4d 
0.386300 1 1e5 Rx d 8 02 ac 04 00 00 00 20 b8 
0.386500 1 128 Rx d 5 80 02 e4 0a 02 
0.386800 1 1d6 Rx d 8 00 08 04 00 4a 0c 0f 05 
0.387000 1 285 Rx d 8 04 53 93 47 8b 00 00 00 
0.387200 1 129 Rx d 8 2b 2d e9 5f 00 20 ff 3f 
0.387400 1 268 Rx d 5 01 01 f8 00 c0 
0.387600 1 249 Rx d 4 3a 0c 00 00 
0.387800 1 279 Rx d 8 50 0b 0d 01 74 05 62 02 
0.388000 1 2b6 Rx d 3 00 1b 00 
0.388200 1 261 Rx d 8 12 29 57 02 80 5c 22 88 
0.388400 1 2c1 Rx d 8 04 00 10 0e 0a 11 08 14 
0.388700 1 395 Rx d 8 09 0f 12 4c 0b 00 08 7d 
0.388900 1 383 Rx d 8 bd 18 3d 00 4b 21 24 54 
0.389100 1 397 Rx d 8 00 00 00 d8 1d 00 00 00 
0.389400 1 3a2 Rx d 8 60 85 f2 b7 1c 80 41 72 
0.389600 1 400 Rx d 7 00 e0 fb be ef fb 00 
0.389800 1 407 Rx d 8 14 09 00 00 00 00 00 00 
0.390000 1 419 Rx d 1 00 
0.390200 1 448 Rx d 7 00 00 10 10 00 00 00 
0.390400 1 4f3 Rx d 4 00 00 00 00 
0.390700 1 552 Rx d 8 00 00 00 00 00 00 00 57 
0.390800 1 422 Rx d 6 70 00 10 00 00 00 
0.391100 1 263 Rx d 8 03 00 00 00 00 00 00 24 
0.391900 1 39d Rx d 5 1b 52 01 28 00 
0.393200 1 39a Rx d 8 fd fd fd fd fd 01 00 00 
0.393600 1 23e Rx d 8 f4 01 3a 9d fa fc ff 01 
0.393800 1 132 Rx d 6 f8 87 f5 ff 23 40 
0.394000 1 320 Rx d 8 02 00 00 00 00 00 00 00 
0.394300 1 401 Rx d 8 14 2a 49 80 54 80 51 80 
0.394800 1 423 Rx d 7 00 00 00 00 08 00 00 
0.395000 1 2a1 Rx d 6 00 00 98 3a 00 00 
0.395500 1 118 Rx d 8 f3 60 32 00 00 48 00 00 
0.395700 1 7d5 Rx d 8 2b 00 00 00 00 00 00 00 
0.396000 1 1d8 Rx d 8 29 00 00 00 00 00 40 42 
0.396200 1 2e1 Rx d 8 02 6c 7f 02 3e 62 00 00 
0.396500 1 266 Rx d 8 00 00 01 22 00 00 9f 01 
0.396700 1 381 Rx d 8 07 00 00 54 7d 27 00 00 
0.397000 1 1e5 Rx d 8 02 ac 04 00 00 00 40 d8 
0.397200 1 7d5 Rx d 8 2c 00 3f 00 00 00 00 00 
0.397400 1 129 Rx d 8 c7 2e ea 5f 00 20 ff 3f 
0.397700 1 7d5 Rx d 8 32 00 00 00 00 00 00 00 
0.397900 1 2c2 Rx d 8 20 40 80 20 01 00 80 cb 
0.398200 1 7d7 Rx d 8 32 01 00 00 00 00 00 00 
0.399100 1 545 Rx d 8 01 00 00 00 00 10 20 7b 
0.400000 1 31e Rx d 8 03 00 00 00 00 00 00 00 
0.400200 1 219 Rx d 7 03 80 4a 49 97 9b 04 
0.400500 1 21d Rx d 8 04 00 35 00 00 00 00 00 
0.400700 1 221 Rx d 8 61 05 55 55 01 02 00 36 
0.401000 1 243 Rx d 8 04 b0 f1 ff fd 7f 68 69 
0.401200 1 25d Rx d 8 36 41 01 2a 04 f0 d8 03 
0.401400 1 2c3 Rx d 8 55 5b a9 b6 02 00 12 a5 
0.401500 1 41d Rx d 1 00 
0.401800 1 420 Rx d 8 28 01 40 4b 00 00 00 04 
0.402000 1 719 Rx d 8 0c 50 0f 00 50 00 00 00 
0.403500 1 132 Rx d 6 f6 87 f5 ff 20 40 
0.404000 1 261 Rx d 8 9b 4b 0a 00 00 40 35 5b 
0.404300 1 2c1 Rx d 8 50 28 7e 00 3c 0e 03 47 
0.404500 1 677 Rx d 8 02 00 00 00 00 00 00 00 
0.404800 1 118 Rx d 8 f4 61 32 00 00 48 00 00 
0.405000 1 266 Rx d 8 00 00 01 22 00 00 9f 01 
0.405200 1 257 Rx d 8 73 49 1f 00 02 a0 0f 01 
0.405600 1 1d8 Rx d 8 29 00 00 00 00 00 60 62 
0.405900 1 1e5 Rx d 8 02 ac 04 00 00 00 60 f8 
0.406300 1 2c7 Rx d 8 00 00 00 00 00 00 4c ff 
0.406500 1 2a6 Rx d 8 00 00 6a 18 00 00 00 00 
0.406800 1 2a7 Rx d 8 00 00 00 00 00 70 05 84 
0.407000 1 3a8 Rx d 8 04 80 05 65 01 00 00 00 
0.407300 1 129 Rx d 8 05 2f e9 5f 00 20 ff 3f 
0.407500 1 2f9 Rx d 8 b0 fb 07 18 00 00 00 00 
0.407800 1 3c2 Rx d 8 29 55 00 00 00 00 00 80 
0.409000 1 201 Rx d 8 f0 d1 99 80 22 8b f1 07 
0.410300 1 211 Rx d 6 9c 1a 71 0d 00 f1 
0.410900 1 263 Rx d 8 04 00 00 00 10 04 00 00 
0.411100 1 2b3 Rx d 8 08 fa fc 97 58 9a bc bc 
0.411300 1 45a Rx d 8 fd 07 f8 ff 03 00 00 31 
0.411600 1 22a Rx d 4 00 00 c9 15 
0.412100 1 2e1 Rx d 8 fb 19 6e 39 94 61 09 00 
0.412400 1 789 Rx d 4 55 19 00 70 
0.413100 1 3ae Rx d 8 f5 3f 00 08 00 00 b1 ee 
0.413500 1 132 Rx d 6 f6 87 f5 ff 23 40 
0.413700 1 1fa Rx d 3 22 c0 01 
0.413900 1 372 Rx d 8 07 00 00 00 00 00 00 00 
0.414100 1 401 Rx d 8 15 2a 51 80 50 80 55 80 
0.414400 1 3f9 Rx d 8 02 00 00 00 00 00 00 00 
0.415500 1 118 Rx d 8 f5 62 32 00 00 48 00 00 
0.415700 1 1d8 Rx d 8 29 00 00 00 00 00 80 82 
0.416000 1 266 Rx d 8 00 00 01 22 00 00 9f 01 
0.416200 1 1e5 Rx d 8 02 ac 04 00 00 00 00 98 
0.416500 1 3a1 Rx d 8 e8 4e 0e ca 00 10 22 00 
0.416800 1 225 Rx d 4 45 55 fa 00 
0.417200 1 129 Rx d 8 d3 20 ea 5f 00 20 ff 3f 
0.418000 1 25b Rx d 8 d3 c0 02 05 6a 86 90 75 
0.418500 1 3c8 Rx d 8 05 00 00 00 00 00 00 00 
0.420000 1 261 Rx d 8 ec 02 18 4a 00 40 44 ca 
0.420300 1 709 Rx d 8 1a 5f c0 2e 00 52 22 00 
0.420600 1 242 Rx d 4 55 15 86 05 
0.420800 1 243 Rx d 8 00 fc 4f 4c ce 02 41 29 
0.421300 1 339 Rx d 8 04 e1 02 00 00 00 40 0f 
0.421700 1 3a2 Rx d 8 01 10 20 00 11 f0 ff 00 
0.422800 1 283 Rx d 6 00 00 00 00 00 00 
0.423000 1 22b Rx d 8 ff ff ff ff ff ff ff ff 
0.423500 1 7e8 Rx d 8 12 5c 0a d0 26 6f 00 ae 
0.423700 1 132 Rx d 6 f5 87 f5 ff 23 40 
0.424100 1 2c1 Rx d 8 21 1b 0d 0a 02 00 00 00 
0.424300 1 2aa Rx d 3 7f 00 2b 
0.424700 1 118 Rx d 8 f6 63 32 00 00 48 00 00 
0.425000 1 266 Rx d 8 00 00 01 22 00 00 9f 01 
0.425200 1 257 Rx d 8 74 4a 1f 00 02 a0 0f 01 
0.425600 1 1d8 Rx d 8 29 00 00 00 00 00 a0 a2 
0.425900 1 1e5 Rx d 8 02 ac 04 00 00 00 20 b8 
0.427200 1 129 Rx d 8 f7 21 e9 5f 00 20 ff 3f 
0.427700 1 360 Rx d 8 01 00 00 00 00 00 00 00 
0.428100 1 340 Rx d 8 04 00 00 00 00 00 00 00 
0.428300 1 1f9 Rx d 8 00 00 00 00 00 00 00 00 
0.428600 1 2e1 Rx d 8 04 00 00 80 48 44 26 00 
0.428900 1 3c0 Rx d 8 01 00 00 00 00 00 00 01 
0.429900 1 2d2 Rx d 8 6e 29 a8 4e c4 09 d5 14 
0.430100 1 212 Rx d 8 59 04 00 00 81 ff 77 31 
0.430300 1 252 Rx d 8 48 23 90 4a 00 fc 0f 00 
0.430600 1 292 Rx d 8 c7 45 27 9e 72 01 00 00 
0.430700 1 2f2 Rx d 2 12 01 
0.430900 1 234 Rx d 8 28 e1 03 80 43 00 54 be 
0.431200 1 263 Rx d 8 00 d0 e7 89 d4 07 55 1f 
0.431300 1 39d Rx d 5 1c 53 01 28 00 
0.431600 1 3b2 Rx d 8 0b ef 1f 14 c0 0b c2 24 
0.431800 1 142 Rx d 8 28 00 02 59 18 00 01 00 
0.432000 1 712 Rx d 8 03 2a 27 0c 23 0c 26 0c 
0.432300 1 381 Rx d 8 68 13 3d 02 07 00 00 18 
0.432500 1 441 Rx d 8 24 85 89 00 32 00 08 d5 
0.432800 1 545 Rx d 8 02 00 01 00 00 00 30 7d 
0.433000 1 782 Rx d 8 4f 0a 05 74 01 00 00 00 
0.433200 1 23e Rx d 8 f4 01 3a 9d fa fc 0f 11 
0.433500 1 788 Rx d 8 02 40 d0 07 4d 03 00 00 
0.433700 1 473 Rx d 8 00 00 03 00 00 00 00 00 
0.433900 1 132 Rx d 6 f1 87 f5 ff 23 40 
0.434200 1 201 Rx d 8 09 04 18 01 00 00 80 c4 
0.434400 1 3b3 Rx d 8 8c 80 04 30 01 00 a8 80 
0.434600 1 401 Rx d 8 16 2a 50 80 4b 80 48 80 
0.434900 1 102 Rx d 8 22 b3 88 04 8a 0c 21 08 
0.435100 1 103 Rx d 8 22 b3 88 04 92 2c 21 02 
0.435300 1 119 Rx d 4 00 00 00 00 
0.435500 1 253 Rx d 8 01 64 34 85 64 62 00 15 
0.435700 1 118 Rx d 8 f7 64 32 00 00 48 00 00 
0.436000 1 1d8 Rx d 8 29 00 00 00 00 00 c0 c2 
0.436200 1 261 Rx d 8 05 22 f1 c7 9a 42 50 01 
0.436500 1 266 Rx d 8 00 00 01 22 00 00 9f 01 
0.436700 1 1e5 Rx d 8 02 ac 04 00 00 00 40 d8 
0.437000 1 288 Rx d 8 03 11 00 40 80 00 a1 ff 
0.437200 1 129 Rx d 8 be 22 e9 5f 00 20 ff 3f 
0.437400 1 229 Rx d 3 43 04 00 
0.437500 1 249 Rx d 4 13 0d 00 00 
0.437800 1 54f Rx d 8 00 00 00 00 00 00 00 00 
0.438900 1 3ae Rx d 8 f5 3f 00 08 00 00 c0 fd 
0.439100 1 241 Rx d 7 28 28 14 0a 0a 45 00 
0.440800 1 123 Rx d 8 01 00 00 00 00 3f 00 00 
0.441100 1 243 Rx d 8 01 fc 68 00 69 00 7c 7c 
0.441700 1 122 Rx d 8 01 00 00 00 00 3f 00 00 
0.442100 1 7aa Rx d 8 01 9b 0d 9d 0d 00 00 2e 
0.442400 1 439 Rx d 8 02 00 40 00 00 14 00 00 
0.442600 1 798 Rx d 8 de 04 00 00 00 00 00 8e 
0.442900 1 31a Rx d 8 60 fc ff 02 00 00 80 fa 
0.443100 1 2c4 Rx d 8 06 4d a2 8c ca c8 10 00 
0.443400 1 204 Rx d 8 01 00 00 ff 00 00 00 10 
0.443600 1 264 Rx d 6 38 00 00 00 a0 00 
0.443800 1 132 Rx d 6 ef 87 f5 ff 22 40 
0.444000 1 224 Rx d 8 04 08 00 48 19 01 10 08 
0.444200 1 2c1 Rx d 8 02 0d 06 05 00 d0 92 c1 
0.444400 1 2b4 Rx d 6 24 05 9d 0d 12 01 
0.444700 1 2e1 Rx d 8 65 80 08 00 1e d4 8f 6a 
0.444900 1 118 Rx d 8 f8 65 32 00 00 48 00 00 
0.445200 1 677 Rx d 8 03 00 00 00 00 00 00 00 
0.445400 1 266 Rx d 8 00 00 01 22 00 00 9f 01 
0.445600 1 1d8 Rx d 8 29 00 00 00 00 00 e0 e2 
0.445900 1 319 Rx d 8 27 00 00 00 ff ff ff ff 
0.446100 1 257 Rx d 8 75 4b 1f 00 02 a0 0f 01 
0.446400 1 1e5 Rx d 8 02 ac 04 00 00 00 60 f8 
0.446800 1 3a3 Rx d 8 00 d0 00 00 38 03 fc 01 
0.447200 1 129 Rx d 8 a9 23 e9 5f 00 20 ff 3f 
0.447400 1 797 Rx d 4 15 0d 00 bd 
0.448500 1 2a8 Rx d 8 02 11 00 00 06 80 a0 e3 
0.448700 1 272 Rx d 8 09 80 63 00 00 00 00 00 
0.450000 1 2f1 Rx d 8 11 4c 00 44 00 a2 0e 00 
0.450300 1 221 Rx d 8 60 55 55 05 54 51 11 e8 
0.450800 1 263 Rx d 8 01 d0 bf b1 8c c7 54 1f 
0.451200 1 42a Rx d 8 4b d5 5a 35 55 2d 55 aa 
0.451400 1 3db Rx d 8 0b 38 0f 00 00 03 00 00 
0.451700 1 43b Rx d 8 03 7f 04 ff 00 00 00 00 
0.451900 1 719 Rx d 8 0d 00 00 00 00 00 00 00 
0.452200 1 261 Rx d 8 00 10 fc ff d2 4c 60 7f 
0.452800 1 393 Rx d 8 09 80 63 00 00 00 00 00 
0.453500 1 3e8 Rx d 8 05 00 00 00 00 00 00 00 
0.453700 1 132 Rx d 6 f6 87 f5 ff 23 40 
0.453900 1 401 Rx d 8 17 2a 49 80 4a 80 4e 80 
0.454400 1 428 Rx d 7 00 00 10 10 00 00 00 
0.454700 1 3a2 Rx d 8 b2 29 00 00 22 00 00 00 
0.455500 1 118 Rx d 8 f9 66 32 00 00 48 00 00 
0.455700 1 282 Rx d 8 00 00 00 00 e8 23 0b 24 
0.456000 1 1d8 Rx d 8 29 00 00 00 00 00 00 02 
0.456200 1 266 Rx d 8 00 00 01 22 00 00 9f 01 
0.456500 1 1e5 Rx d 8 02 ac 04 00 00 00 00 98 
0.456700 1 40a Rx d 8 09 00 01 00 00 00 80 98 
0.456900 1 3c2 Rx d 8 00 55 55 55 00 00 5a 45 
0.457200 1 129 Rx d 8 2f 24 e9 5f 00 20 ff 3f 
0.458200 1 379 Rx d 8 0a 00 00 00 00 00 12 03 
0.458800 1 20c Rx d 8 00 c0 56 1e 00 d0 08 00 
0.459100 1 201 Rx d 8 82 02 00 00 00 00 98 3b 
0.459400 1 2ec Rx d 3 7f 00 6d 
0.460100 1 2e1 Rx d 8 10 21 04 00 12 00 20 08 
0.460800 1 243 Rx d 8 02 ac f1 12 00 5a 00 00 
0.461100 1 3f5 Rx d 8 00 00 c8 08 82 04 00 00 
0.461300 1 45a Rx d 8 a0 53 53 d3 3f 36 00 68 
0.462400 1 113 Rx d 3 01 97 01 
0.462600 1 1f8 Rx d 4 00 00 00 00 
0.462700 1 7f4 Rx d 1 01 
0.463000 1 7ff Rx d 8 04 21 fb a8 60 20 a4 20 
0.463200 1 318 Rx d 8 1a 08 1a 06 1b 07 2b aa 
0.463400 1 458 Rx d 7 00 00 00 00 40 00 00 
0.463600 1 132 Rx d 6 ef 87 f5 ff 22 40 
0.464100 1 2c1 Rx d 8 2b 17 13 00 00 00 00 00 
0.464400 1 6a2 Rx d 5 00 00 00 00 00 
0.464700 1 118 Rx d 8 fa 67 32 00 00 48 00 00 
0.465000 1 4e3 Rx d 8 20 06 03 00 00 00 a8 1f 
0.465100 1 139 Rx d 1 00 
0.465300 1 266 Rx d 8 00 00 01 22 00 00 9f 01 
0.465600 1 257 Rx d 8 76 4c 1f 00 02 a0 0f 01 
0.465800 1 1d8 Rx d 8 29 00 00 00 00 00 20 22 
0.466100 1 1e5 Rx d 8 02 ac 04 00 00 00 20 b8 
0.466300 1 3a1 Rx d 8 a9 8d 40 fb 3d 00 30 9e 
0.466500 1 545 Rx d 8 20 02 31 00 97 64 49 e1 
0.466800 1 7a8 Rx d 8 02 40 cd 97 4c 07 00 00 
0.467200 1 129 Rx d 8 38 25 e9 5f 00 20 ff 3f 
0.467600 1 3aa Rx d 8 00 00 00 00 00 00 00 00 
0.467900 1 77a Rx d 8 00 55 1d 00 ee 0c 5f 61 
0.468100 1 261 Rx d 8 31 00 06 00 6f 49 78 5d 
0.468400 1 381 Rx d 8 09 00 01 82 00 00 00 6c 
0.468600 1 78a Rx d 8 01 00 01 00 e4 5d 90 5d 
0.469700 1 289 Rx d 8 a6 02 01 40 9d 00 3d 0f 
0.469900 1 682 Rx d 8 00 00 00 40 05 02 20 47 
0.470600 1 39d Rx d 5 1d 54 01 28 00 
0.470800 1 343 Rx d 8 00 92 5c 2e 97 00 00 00 
0.471100 1 263 Rx d 8 02 00 00 00 00 00 00 00 
0.471300 1 2b3 Rx d 8 69 2b 00 36 00 00 43 2e 
0.471600 1 228 Rx d 8 03 11 00 40 80 00 a1 9f 
0.472000 1 2d1 Rx d 2 7f 01 
0.472200 1 37a Rx d 8 02 00 7d 0f 2e 00 00 00 
0.472800 1 22b Rx d 8 ff ff ff ff ff ff ff ff 
0.473100 1 23e Rx d 8 f4 01 3a 9d fa fc 1f 21 
0.473500 1 132 Rx d 6 ef 87 f4 ff 22 40 
0.473800 1 372 Rx d 8 08 00 00 00 00 00 00 00 
0.474000 1 401 Rx d 8 18 2a 4e 80 4c 80 4c 80 
0.475500 1 118 Rx d 8 fb 68 32 00 00 48 00 00 
0.475700 1 1d8 Rx d 8 29 00 00 00 00 00 40 42 
0.476000 1 266 Rx d 8 00 00 01 22 00 00 9f 01 
0.476200 1 1e5 Rx d 8 02 ac 04 00 00 00 40 d8 
0.476500 1 2e1 Rx d 8 39 8d 55 af 1f 28 00 00 
0.476800 1 4e2 Rx d 8 20 50 02 00 00 00 28 18 
0.477000 1 3c3 Rx d 8 55 55 55 01 00 80 43 00 
0.477200 1 129 Rx d 8 d1 26 ea 5f 00 20 ff 3f 
0.477500 1 7b8 Rx d 8 06 00 00 00 00 00 00 20 
0.478300 1 3ae Rx d 8 f5 3f 00 08 00 00 d0 0d 
0.479100 1 359 Rx d 8 0b 7b 53 2f 49 8d 7a 87 
0.480700 1 234 Rx d 8 23 30 02 28 a1 04 60 1d 
0.480900 1 243 Rx d 8 03 00 00 00 43 62 1e 00 
0.481700 1 142 Rx d 8 01 00 40 0a c0 1b 00 00 
0.482100 1 441 Rx d 8 25 00 b6 c3 58 00 0d 6c 
0.482800 1 553 Rx d 8 00 00 00 00 00 00 10 68 
0.483100 1 421 Rx d 7 00 14 00 00 00 d0 48 
0.483200 1 409 Rx d 1 00 
0.483400 1 419 Rx d 1 00 
0.483600 1 132 Rx d 6 eb 87 f5 ff 22 40 
0.483800 1 2e8 Rx d 8 02 11 00 00 06 80 70 f3 
0.484000 1 333 Rx d 5 04 10 e8 07 00 
0.484200 1 261 Rx d 8 12 29 57 02 80 5c 82 e8 
0.484500 1 201 Rx d 8 83 02 00 00 00 00 b8 3b 
0.484700 1 2c1 Rx d 8 04 00 10 0e 0a 11 08 14 
0.484900 1 118 Rx d 8 fc 69 32 00 00 48 00 00 
0.485100 1 20e Rx d 3 12 02 00 
0.485300 1 266 Rx d 8 00 00 01 22 00 00 9f 01 
0.485600 1 108 Rx d 8 25 0c 00 02 00 01 00 0d 
0.485800 1 257 Rx d 8 77 4d 1f 00 02 a0 0f 01 
0.486000 1 126 Rx d 5 01 b0 1d 60 55 
0.486200 1 1d8 Rx d 8 29 00 00 00 00 00 60 62 
0.486400 1 128 Rx d 5 80 02 e4 0a 02 
0.486700 1 1e5 Rx d 8 02 ac 04 00 00 00 60 f8 
0.486900 1 1d6 Rx d 8 00 08 04 00 4a cc 0d 05 
0.487100 1 334 Rx d 8 bf 3f 0a 04 ff 01 92 d5 
0.487400 1 129 Rx d 8 c6 27 ea 5f 00 20 ff 3f 
0.487600 1 268 Rx d 5 01 01 f8 00 c0 
0.487700 1 249 Rx d 4 af 0e 00 00 
0.488000 1 279 Rx d 8 51 0c 0d 01 74 05 62 02 
0.488100 1 2b6 Rx d 3 00 03 00 
0.488300 1 3a2 Rx d 8 60 85 f2 b7 04 80 41 72 
0.488600 1 395 Rx d 8 09 0f 11 4c 0b 00 08 7d 
0.488800 1 3fd Rx d 8 00 00 00 3c 20 00 01 80 
0.489100 1 383 Rx d 8 bd 18 3d 00 4b 21 24 54 
0.489300 1 397 Rx d 8 00 00 00 d8 1d 00 00 00 
0.489500 1 400 Rx d 7 00 e0 fb be ef fb 00 
0.489700 1 443 Rx d 6 74 09 ff 03 00 00 
0.490000 1 448 Rx d 7 00 00 10 10 00 00 00 
0.490200 1 552 Rx d 8 00 00 00 00 00 00 10 67 
0.490400 1 677 Rx d 8 04 00 00 00 00 00 00 00 
0.490700 1 718 Rx d 7 04 00 00 00 00 00 00 
0.490900 1 263 Rx d 8 03 00 00 00 00 00 00 24 
0.491100 1 422 Rx d 6 70 00 10 00 00 00 
0.492100 1 2e1 Rx d 8 02 6c 7f 02 3e 62 00 00 
0.493200 1 39a Rx d 8 fc fd fd fd fd fd fd 01 
0.493500 1 132 Rx d 6 e4 87 f5 ff 20 40 
0.493800 1 401 Rx d 8 19 2a 54 80 54 80 57 80 
0.494800 1 423 Rx d 7 00 00 00 00 08 00 00 
0.495000 1 2a1 Rx d 6 00 00 98 3a 00 00 
0.495500 1 118 Rx d 8 fd 6a 32 00 00 48 00 00 
0.495700 1 7d5 Rx d 8 2b 00 00 00 00 00 00 00 
0.496000 1 1d8 Rx d 8 29 00 00 00 00 00 80 82 
0.496200 1 7d5 Rx d 8 2c 00 3f 00 00 00 00 00 
0.496500 1 266 Rx d 8 00 00 01 22 00 00 9f 01 
0.496700 1 7d5 Rx d 8 32 00 00 00 00 00 00 00 
0.497000 1 1e5 Rx d 8 02 ac 04 00 00 00 00 98 
0.497200 1 129 Rx d 8 11 28 ea 5f 00 20 ff 3f 
0.497400 1 7d7 Rx d 8 32 01 00 00 00 00 00 00 
0.497700 1 2c2 Rx d 8 55 63 a9 b6 02 00 1c a5 
0.498100 1 545 Rx d 8 01 00 00 00 00 10 50 ab 
0.500000 1 261 Rx d 8 9b 4b 0a 00 00 40 95 bb 
0.500300 1 219 Rx d 7 04 74 74 00 00 00 00 
0.500500 1 21d Rx d 8 04 00 35 00 00 00 00 00 
0.500700 1 221 Rx d 8 61 05 55 55 01 02 20 56 
0.501000 1 243 Rx d 8 04 b0 f1 ff fd 7f 68 69 
0.501200 1 25d Rx d 8 36 41 01 2a 04 f0 d8 03 
0.501400 1 262 Rx d 8 0b 00 d5 de 00 30 12 12 
0.501700 1 2c3 Rx d 8 00 00 c0 4b 01 00 80 cb 
0.501800 1 41d Rx d 1 00 
0.502000 1 420 Rx d 8 28 01 40 4b 00 00 80 04 
0.502300 1 719 Rx d 8 13 50 05 54 01 00 00 00 
0.502500 1 75d Rx d 8 80 00 00 00 00 00 00 00 
0.503500 1 132 Rx d 6 ff 87 f5 ff 20 40 
0.504100 1 2c1 Rx d 8 50 28 7e 00 3c fe 02 47 
0.504300 1 381 Rx d 8 0a 00 02 02 00 20 91 00 
0.504700 1 118 Rx d 8 fe 6b 32 00 00 48 00 00 
0.504900 1 266 Rx d 8 00 00 01 22 00 00 9f 01 
0.505200 1 257 Rx d 8 78 4e 1f 00 02 a0 0f 01 
0.505600 1 1d8 Rx d 8 29 00 00 00 00 00 a0 a2 
0.505800 1 1e5 Rx d 8 02 ac 04 00 00 00 20 b8 
0.506300 1 2c7 Rx d 8 00 00 00 00 00 00 4c ff 
0.506500 1 2a6 Rx d 8 00 00 6a 18 00 00 00 00 
0.506800 1 2a7 Rx d 8 00 00 00 00 00 70 05 84 
0.507000 1 2e2 Rx d 8 03 00 00 93 02 1b 00 80 
0.507300 1 129 Rx d 8 44 29 ea 5f 00 20 ff 3f 
0.507500 1 2f9 Rx d 8 b0 fb 07 20 00 00 00 00 
0.507700 1 3c2 Rx d 8 29 55 00 00 00 00 00 80 
0.507900 1 743 Rx d 1 00 
0.508100 1 2e1 Rx d 8 fb 19 6d 39 94 64 09 00 
0.508900 1 2e3 Rx d 7 06 00 00 00 00 00 00 
0.509100 1 201 Rx d 8 f0 e1 a1 80 22 8b f1 07 
0.510100 1 211 Rx d 6 9d 1b 71 0d 00 f1 
0.510800 1 39d Rx d 5 1e 55 01 28 00 
0.511000 1 263 Rx d 8 04 00 00 00 10 04 00 00 
0.511200 1 45a Rx d 8 fd 07 f8 ff 03 00 00 31 
0.511600 1 22a Rx d 4 00 00 c9 15 
0.511900 1 7aa Rx d 8 02 08 49 f7 e7 04 21 00 
0.512400 1 789 Rx d 4 55 19 10 80 
0.513000 1 23e Rx d 8 f4 01 3a 9d fa fc 2f 31 
0.513500 1 414 Rx d 8 12 20 20 20 20 20 20 20 
0.513700 1 132 Rx d 6 ee 87 f5 ff 20 40 
0.513800 1 1fa Rx d 3 22 c0 01 
0.514100 1 401 Rx d 8 1a 2a 56 80 55 80 53 80 
0.514300 1 3f9 Rx d 8 03 00 00 00 00 00 00 00 
0.514600 1 55a Rx d 8 05 00 00 00 00 00 00 00 
0.514700 1 666 Rx d 4 00 00 a0 00 
0.515000 1 405 Rx d 8 12 43 32 35 36 38 32 33 
0.515500 1 118 Rx d 8 ff 6c 32 00 00 48 00 00 
0.515700 1 1d8 Rx d 8 29 00 00 00 00 00 c0 c2 
0.516000 1 266 Rx d 8 00 00 01 22 00 00 9f 01 
0.516200 1 1e5 Rx d 8 02 ac 04 00 00 00 40 d8 
0.516400 1 261 Rx d 8 ec 02 18 4a 00 40 a4 2a 
0.516700 1 3a1 Rx d 8 e8 4e 0e ca 00 10 42 20 
0.516800 1 225 Rx d 4 45 55 fa 00 
0.517200 1 129 Rx d 8 a8 2a e9 5f 00 20 ff 3f 
0.518500 1 3c8 Rx d 8 06 00 00 00 00 00 00 00 
0.518700 1 25b Rx d 8 d3 c0 02 05 6a 86 a0 85 
0.519000 1 3ae Rx d 8 f5 3f 00 08 00 00 e0 1d 
0.520600 1 242 Rx d 4 55 15 86 05 
0.520800 1 243 Rx d 8 00 fc 4f 4c ce 02 41 29 
0.521100 1 3a2 Rx d 8 01 10 20 00 11 f0 ff 00 
0.521300 1 339 Rx d 8 04 e1 02 00 00 00 40 0f 
0.522800 1 22b Rx d 8 ff ff ff ff ff ff ff ff 
0.523000 1 283 Rx d 6 00 00 00 00 00 00 
0.523500 1 132 Rx d 6 f9 87 f5 ff 22 40 
0.524100 1 2e1 Rx d 8 04 00 00 80 48 44 26 00 
0.524300 1 2c1 Rx d 8 21 1b 0d 0a 02 00 00 00 
0.524500 1 2aa Rx d 3 7f 10 3b 
0.524700 1 677 Rx d 8 00 00 00 00 00 00 00 00 
0.525000 1 118 Rx d 8 00 6d 32 00 00 48 00 00 
0.525200 1 266 Rx d 8 00 00 01 22 00 00 9f 01 
0.525400 1 257 Rx d 8 79 4f 1f 00 02 a0 0f 01 
0.525700 1 1d8 Rx d 8 29 00 00 00 00 00 e0 e2 
0.525900 1 1e5 Rx d 8 02 ac 04 00 00 00 60 f8 
0.527200 1 129 Rx d 8 6a 2b ea 5f 00 20 ff 3f 
0.527700 1 360 Rx d 8 02 00 00 00 00 00 00 00 
0.528100 1 340 Rx d 8 05 00 00 00 00 00 00 00 
0.528300 1 1f9 Rx d 8 00 00 00 00 00 00 00 00 
0.528800 1 39b Rx d 8 01 0a df e0 b0 44 a1 fd 
0.529000 1 3c0 Rx d 8 02 00 00 00 00 00 00 00 
0.530400 1 788 Rx d 8 b8 c4 81 63 00 00 8a 00 
0.530800 1 234 Rx d 8 28 e1 03 80 43 00 74 de 
0.531000 1 212 Rx d 8 59 04 00 00 81 ff 77 31 
0.531300 1 252 Rx d 8 48 23 90 4a 00 fc 0f 00 
0.531500 1 263 Rx d 8 00 d0 e7 89 d4 07 55 1f 
0.531700 1 142 Rx d 8 28 00 02 59 18 00 01 00 
0.532000 1 292 Rx d 8 c7 45 27 9e 72 01 00 00 
0.532200 1 261 Rx d 8 05 22 f1 c7 9a 42 b0 61 
0.532400 1 2b3 Rx d 8 0a 2e 20 00 00 00 00 00 
0.532700 1 2d2 Rx d 8 6e 29 a8 4e c4 09 d5 14 
0.532800 1 2f2 Rx d 2 12 01 
0.533000 1 441 Rx d 8 24 85 89 00 32 00 10 dd 
0.533300 1 3ae Rx d 8 f6 3f 00 08 00 00 f1 2f 
0.533500 1 545 Rx d 8 02 00 01 00 00 00 60 ad 
0.533800 1 712 Rx d 8 04 00 00 00 00 00 00 00 
0.534000 1 132 Rx d 6 f3 87 f4 ff 20 40 
0.534200 1 201 Rx d 8 09 04 18 01 00 00 80 c4 
0.534400 1 273 Rx d 8 81 e1 10 00 c8 00 10 01 
0.534700 1 2f3 Rx d 8 0e 0e 0b 00 00 20 00 00 
0.534900 1 102 Rx d 8 22 b3 88 04 8a 0c 21 08 
0.535100 1 103 Rx d 8 22 b3 88 04 92 2c 21 02 
0.535300 1 119 Rx d 4 00 00 00 00 
0.535600 1 118 Rx d 8 01 6e 32 00 00 48 00 00 
0.535800 1 1d8 Rx d 8 29 00 00 00 00 00 00 02 
0.536000 1 266 Rx d 8 00 00 01 22 00 00 9f 01 
0.536300 1 1e5 Rx d 8 02 ac 04 00 00 00 00 98 
0.536500 1 288 Rx d 8 03 11 00 40 80 00 b1 0f 
0.536800 1 372 Rx d 8 09 00 00 00 00 f8 3f 00 
0.537000 1 3fd Rx d 8 01 00 02 00 00 08 12 80 
0.537200 1 129 Rx d 8 0a 2c ea 5f 00 20 ff 3f 
0.537500 1 401 Rx d 8 1b 2a 4d 80 51 80 51 80 
0.537600 1 229 Rx d 3 41 05 00 
0.537800 1 249 Rx d 4 ce 0f 00 00 
0.538100 1 54f Rx d 8 00 00 00 00 00 00 00 00 
0.539000 1 241 Rx d 7 29 28 54 0a 0a 45 00 
0.540000 1 2e1 Rx d 8 65 80 08 00 1e d4 8f 6a 
0.540300 1 381 Rx d 8 0b 00 00 c8 00 00 3c 06 
0.540800 1 123 Rx d 8 00 00 12 92 d2 00 00 80 
0.541100 1 243 Rx d 8 01 fc 68 00 69 00 7c 7c 
0.541700 1 122 Rx d 8 00 00 12 92 12 00 00 00 
0.542200 1 439 Rx d 8 02 00 40 00 00 14 00 00 
0.542500 1 798 Rx d 8 20 42 08 5a c4 01 10 45 
0.542900 1 2c4 Rx d 8 27 07 b0 90 81 0c af 06 
0.543200 1 204 Rx d 8 01 00 00 ff 00 00 00 10 
0.543400 1 264 Rx d 6 38 00 00 00 a0 00 
0.543600 1 132 Rx d 6 ff 87 f5 ff 22 40 
0.543800 1 224 Rx d 8 04 08 00 48 19 01 10 08 
0.544000 1 2b4 Rx d 6 22 05 9d 0d 0a 01 
0.544300 1 2c1 Rx d 8 02 0d 06 05 00 d0 92 c1 
0.544700 1 118 Rx d 8 02 6f 32 00 00 48 00 00 
0.545000 1 266 Rx d 8 00 00 01 22 00 00 9f 01 
0.545200 1 257 Rx d 8 6a 40 1f 00 02 a0 0f 01 
0.545400 1 2a4 Rx d 8 ad 8f 3d ec 71 af fd 42 
0.545700 1 1d8 Rx d 8 29 00 00 00 00 00 20 22 
0.545900 1 1e5 Rx d 8 02 ac 04 00 00 00 20 b8 
0.546100 1 364 Rx d 4 00 82 68 1f 
0.546300 1 3a4 Rx d 8 01 00 00 00 00 00 00 00 
0.546800 1 3a3 Rx d 8 00 d0 00 00 38 03 fc 01 
0.547200 1 129 Rx d 8 18 2d ea 5f 00 20 ff 3f 
0.547400 1 797 Rx d 4 15 0d 10 cd 
0.548100 1 261 Rx d 8 00 10 fc ff d2 4c c0 df 
0.548500 1 2a8 Rx d 8 02 11 00 00 06 80 b0 f3 
0.548700 1 272 Rx d 8 06 00 f1 88 07 48 06 08 
0.550100 1 2f1 Rx d 8 32 10 00 82 00 01 00 00 
0.550300 1 221 Rx d 8 60 55 55 05 54 51 31 08 
0.550900 1 263 Rx d 8 01 d0 bf b1 8c c7 54 1f 
0.551000 1 39d Rx d 5 1f 56 01 28 00 
0.551300 1 719 Rx d 8 03 00 00 00 00 00 00 00 
0.552800 1 393 Rx d 8 06 00 f0 88 07 48 06 08 
0.553100 1 23e Rx d 8 f4 01 3a 9d fa fc 3f 41 
0.553500 1 3e8 Rx d 8 06 00 00 00 00 00 00 00 
0.553700 1 132 Rx d 6 f0 87 f5 ff 25 40 
0.554000 1 3a2 Rx d 8 b2 29 00 00 22 00 00 00 
0.554200 1 401 Rx d 8 1c 2a 51 80 51 80 51 80 
0.554400 1 428 Rx d 7 00 00 10 10 00 00 00 
0.555500 1 118 Rx d 8 f3 60 32 00 00 48 00 00 
0.555700 1 282 Rx d 8 00 00 00 00 e8 23 0b 24 
0.556000 1 1d8 Rx d 8 29 00 00 00 00 00 40 42 
0.556200 1 266 Rx d 8 00 00 01 22 00 00 9f 01 
0.556400 1 2e1 Rx d 8 10 21 04 00 12 00 20 08 
0.556700 1 1e5 Rx d 8 02 ac 04 00 00 00 40 d8 
0.556900 1 3c2 Rx d 8 00 55 55 55 00 00 5a 45 
0.557100 1 3e2 Rx d 7 00 00 80 1a 00 c0 04 
0.557400 1 129 Rx d 8 c7 2e ea 5f 00 20 ff 3f 
0.558200 1 379 Rx d 8 0b 00 00 00 00 00 17 0a 
0.558900 1 20c Rx d 8 00 c0 56 1e 00 d0 08 00 
0.559100 1 201 Rx d 8 82 02 00 00 00 00 98 3b 
0.559400 1 2ec Rx d 3 7f 10 7d 
0.560800 1 243 Rx d 8 02 ac f1 12 00 5a 00 00 
0.561100 1 3f5 Rx d 8 00 00 c8 08 82 04 00 00 
0.561300 1 45a Rx d 8 a0 53 53 d3 3f 36 00 68 
0.562400 1 113 Rx d 3 01 97 01 
0.562600 1 1f8 Rx d 4 00 00 00 00 
0.562800 1 318 Rx d 8 1a 08 1a 06 1b 07 2d ac 
0.563100 1 458 Rx d 7 00 00 00 00 40 00 00 
0.563200 1 7f4 Rx d 1 01 
0.563400 1 7ff Rx d 8 05 09 20 41 20 04 81 00 
0.563600 1 132 Rx d 6 ed 87 f6 ff 24 40 
0.564100 1 261 Rx d 8 31 00 0b 00 6f 49 d8 c2 
0.564300 1 2c1 Rx d 8 2b 17 13 00 00 00 00 00 
0.564600 1 545 Rx d 8 20 02 31 e0 96 61 79 ed 
0.564800 1 118 Rx d 8 f4 61 32 00 00 48 00 00 
0.565000 1 4e3 Rx d 8 01 e3 06 00 00 00 28 29 
0.565200 1 139 Rx d 1 00 
0.565400 1 266 Rx d 8 00 00 01 22 00 00 9f 01 
0.565700 1 677 Rx d 8 01 00 00 00 00 00 00 00 
0.565900 1 1d8 Rx d 8 29 00 00 00 00 00 60 62 
0.566100 1 3a1 Rx d 8 a9 8d 40 f5 3d 00 50 b8 
0.566400 1 257 Rx d 8 6b 41 1f 00 02 a0 0f 01 
0.566600 1 6a2 Rx d 5 00 00 00 00 00 
0.566800 1 1e5 Rx d 8 02 ac 04 00 00 00 60 f8 
0.567000 1 7a8 Rx d 8 b4 bc 71 63 00 00 82 00 
0.567300 1 129 Rx d 8 36 2f ea 5f 00 20 ff 3f 
0.567500 1 78a Rx d 8 01 00 02 00 65 06 66 06 
0.569700 1 289 Rx d 8 a6 02 01 80 98 00 3d 0f 
0.569900 1 682 Rx d 8 00 00 00 40 05 02 30 57 
0.570800 1 343 Rx d 8 00 92 5c 2e 97 00 00 00 
0.571100 1 263 Rx d 8 02 00 00 00 00 00 00 00 
0.571400 1 228 Rx d 8 03 11 00 40 80 00 b1 af 
0.572000 1 2d1 Rx d 2 7f 01 
0.572200 1 2e1 Rx d 8 39 8d 55 af 1f 28 00 00 
0.572400 1 37a Rx d 8 03 00 00 00 00 00 00 00 
0.572800 1 22b Rx d 8 ff ff ff ff ff ff ff ff 
0.573100 1 3ae Rx d 8 f6 3f 00 08 00 00 01 3f 
0.573500 1 132 Rx d 6 ec 87 f5 ff 23 40 
0.573800 1 401 Rx d 8 1d 2a 51 80 55 80 54 80 
0.575500 1 118 Rx d 8 f5 62 32 00 00 48 00 00 
0.575700 1 1d8 Rx d 8 29 00 00 00 00 00 80 82 
0.576000 1 266 Rx d 8 00 00 01 22 00 00 9f 01 
0.576200 1 1e5 Rx d 8 02 ac 04 00 00 00 00 98 
0.576400 1 381 Rx d 8 0c 20 00 19 99 c2 00 06 
0.576700 1 4e2 Rx d 8 01 c9 06 ff 0f 00 a8 28 
0.577000 1 3c3 Rx d 8 00 00 00 00 00 45 00 00 
0.577200 1 129 Rx d 8 e0 20 e9 5f 00 20 ff 3f 
0.577400 1 3e3 Rx d 4 00 00 00 00 
0.577600 1 7b8 Rx d 8 38 c2 08 7b 50 02 10 f9 
0.579200 1 359 Rx d 8 8c 3f f3 11 e2 ea 00 0c 
0.580000 1 261 Rx d 8 12 29 57 02 80 5c e2 48 
0.580700 1 234 Rx d 8 22 30 02 28 a1 04 80 3c 
0.580900 1 243 Rx d 8 03 00 00 00 43 62 1e 00 
0.581700 1 142 Rx d 8 01 00 40 0a c0 1b 00 00 
0.582100 1 441 Rx d 8 25 00 b6 c3 58 00 15 74 
0.582800 1 553 Rx d 8 00 00 00 00 00 00 20 78 
0.583100 1 421 Rx d 7 00 14 00 00 00 d0 48 
0.583200 1 409 Rx d 1 00 
0.583400 1 419 Rx d 1 00 
0.583600 1 132 Rx d 6 ea 87 f5 ff 20 40 
0.583800 1 2e8 Rx d 8 02 11 00 00 06 80 80 03 
0.584100 1 294 Rx d 8 14 c1 40 00 00 00 00 00 
0.584300 1 201 Rx d 8 83 02 00 00 00 00 b8 3b 
0.584500 1 2bf Rx d 7 0a 00 00 00 00 10 01 
0.584800 1 118 Rx d 8 f6 63 32 00 00 48 00 00 
0.584900 1 20e Rx d 3 13 03 00 
0.585200 1 266 Rx d 8 00 00 01 22 00 00 9f 01 
0.585400 1 257 Rx d 8 6c 42 1f 00 02 a0 0f 01 
0.585600 1 108 Rx d 8 23 0d 00 02 00 ff ff 0d 
0.585900 1 1d8 Rx d 8 29 00 00 00 00 00 a0 a2 
0.586100 1 126 Rx d 5 01 b0 1d 68 5d 
0.586300 1 1e5 Rx d 8 02 ac 04 00 00 00 20 b8 
0.586500 1 128 Rx d 5 80 02 e4 0a 02 
0.586700 1 1d6 Rx d 8 00 08 04 00 4a 4c 0e 05 
0.587000 1 2c1 Rx d 8 04 00 10 0e 0a 11 08 14 
0.587200 1 268 Rx d 5 01 01 f8 00 c0 
0.587400 1 129 Rx d 8 c4 21 ea 5f 00 20 ff 3f 
0.587600 1 279 Rx d 8 52 0d 0d 01 74 05 62 02 
0.587800 1 249 Rx d 4 9b 00 00 00 
0.587900 1 2b6 Rx d 3 00 03 00 
0.588200 1 2e1 Rx d 8 02 6c 7f 02 3e 62 00 00 
0.588400 1 361 Rx d 5 34 0e 1f 03 01 
0.588600 1 395 Rx d 8 09 0f 11 4c 0b 00 08 7d 
0.588800 1 397 Rx d 8 00 00 00 d8 1d 00 00 00 
0.589100 1 383 Rx d 8 bd 18 3d 00 4b 21 24 54 
0.589300 1 3a2 Rx d 8 60 85 f2 b7 1c 80 41 72 
0.589500 1 3fd Rx d 8 02 00 00 00 00 00 00 90 
0.589800 1 400 Rx d 7 00 e0 fb be ef fb 00 
0.590000 1 448 Rx d 7 00 00 10 10 00 00 00 
0.590200 1 552 Rx d 8 00 00 00 00 00 00 20 77 
0.590500 1 6e8 Rx d 8 94 62 00 12 04 00 00 00 
0.590700 1 422 Rx d 6 70 00 10 00 00 00 
0.590900 1 263 Rx d 8 03 00 00 00 00 00 00 24 
0.591200 1 2b3 Rx d 8 0b ff 9f f0 2f e0 16 00 
0.591400 1 20a Rx d 6 f6 15 09 82 18 01 
0.591900 1 39d Rx d 5 20 57 01 28 00 
0.592300 1 7aa Rx d 8 23 52 f7 ef 04 13 00 1c 
0.593200 1 39a Rx d 8 fd fd fd fd fd 01 00 00 
0.593400 1 23e Rx d 8 f4 01 3a 9d fa fc 4f 51 
0.593600 1 132 Rx d 6 ec 87 f5 ff 23 40 
0.593900 1 320 Rx d 8 03 00 00 00 00 00 00 00 
0.594100 1 372 Rx d 8 0a 01 40 06 00 00 00 82 
0.594400 1 3c9 Rx d 8 02 81 f3 de 61 00 00 00 
0.594600 1 401 Rx d 8 1e 2a 52 80 54 80 53 80 
0.594800 1 423 Rx d 7 00 00 00 00 08 00 00 
0.595000 1 2a1 Rx d 6 00 00 98 3a 00 00 
0.595500 1 118 Rx d 8 f7 64 32 00 00 48 00 00 
0.595700 1 7d5 Rx d 8 2b 00 00 00 00 00 00 00 
0.596000 1 1d8 Rx d 8 29 00 00 00 00 00 c0 c2 
0.596200 1 261 Rx d 8 9b 4b 0a 00 00 40 f5 1b 
0.596400 1 266 Rx d 8 00 00 01 22 00 00 9f 01 
0.596700 1 7d5 Rx d 8 2c 00 3e 00 00 00 00 00 
0.596900 1 1e5 Rx d 8 02 ac 04 00 00 00 40 d8 
0.597200 1 545 Rx d 8 01 00 00 00 00 10 80 db 
0.597400 1 129 Rx d 8 8d 22 ea 5f 00 20 ff 3f 
0.597700 1 7d5 Rx d 8 32 00 00 00 00 00 00 00 
0.597900 1 2c2 Rx d 8 20 40 80 20 01 00 80 cb 
0.598100 1 7d7 Rx d 8 32 01 00 00 00 00 00 00 
0.599800 1 41d Rx d 1 00 
0.600100 1 221 Rx d 8 61 05 55 55 01 02 40 76 
0.600300 1 219 Rx d 7 05 00 6d 6d 6d 6d 00 
0.600500 1 21d Rx d 8 04 00 35 00 00 00 00 00 
0.600800 1 25d Rx d 8 36 41 01 2a 04 f0 d8 03 
0.601000 1 243 Rx d 8 04 b0 f1 ff fd 7f 68 69 
0.601200 1 2c3 Rx d 8 55 5b a9 b6 02 00 12 a5 
0.601500 1 420 Rx d 8 28 01 40 4b 00 00 00 05 
0.601700 1 719 Rx d 8 14 00 00 00 00 00 00 00 
0.602900 1 3f1 Rx d 8 03 00 00 00 00 00 00 00 
0.603500 1 132 Rx d 6 f8 87 f5 ff 22 40 
0.604100 1 2e1 Rx d 8 fb 19 6c 39 94 60 09 00 
0.604300 1 2c1 Rx d 8 50 28 7e 00 3c 0e 03 47 
0.604600 1 677 Rx d 8 02 00 00 00 00 00 00 00 
0.604800 1 118 Rx d 8 f8 65 32 00 00 48 00 00 
0.605000 1 266 Rx d 8 00 00 01 22 00 00 9f 01 
0.605300 1 257 Rx d 8 6d 43 1f 00 02 a0 0f 01 
0.605600 1 1d8 Rx d 8 29 00 00 00 00 00 e0 e2 
0.605900 1 1e5 Rx d 8 02 ac 04 00 00 00 60 f8 
0.606300 1 2c7 Rx d 8 00 00 00 00 00 00 4c ff 
0.606500 1 2a6 Rx d 8 00 00 6a 18 00 00 00 00 
0.606800 1 2a7 Rx d 8 00 00 00 00 00 70 05 84 
0.607000 1 3a8 Rx d 8 00 ff 01 7f 00 00 00 00 
0.607300 1 129 Rx d 8 9a 23 ea 5f 00 20 ff 3f 
0.607500 1 2f9 Rx d 8 b0 fb 07 28 00 00 00 00 
0.607800 1 3c2 Rx d 8 29 55 00 00 00 00 00 80 
0.608100 1 3ae Rx d 8 f5 3f 00 08 00 00 11 4e 
0.609100 1 201 Rx d 8 f0 e1 99 80 22 8b f1 07 
0.610100 1 211 Rx d 6 9e 1c 71 0d 00 f1 
0.610900 1 263 Rx d 8 04 00 00 00 10 04 00 00 
0.611100 1 45a Rx d 8 fd 07 f8 ff 03 00 00 31 
0.611600 1 22a Rx d 4 00 00 c9 15 
0.612100 1 261 Rx d 8 ec 02 18 4a 00 40 04 8a 
0.612300 1 381 Rx d 8 4d 83 01 e7 00 20 6b 05 
0.612500 1 789 Rx d 4 55 19 20 90 
0.613500 1 132 Rx d 6 ea 87 f5 ff 22 40 
0.613700 1 1fa Rx d 3 22 c0 01 
0.613900 1 401 Rx d 8 1f 2a 51 80 4a 80 4c 80 
0.614200 1 3f9 Rx d 8 04 00 00 00 00 00 00 00 
0.615500 1 118 Rx d 8 f9 66 32 00 00 48 00 00 
0.615700 1 1d8 Rx d 8 29 00 00 00 00 00 00 02 
0.616000 1 266 Rx d 8 00 00 01 22 00 00 9f 01 
0.616200 1 1e5 Rx d 8 02 ac 04 00 00 00 00 98 
0.616400 1 3a1 Rx d 8 e8 4e 0e ca 00 0c 62 3c 
0.616800 1 225 Rx d 4 45 55 fa 00 
0.617200 1 129 Rx d 8 2f 24 e9 5f 00 20 ff 3f 
0.618000 1 25b Rx d 8 d3 c0 02 05 6a 86 b0 95 
0.618500 1 3c8 Rx d 8 00 00 00 00 00 00 00 00 
0.619700 1 3a2 Rx d 8 01 20 20 00 14 f0 ff 00 
0.620100 1 2e1 Rx d 8 04 00 00 80 48 44 26 00 
0.620600 1 242 Rx d 4 55 15 86 05 
0.620800 1 243 Rx d 8 00 fc 4f 4c ce 02 41 29 
0.621400 1 339 Rx d 8 04 e1 02 00 00 00 40 0f 
0.622800 1 22b Rx d 8 ff ff ff ff ff ff ff ff 
0.623000 1 283 Rx d 6 00 00 00 00 00 00 
0.623500 1 132 Rx d 6 ee 87 f4 ff 23 40 
0.624100 1 2c1 Rx d 8 21 1b 0d 0a 02 00 00 00 
0.624400 1 2aa Rx d 3 7f 20 4b 
0.624700 1 118 Rx d 8 fa 67 32 00 00 48 00 00 
0.625000 1 266 Rx d 8 00 00 01 22 00 00 9f 01 
0.625200 1 257 Rx d 8 6e 44 1f 00 02 a0 0f 01 
0.625600 1 1d8 Rx d 8 29 00 00 00 00 00 20 22 
0.625800 1 1e5 Rx d 8 02 ac 04 00 00 00 20 b8 
0.627200 1 129 Rx d 8 0b 25 ea 5f 00 20 ff 3f 
0.627700 1 360 Rx d 8 03 00 00 00 00 00 00 00 
0.628100 1 340 Rx d 8 06 00 00 00 00 00 00 00 
0.628300 1 1f9 Rx d 8 00 00 00 00 00 00 00 00 
0.628600 1 261 Rx d 8 05 22 f1 c7 9a 42 10 c1 
0.628900 1 3c0 Rx d 8 03 00 00 00 00 00 00 00 
0.630100 1 545 Rx d 8 02 00 01 00 00 00 90 dd 
0.630500 1 788 Rx d 8 01 00 00 00 ff a1 d8 12 
0.630700 1 212 Rx d 8 59 04 00 00 81 ff 77 31 
0.631000 1 252 Rx d 8 48 23 90 4a 00 fc 0f 00 
0.631200 1 234 Rx d 8 28 e1 03 80 43 00 94 fe 
0.631400 1 263 Rx d 8 00 d0 e7 89 d4 07 55 1f 
0.631700 1 292 Rx d 8 c7 45 27 9e 72 01 00 00 
0.631900 1 142 Rx d 8 28 00 02 59 18 00 01 00 
0.632100 1 2d2 Rx d 8 6e 29 a8 4e c4 09 d5 14 
0.632300 1 2f2 Rx d 2 12 01 
0.632500 1 312 Rx d 8 f1 81 c7 14 1c 8d 00 00 
0.632700 1 392 Rx d 8 01 1c a9 67 10 27 02 00 
0.632900 1 39d Rx d 5 21 58 01 28 00 
0.633200 1 23e Rx d 8 f4 01 3a 9d fa fc 5f 61 
0.633400 1 441 Rx d 8 24 85 89 00 32 00 18 e5 
0.633600 1 712 Rx d 8 05 00 00 00 00 00 00 00 
0.633800 1 132 Rx d 6 ed 87 f5 ff 22 40 
0.634100 1 238 Rx d 8 b0 2b 9c d0 1f 00 76 16 
0.634300 1 201 Rx d 8 09 04 18 01 00 00 80 c4 
0.634600 1 3ae Rx d 8 f5 3f 00 08 00 00 20 5d 
0.634800 1 102 Rx d 8 22 b3 88 04 8a 0c 21 08 
0.635000 1 103 Rx d 8 22 b3 88 04 92 2c 21 02 
0.635200 1 119 Rx d 4 00 00 00 00 
0.635400 1 401 Rx d 8 20 2a 49 80 4d 80 4e 80 
0.635700 1 118 Rx d 8 fb 68 32 00 00 48 00 00 
0.635900 1 1d8 Rx d 8 29 00 00 00 00 00 40 42 
0.636200 1 266 Rx d 8 00 00 01 22 00 00 9f 01 
0.636400 1 2e1 Rx d 8 65 80 08 00 1e d4 8f 6a 
0.636600 1 1e5 Rx d 8 02 ac 04 00 00 00 40 d8 
0.636900 1 288 Rx d 8 03 11 00 40 80 00 c1 1f 
0.637100 1 61d Rx d 8 0e 14 8a 34 ac 36 16 08 
0.637300 1 129 Rx d 8 e2 26 e9 5f 00 20 ff 3f 
0.637500 1 229 Rx d 3 dd 06 00 
0.637700 1 249 Rx d 4 e8 01 00 00 
0.637900 1 330 Rx d 8 12 4d 38 39 30 36 31 33 
0.638200 1 54f Rx d 8 00 00 00 00 00 00 00 00 
0.638900 1 3ae Rx d 8 f6 3f 00 08 00 00 30 6e 
0.639200 1 241 Rx d 7 29 28 54 0a 0a 45 00 
0.640800 1 123 Rx d 8 01 00 00 00 00 3f 00 00 
0.641100 1 243 Rx d 8 01 fc 68 00 69 00 7c 7c 
0.641700 1 122 Rx d 8 01 00 00 00 00 3f 00 00 
0.642200 1 439 Rx d 8 02 00 40 00 00 14 00 00 
0.642500 1 798 Rx d 8 a1 d6 02 43 0c 01 20 95 
0.642800 1 31a Rx d 8 60 fc ff 02 00 00 90 0a 
0.643100 1 2c4 Rx d 8 68 36 00 83 a1 00 23 a5 
0.643300 1 204 Rx d 8 01 00 00 ff 00 00 00 10 
0.643500 1 264 Rx d 6 38 00 00 00 a0 00 
0.643700 1 132 Rx d 6 f1 87 f5 ff 22 40 
0.644000 1 224 Rx d 8 04 08 00 48 19 01 10 08 
0.644200 1 261 Rx d 8 00 10 fc ff d2 4c 20 3f 
0.644400 1 2b4 Rx d 6 26 05 9d 0d 09 01 
0.644600 1 2c1 Rx d 8 02 0d 06 05 00 d0 92 c1 
0.644900 1 118 Rx d 8 fc 69 32 00 00 48 00 00 
0.645100 1 266 Rx d 8 00 00 01 22 00 00 9f 01 
0.645400 1 257 Rx d 8 6f 45 1f 00 02 a0 0f 01 
0.645600 1 677 Rx d 8 03 00 00 00 00 00 00 00 
0.645900 1 1d8 Rx d 8 29 00 00 00 00 00 60 62 
0.646100 1 1e5 Rx d 8 02 ac 04 00 00 00 60 f8 
0.646800 1 3a3 Rx d 8 00 d0 00 00 38 03 fc 01 
0.647200 1 129 Rx d 8 f5 27 e9 5f 00 20 ff 3f 
0.647400 1 797 Rx d 4 15 0d 20 dd 
0.648100 1 381 Rx d 8 8e ef fb a4 c1 47 48 00 
0.648500 1 2a8 Rx d 8 02 11 00 00 06 80 c0 03 
0.648700 1 272 Rx d 8 09 80 63 00 00 00 00 00 
0.648900 1 382 Rx d 5 46 1b 29 00 00 
0.650100 1 2f1 Rx d 8 00 12 3b 81 41 00 0c 00 
0.650300 1 221 Rx d 8 60 55 55 05 54 51 51 28 
0.650900 1 263 Rx d 8 01 d0 bf b1 8c c7 54 1f 
0.651100 1 2b3 Rx d 8 0c 00 80 71 b0 49 53 00 
0.651300 1 42a Rx d 8 4b d5 62 35 55 2d 55 aa 
0.651600 1 719 Rx d 8 15 00 00 00 00 00 00 00 
0.652100 1 2e1 Rx d 8 10 21 04 00 12 00 20 08 
0.652700 1 3a2 Rx d 8 b2 29 00 00 22 00 00 00 
0.652900 1 393 Rx d 8 09 80 63 00 00 00 00 00 
0.653500 1 3e8 Rx d 8 00 00 00 00 00 00 00 00 
0.653700 1 132 Rx d 6 ee 87 f5 ff 22 40 
0.654000 1 232 Rx d 8 8a 00 de 09 e0 04 00 00 
0.654200 1 372 Rx d 8 0b ec ff 40 00 65 66 00 
0.654400 1 401 Rx d 8 21 2a 4d 80 4c 80 4e 80 
0.654700 1 428 Rx d 7 00 00 10 10 00 00 00 
0.655500 1 118 Rx d 8 fd 6a 32 00 00 48 00 00 
0.655700 1 282 Rx d 8 00 00 00 00 e8 23 0b 24 
0.656000 1 1d8 Rx d 8 29 00 00 00 00 00 80 82 
0.656200 1 266 Rx d 8 00 00 01 22 00 00 9f 01 
0.656400 1 1e5 Rx d 8 02 ac 04 00 00 00 00 98 
0.656700 1 40a Rx d 8 09 00 01 00 00 00 90 a8 
0.657000 1 3c2 Rx d 8 00 55 55 55 00 00 5a 45 
0.657200 1 129 Rx d 8 11 28 ea 5f 00 20 ff 3f 
0.658200 1 379 Rx d 8 00 00 09 48 33 bf 21 00 
0.658800 1 20c Rx d 8 00 c0 56 1e 00 d0 08 00 
0.659100 1 201 Rx d 8 82 02 00 00 00 00 98 3b 
0.659400 1 2ec Rx d 3 7f 20 8d 
0.660100 1 261 Rx d 8 31 00 06 00 6f 49 38 1d 
0.660800 1 243 Rx d 8 02 ac f1 12 00 5a 00 00 
0.661100 1 3f5 Rx d 8 00 00 c8 08 82 04 00 00 
0.661300 1 45a Rx d 8 a0 d3 d3 d3 3f 36 00 68 
0.662400 1 113 Rx d 3 01 97 01 
0.662600 1 1f8 Rx d 4 00 00 00 00 
0.662900 1 318 Rx d 8 1a 08 1a 06 1b 07 2f ae 
0.663100 1 458 Rx d 7 00 00 00 00 40 00 00 
0.663300 1 3ae Rx d 8 f5 3f 00 08 00 00 40 7d 
0.663500 1 545 Rx d 8 d0 01 2c 30 97 67 a9 1e 
0.663700 1 132 Rx d 6 f0 87 f5 ff 23 40 
0.663900 1 7f4 Rx d 1 01 
0.664100 1 2c1 Rx d 8 2b 17 13 00 00 00 00 00 
0.664400 1 7ff Rx d 8 06 84 32 00 00 00 08 c0 
0.664500 1 6a2 Rx d 5 00 00 00 00 00 
0.664800 1 118 Rx d 8 fe 6b 32 00 00 48 00 00 
0.665000 1 4e3 Rx d 8 02 7e 00 00 00 00 a8 03 
0.665100 1 139 Rx d 1 00 
0.665400 1 266 Rx d 8 00 00 01 22 00 00 9f 01 
0.665600 1 1d8 Rx d 8 29 00 00 00 00 00 a0 a2 
0.665900 1 7a8 Rx d 8 01 00 00 00 ff a1 d8 12 
0.666100 1 257 Rx d 8 70 46 1f 00 02 a0 0f 01 
0.666300 1 1e5 Rx d 8 02 ac 04 00 00 00 20 b8 
0.666600 1 3a1 Rx d 8 a9 8d 40 01 3e 00 70 e5 
0.666800 1 78a Rx d 8 01 00 03 00 a5 04 7b 02 
0.667200 1 129 Rx d 8 77 29 e9 5f 00 20 ff 3f 
0.668100 1 2e1 Rx d 8 39 8d 55 af 1f 28 00 00 
0.669700 1 289 Rx d 8 a6 02 01 40 8c 00 3d 0f 
0.669900 1 682 Rx d 8 00 00 00 40 05 02 40 67 
0.670600 1 39d Rx d 5 22 59 01 28 00 
0.670800 1 343 Rx d 8 00 92 5c fe 96 00 00 00 
0.671100 1 263 Rx d 8 02 00 00 00 00 00 00 00 
0.671500 1 228 Rx d 8 03 11 00 40 80 00 c1 bf 
0.671900 1 7aa Rx d 8 04 00 0f c0 00 1a 00 00 
0.672000 1 2d1 Rx d 2 7f 01 
0.672300 1 37a Rx d 8 00 00 7c 5b 49 00 00 01 
0.672900 1 22b Rx d 8 ff ff ff ff ff ff ff ff 
0.673100 1 23e Rx d 8 f4 01 3a 9d fa fc 6f 71 
0.673500 1 132 Rx d 6 f6 87 f5 ff 22 40 
0.673800 1 401 Rx d 8 22 2a 57 80 55 80 57 80 
0.675500 1 118 Rx d 8 ff 6c 32 00 00 48 00 00 
0.675700 1 1d8 Rx d 8 29 00 00 00 00 00 c0 c2 
0.676000 1 266 Rx d 8 00 00 01 22 00 00 9f 01 
0.676200 1 1e5 Rx d 8 02 ac 04 00 00 00 40 d8 
0.676400 1 261 Rx d 8 12 29 57 02 80 5c 42 a8 
0.676800 1 4e2 Rx d 8 02 a6 03 00 00 00 28 1a 
0.676900 1 323 Rx d 5 3c 15 21 01 02 
0.677200 1 3c3 Rx d 8 55 55 55 01 00 80 43 00 
0.677400 1 129 Rx d 8 a8 2a e9 5f 00 20 ff 3f 
0.677600 1 7b8 Rx d 8 79 d6 02 8c 04 00 20 1b 
0.679200 1 359 Rx d 8 0d 00 00 00 00 00 00 00 
0.680700 1 234 Rx d 8 24 30 02 29 a5 04 a0 63 
0.681000 1 243 Rx d 8 03 00 00 00 43 62 1e 00 
0.681700 1 142 Rx d 8 01 00 40 0a c0 1b 00 00 
0.682100 1 441 Rx d 8 25 00 b6 c3 58 00 1d 7c 
0.682800 1 553 Rx d 8 00 00 00 00 00 00 30 88 
0.683100 1 421 Rx d 7 00 14 00 00 00 d0 48 
0.683200 1 409 Rx d 1 00 
0.683400 1 419 Rx d 1 00 
0.683600 1 132 Rx d 6 f8 87 f5 ff 22 40 
0.683800 1 2e8 Rx d 8 02 11 00 00 06 80 90 13 
0.683900 1 1bb Rx d 1 02 
0.684200 1 2c1 Rx d 8 04 00 10 0e 0a 11 08 14 
0.684400 1 201 Rx d 8 83 02 00 00 00 00 b8 3b 
0.684700 1 284 Rx d 8 30 00 00 00 40 08 20 1e 
0.684900 1 118 Rx d 8 00 6d 32 00 00 48 00 00 
0.685100 1 20e Rx d 3 14 04 00 
0.685300 1 266 Rx d 8 00 00 01 22 00 00 9f 01 
0.685500 1 108 Rx d 8 27 0e 00 02 00 01 00 0d 
0.685800 1 257 Rx d 8 71 47 1f 00 02 a0 0f 01 
0.686000 1 126 Rx d 5 01 b0 1d 70 65 
0.686200 1 1d8 Rx d 8 29 00 00 00 00 00 e0 e2 
0.686400 1 128 Rx d 5 80 02 e4 0a 02 
0.686600 1 1e5 Rx d 8 02 ac 04 00 00 00 60 f8 
0.686900 1 1d6 Rx d 8 00 08 04 00 4a cc 0e 05 
0.687100 1 268 Rx d 5 01 01 f8 00 c0 
0.687300 1 129 Rx d 8 59 2b e9 5f 00 20 ff 3f 
0.687500 1 279 Rx d 8 53 0e 0d 01 74 05 62 02 
0.687700 1 249 Rx d 4 2a 02 00 00 
0.687800 1 2b6 Rx d 3 00 1b 00 
0.688100 1 2e1 Rx d 8 02 6c 7f 02 3e 62 00 00 
0.688300 1 381 Rx d 8 cf 73 37 70 00 00 3b 06 
0.688500 1 395 Rx d 8 09 0f 11 4c 0a 00 08 7d 
0.688800 1 397 Rx d 8 00 00 00 d8 1d 00 00 00 
0.689000 1 383 Rx d 8 bd 18 3d 00 4b 21 24 54 
0.689300 1 3a2 Rx d 8 60 85 72 b9 1c 80 41 72 
0.689500 1 400 Rx d 7 00 e0 fb be ef fb 00 
0.689700 1 448 Rx d 7 00 00 10 10 00 00 00 
0.690000 1 552 Rx d 8 00 00 00 00 00 00 30 87 
0.690200 1 677 Rx d 8 04 00 00 00 00 00 00 00 
0.690400 1 718 Rx d 7 00 00 00 00 00 00 00 
0.690700 1 737 Rx d 7 04 00 00 00 e0 f0 80 
0.690900 1 263 Rx d 8 03 00 00 00 00 00 00 24 
0.691100 1 422 Rx d 6 70 00 10 00 00 00 
0.692100 1 261 Rx d 8 9b 4b 0a 00 00 40 55 7b 
0.692300 1 3ae Rx d 8 f6 3f 00 08 00 00 50 8e 
0.693200 1 39a Rx d 8 fc fd fd fd fd fd fd 01 
0.693600 1 132 Rx d 6 f6 87 f5 ff 22 40 
0.693800 1 401 Rx d 8 23 02 57 80 00 00 00 00 
0.694800 1 423 Rx d 7 00 00 00 00 08 00 00 
0.695100 1 2a1 Rx d 6 00 00 98 3a 00 00 
0.695500 1 118 Rx d 8 01 6e 32 00 00 48 00 00 
0.695700 1 7d5 Rx d 8 2b 00 00 00 00 00 00 00 
0.696000 1 1d8 Rx d 8 29 00 00 00 00 00 00 02 
0.696200 1 545 Rx d 8 01 00 00 00 00 10 b0 0b 
0.696400 1 266 Rx d 8 00 00 01 22 00 00 9f 01 
0.696700 1 7d5 Rx d 8 2c 00 3e 00 00 00 00 00 
0.696900 1 1e5 Rx d 8 02 ac 04 00 00 00 00 98 
0.697200 1 7d5 Rx d 8 32 00 00 00 00 00 00 00 
0.697400 1 129 Rx d 8 0a 2c ea 5f 00 20 ff 3f 
0.697700 1 7d7 Rx d 8 32 01 00 00 00 00 00 00 
0.697900 1 2c2 Rx d 8 55 63 a9 b6 02 00 1c a5 
0.700000 1 2e1 Rx d 8 fb 19 6e 39 94 61 09 00 
0.700300 1 219 Rx d 7 00 80 4a 4a 97 98 04 
0.700500 1 21d Rx d 8 04 00 35 00 00 00 00 00 
0.700700 1 221 Rx d 8 61 05 55 55 01 02 60 96 
0.701000 1 243 Rx d 8 04 b0 f1 ff fd 7f 68 69 
0.701200 1 25d Rx d 8 36 41 01 2a 04 f0 d8 03 
0.701400 1 2c3 Rx d 8 00 00 c0 4b 01 00 80 cb 
0.701700 1 34a Rx d 8 02 07 00 00 00 00 00 90 
0.701800 1 41d Rx d 1 00 
0.702000 1 420 Rx d 8 28 01 40 4b 00 00 80 05 
0.702300 1 43b Rx d 8 00 7f 04 ff 00 00 00 00 
0.702500 1 719 Rx d 8 16 00 00 00 00 00 00 00 
0.702800 1 75d Rx d 8 01 00 00 00 00 00 20 a2 
0.703500 1 132 Rx d 6 fc 87 f5 ff 23 40 
0.704100 1 2c1 Rx d 8 50 28 7e 00 3c 0e 03 47 
0.704700 1 118 Rx d 8 02 6f 32 00 00 48 00 00 
0.704900 1 266 Rx d 8 00 00 01 22 00 00 9f 01 
0.705200 1 257 Rx d 8 72 48 1f 00 02 a0 0f 01 
0.705600 1 1d8 Rx d 8 29 00 00 00 00 00 20 22 
0.705800 1 1e5 Rx d 8 02 ac 04 00 00 00 20 b8 
0.706300 1 2c7 Rx d 8 00 00 00 00 00 00 4c ff 
0.706500 1 2a6 Rx d 8 00 00 6a 18 00 00 00 00 
0.706800 1 2a7 Rx d 8 00 00 00 00 00 70 05 84 
0.707000 1 2e2 Rx d 8 04 00 00 8f 02 1b 00 80 
0.707300 1 129 Rx d 8 2b 2d e9 5f 00 20 ff 3f 
0.707500 1 2f9 Rx d 8 b0 fb 07 01 9f a0 6f b2 
0.707700 1 3c2 Rx d 8 29 55 00 00 00 00 00 80 
0.708100 1 261 Rx d 8 ec 02 18 4a 00 40 64 ea 
0.708900 1 2e3 Rx d 7 f7 d3 4f 3f 99 b0 06 
0.709100 1 201 Rx d 8 f0 e1 99 80 22 8b f1 07 
0.710300 1 211 Rx d 6 9f 1d 71 0d 00 f1 
0.710700 1 39d Rx d 5 23 5a 01 28 00 
0.710900 1 263 Rx d 8 04 00 00 00 10 04 00 00 
0.711200 1 2b3 Rx d 8 0d 05 a0 94 6a 42 35 a2 
0.711400 1 45a Rx d 8 fd 07 f8 ff 03 00 00 31 
0.711700 1 22a Rx d 4 00 00 c9 15 
0.712400 1 789 Rx d 4 55 19 30 a0 
0.713000 1 23e Rx d 8 f4 01 3a 9d fa fc 7f 81 
0.713200 1 3ae Rx d 8 f5 3f 00 08 00 00 60 9d 
0.713500 1 132 Rx d 6 ef 87 f5 ff 20 40 
0.713700 1 1fa Rx d 3 22 c0 01 
0.713900 1 372 Rx d 8 0c ee 7f 85 0f 00 00 00 
0.714200 1 3f9 Rx d 8 05 00 00 00 00 00 00 00 
0.715500 1 118 Rx d 8 f3 60 32 00 00 48 00 00 
0.715700 1 1d8 Rx d 8 29 00 00 00 00 00 40 42 
0.715900 1 266 Rx d 8 00 00 01 22 00 00 9f 01 
0.716200 1 1e5 Rx d 8 02 ac 04 00 00 00 40 d8 
0.716400 1 2e1 Rx d 8 04 00 00 80 48 44 26 00 
0.716700 1 3a1 Rx d 8 e8 4e 0e ca 00 0c 82 5c 
0.716800 1 225 Rx d 4 45 55 fa 00 
0.717200 1 129 Rx d 8 c7 2e ea 5f 00 20 ff 3f 
0.718300 1 25b Rx d 8 d3 c0 02 05 6a 86 c0 a5 
0.718500 1 3c8 Rx d 8 01 00 00 00 00 00 00 00 
0.718800 1 3a2 Rx d 8 01 10 20 00 11 f0 ff 00 
0.720100 1 381 Rx d 8 30 00 41 5e 42 4c 00 60 
0.720600 1 242 Rx d 4 55 15 86 05 
0.720800 1 243 Rx d 8 00 fc 4f 4c ce 02 41 29 
0.721400 1 339 Rx d 8 04 e1 02 00 00 00 40 0f 
0.722800 1 22b Rx d 8 ff ff ff ff ff ff ff ff 
0.723100 1 283 Rx d 6 00 00 00 00 00 00 
0.723500 1 132 Rx d 6 f1 87 f5 ff 23 40 
0.724100 1 261 Rx d 8 05 22 f1 c7 9a 42 70 21 
0.724300 1 2c1 Rx d 8 21 1b 0d 0a 02 00 00 00 
0.724500 1 2aa Rx d 3 7f 30 5b 
0.724700 1 118 Rx d 8 f4 61 32 00 00 48 00 00 
0.725000 1 266 Rx d 8 00 00 01 22 00 00 9f 01 
0.725200 1 257 Rx d 8 73 49 1f 00 02 a0 0f 01 
0.725400 1 677 Rx d 8 00 00 00 00 00 00 00 00 
0.725700 1 1d8 Rx d 8 29 00 00 00 00 00 60 62 
0.725900 1 1e5 Rx d 8 02 ac 04 00 00 00 60 f8 
0.727200 1 129 Rx d 8 05 2f e9 5f 00 20 ff 3f 
0.727700 1 360 Rx d 8 04 00 00 00 00 00 00 00 
0.728100 1 340 Rx d 8 07 00 00 00 00 00 00 00 
0.728300 1 1f9 Rx d 8 00 00 00 00 00 00 00 00 
0.728900 1 3c0 Rx d 8 04 00 00 00 00 00 00 00 
0.729100 1 545 Rx d 8 02 00 01 00 00 00 c0 0d 
0.730500 1 788 Rx d 8 02 40 ce 07 4d 03 00 00 
0.730700 1 2d2 Rx d 8 6e 29 a8 4e c4 09 d5 14 
0.730900 1 212 Rx d 8 59 04 00 00 81 ff 77 31 
0.731200 1 234 Rx d 8 29 e1 03 80 43 00 b4 1f 
0.731400 1 252 Rx d 8 48 23 90 4a 00 fc 0f 00 
0.731600 1 263 Rx d 8 00 d0 e7 89 d4 07 55 1f 
0.731900 1 142 Rx d 8 28 00 02 59 18 00 01 00 
0.732100 1 292 Rx d 8 c7 45 27 9e 72 01 00 00 
0.732300 1 2e1 Rx d 8 65 80 08 00 1e d4 8f 6a 
0.732500 1 2f2 Rx d 2 12 01 
0.732700 1 3b2 Rx d 8 0c 90 1f 85 e0 fd 53 00 
0.732900 1 441 Rx d 8 24 85 89 00 32 00 20 ed 
0.733200 1 3ae Rx d 8 f5 3f 00 08 00 00 71 ae 
0.733400 1 709 Rx d 8 1b 61 c0 2e 00 52 22 00 
0.733800 1 285 Rx d 8 41 03 65 01 0d 00 08 00 
0.734000 1 132 Rx d 6 f7 87 f4 ff 20 40 
0.734200 1 201 Rx d 8 09 04 18 01 00 00 80 c4 
0.734400 1 286 Rx d 5 ff ff ff ff 71 
0.734700 1 102 Rx d 8 22 b3 88 04 8a 0c 21 08 
0.735000 1 103 Rx d 8 22 b3 88 04 92 2c 21 02 
0.735100 1 119 Rx d 4 00 00 00 00 
0.735300 1 739 Rx d 5 27 07 1e 01 00 
0.735600 1 118 Rx d 8 f5 62 32 00 00 48 00 00 
0.735800 1 1d8 Rx d 8 29 00 00 00 00 00 80 82 
0.736100 1 266 Rx d 8 00 00 01 22 00 00 9f 01 
0.736300 1 1e5 Rx d 8 02 ac 04 00 00 00 00 98 
0.736500 1 288 Rx d 8 03 11 00 40 80 00 d1 2f 
0.737200 1 129 Rx d 8 d3 20 ea 5f 00 20 ff 3f 
0.737400 1 229 Rx d 3 f9 07 00 
0.737500 1 249 Rx d 4 d3 03 00 00 
0.737800 1 54f Rx d 8 00 00 00 00 00 00 00 00 
0.739000 1 241 Rx d 7 29 28 54 0a 0a 45 00 
0.740100 1 261 Rx d 8 00 10 fc ff d2 4c 80 9f 
0.740900 1 123 Rx d 8 00 00 12 92 d2 00 00 80 
0.741100 1 243 Rx d 8 01 fc 68 00 69 00 7c 7c 
0.741700 1 122 Rx d 8 00 00 12 92 12 00 00 00 
0.742200 1 439 Rx d 8 02 00 40 00 00 14 00 00 
0.742400 1 7aa Rx d 8 e5 60 83 0d 30 08 13 00 
0.742700 1 798 Rx d 8 4a e3 76 3d 10 01 30 cd 
0.742900 1 2c4 Rx d 8 49 d9 fd 2e a9 8c e5 89 
0.743200 1 204 Rx d 8 01 00 00 ff 00 00 00 10 
0.743400 1 264 Rx d 6 38 00 00 00 a0 00 
0.743600 1 132 Rx d 6 f1 87 f5 ff 23 40 
0.743800 1 224 Rx d 8 04 08 00 48 19 01 10 08 
0.744000 1 2b4 Rx d 6 24 05 9d 0d 09 01 
0.744300 1 2c1 Rx d 8 02 0d 06 05 00 d0 92 c1 
0.744700 1 118 Rx d 8 f6 63 32 00 00 48 00 00 
0.745000 1 266 Rx d 8 00 00 01 22 00 00 9f 01 
0.745200 1 257 Rx d 8 74 4a 1f 00 02 a0 0f 01 
0.745600 1 1d8 Rx d 8 29 00 00 00 00 00 a0 a2 
0.745800 1 1e5 Rx d 8 02 ac 04 00 00 00 20 b8 
0.746900 1 3a3 Rx d 8 00 d0 00 00 38 03 fc 01 
0.747200 1 129 Rx d 8 c4 21 ea 5f 00 20 ff 3f 
0.747400 1 797 Rx d 4 15 0d 30 ed 
0.748100 1 2e1 Rx d 8 10 21 04 00 12 00 20 08 
0.748500 1 2a8 Rx d 8 02 11 00 00 06 80 d0 13 
0.748700 1 272 Rx d 8 06 00 f1 88 07 48 06 08 
0.750100 1 2f1 Rx d 8 01 12 3d 01 42 80 07 00 
0.750300 1 221 Rx d 8 60 55 55 05 54 51 71 48 
0.750600 1 39d Rx d 5 24 5b 01 28 00 
0.750900 1 263 Rx d 8 01 d0 bf b1 8c c7 54 1f 
0.751200 1 719 Rx d 8 17 00 00 00 00 00 00 00 
0.751700 1 3a2 Rx d 8 c2 29 00 00 22 00 00 00 
0.752800 1 393 Rx d 8 06 00 f0 80 07 48 06 08 
0.753100 1 23e Rx d 8 f4 01 3a 9d fa fc 8f 91 
0.753600 1 3e8 Rx d 8 01 00 00 00 00 00 00 00 
0.753800 1 132 Rx d 6 f1 87 f4 ff 20 40 
0.754400 1 428 Rx d 7 00 00 10 10 00 00 00 
0.755500 1 118 Rx d 8 f7 64 32 00 00 48 00 00 
0.755700 1 282 Rx d 8 00 00 00 00 e8 23 0b 24 
0.755900 1 1d8 Rx d 8 29 00 00 00 00 00 c0 c2 
0.756200 1 261 Rx d 8 31 00 f9 ff 70 49 98 70 
0.756400 1 266 Rx d 8 00 00 01 22 00 00 9f 01 
0.756700 1 1e5 Rx d 8 02 ac 04 00 00 00 40 d8 
0.756900 1 381 Rx d 8 11 32 4b 00 23 e0 07 a0 
0.757100 1 3c2 Rx d 8 00 55 55 55 00 00 5a 45 
0.757400 1 129 Rx d 8 be 22 e9 5f 00 20 ff 3f 
0.757600 1 3e2 Rx d 7 00 00 80 1a 00 c0 04 
0.758200 1 379 Rx d 8 01 00 0a 48 33 bf 21 00 
0.758900 1 20c Rx d 8 00 c0 56 1e 00 d0 08 00 
0.759100 1 201 Rx d 8 82 02 00 00 00 00 98 3b 
0.759400 1 2ec Rx d 3 7f 30 9d 
0.760800 1 243 Rx d 8 02 ac f1 12 00 5a 00 00 
0.761100 1 3f5 Rx d 8 00 00 c8 08 82 04 00 00 
0.761300 1 45a Rx d 8 a0 d3 d3 d3 3f 36 00 68 
0.762100 1 545 Rx d 8 d0 01 2c f0 96 62 d9 08 
0.762400 1 113 Rx d 3 01 97 01 
0.762700 1 318 Rx d 8 1a 08 1b 06 1b 07 31 b1 
0.762800 1 1f8 Rx d 4 00 00 00 00 
0.763100 1 458 Rx d 7 00 00 00 00 40 00 00 
0.763200 1 7f4 Rx d 1 01 
0.763400 1 7ff Rx d 8 07 20 80 44 40 00 02 20 
0.763600 1 132 Rx d 6 f1 87 f5 ff 22 40 
0.763900 1 52f Rx d 8 00 06 5a 01 26 76 05 c0 
0.764100 1 348 Rx d 8 16 00 00 0e 05 08 01 10 
0.764400 1 2c1 Rx d 8 2b 17 13 00 00 00 00 00 
0.764600 1 2e1 Rx d 8 39 8d 55 af 1f 28 00 00 
0.764800 1 118 Rx d 8 f8 65 32 00 00 48 00 00 
0.765000 1 3ed Rx d 1 00 
0.765200 1 266 Rx d 8 00 00 01 22 00 00 9f 01 
0.765300 1 139 Rx d 1 00 
0.765500 1 257 Rx d 8 75 4b 1f 00 02 a0 0f 01 
0.765800 1 405 Rx d 8 10 00 00 00 00 4c 52 57 
0.766000 1 1d8 Rx d 8 29 00 00 00 00 00 e0 e2 
0.766300 1 3a1 Rx d 8 a9 8d 40 01 3e 00 90 05 
0.766500 1 1e5 Rx d 8 02 ac 04 00 00 00 60 f8 
0.766600 1 24a Rx d 1 03 
0.766900 1 414 Rx d 8 10 00 00 00 00 20 20 20 
0.767100 1 4e3 Rx d 8 03 59 00 00 00 00 a8 0c 
0.767300 1 129 Rx d 8 a9 23 e9 5f 00 20 ff 3f 
0.767500 1 528 Rx d 4 6a 8f d4 1f 
0.767800 1 55a Rx d 8 01 00 00 00 00 00 00 00 
0.767900 1 666 Rx d 4 00 00 a0 00 
0.768200 1 677 Rx d 8 01 00 00 00 00 00 00 00 
0.768400 1 6a2 Rx d 5 00 00 00 00 00 
0.768600 1 78a Rx d 8 01 00 04 00 ac 04 91 00 
0.768800 1 7a8 Rx d 8 02 40 ce 97 4c 07 00 00 
0.769100 1 7f1 Rx d 7 01 00 00 00 00 08 00 
0.769700 1 289 Rx d 8 a6 02 01 00 82 00 3d 0f 
0.770100 1 682 Rx d 8 00 00 00 40 05 02 50 77 
0.770900 1 343 Rx d 8 00 92 5c 5e 97 00 00 00 
0.771100 1 263 Rx d 8 02 00 00 00 00 00 00 00 
0.771300 1 2b3 Rx d 8 ae 55 00 fc bf 3f 19 10 
0.771600 1 228 Rx d 8 03 11 00 40 80 00 d1 cf 
0.772000 1 2d1 Rx d 2 7f 01 
0.772200 1 261 Rx d 8 12 29 57 02 80 5c a2 08 
0.772400 1 37a Rx d 8 01 00 31 34 92 00 00 17 
0.772600 1 708 Rx d 5 34 24 0e 00 00 
0.772900 1 22b Rx d 8 ff ff ff ff ff ff ff ff 
0.773100 1 3ae Rx d 8 f5 3f 00 08 00 00 81 be 
0.773500 1 132 Rx d 6 f6 87 f5 ff 23 40 
0.773800 1 372 Rx d 8 0d 32 00 00 00 40 0c 88 
0.775400 1 118 Rx d 8 f9 66 32 00 00 48 00 00 
0.775700 1 1d8 Rx d 8 29 00 00 00 00 00 00 02 
0.775900 1 266 Rx d 8 00 00 01 22 00 00 9f 01 
0.776200 1 1e5 Rx d 8 02 ac 04 00 00 00 00 98 
0.776700 1 4e2 Rx d 8 03 00 00 00 00 00 a8 0c 
0.777000 1 3c3 Rx d 8 00 00 00 00 00 45 00 00 
0.777200 1 129 Rx d 8 2f 24 e9 5f 00 20 ff 3f 
0.777400 1 3e3 Rx d 4 00 00 00 00 
0.777600 1 7b8 Rx d 8 8a 9d 11 b6 3c 05 30 79 
0.779200 1 359 Rx d 8 0e 04 00 00 a1 ee 6f c9 
0.780100 1 2e1 Rx d 8 02 6c 7f 02 3e 62 00 00 
0.780600 1 234 Rx d 8 24 30 02 28 a1 04 c0 7e 
0.780900 1 243 Rx d 8 03 00 00 00 43 62 1e 00 
0.781700 1 142 Rx d 8 01 00 40 0a c0 1b 00 00 
0.782100 1 441 Rx d 8 25 00 b6 c3 58 00 25 84 
0.782900 1 553 Rx d 8 00 00 00 00 00 00 40 98 
0.783100 1 421 Rx d 7 00 14 00 00 00 d0 48 
0.783200 1 409 Rx d 1 00 
0.783400 1 419 Rx d 1 00 
0.783600 1 132 Rx d 6 f1 87 f5 ff 23 40 
0.783800 1 2e8 Rx d 8 02 11 00 00 06 80 a0 23 
0.784000 1 355 Rx d 7 80 ec 00 bc 94 00 00 
0.784300 1 201 Rx d 8 83 02 00 00 00 00 b8 3b 
0.784500 1 285 Rx d 8 02 d5 00 00 00 00 de 00 
