date Mon Aug 31 11:32:40 AM 2026
base hex timestamps absolute
// version 7.0.0
// Derived analysis input: TM3-007
// Source: can_20260831113240开关门采集.asc
// Source interval: 0.000000 s to 130.000000 s
// Output timestamps rebased to 0.000000 s
0.000000 1 119 Rx d 4 00 00 00 00 
0.000400 1 103 Rx d 8 22 b3 88 02 92 2c 21 32 
0.000900 1 201 Rx d 8 08 d3 02 80 22 03 f2 07 
0.001000 1 789 Rx d 4 54 11 20 87 
0.002000 1 113 Rx d 3 01 97 01 
0.002300 1 318 Rx d 8 1a 08 01 03 1f 21 2f b0 
0.002500 1 458 Rx d 7 00 00 00 00 40 00 00 
0.002600 1 7f4 Rx d 1 01 
0.002800 1 7ff Rx d 8 09 ef 00 00 08 00 00 00 
0.003100 1 129 Rx d 8 9b 2b e6 1f 00 20 ff 3f 
0.003300 1 132 Rx d 6 14 8a f7 ff 24 40 
0.003600 1 320 Rx d 8 03 00 00 00 00 00 00 00 
0.003800 1 372 Rx d 8 0a a1 55 06 00 00 00 5d 
0.004000 1 272 Rx d 8 06 00 ef 78 07 b0 07 08 
0.004300 1 2e1 Rx d 8 04 00 00 80 48 44 26 00 
0.004500 1 401 Rx d 8 1e 2a 4c 82 4d 82 4d 82 
0.004800 1 3e8 Rx d 8 05 00 00 00 00 00 00 00 
0.005600 1 420 Rx d 8 28 01 40 4b 00 00 00 00 
0.006400 1 123 Rx d 8 00 00 12 92 d2 00 00 80 
0.006700 1 243 Rx d 8 01 fc 6c 00 6f 00 7c 7c 
0.007100 1 439 Rx d 8 02 00 40 00 00 14 00 00 
0.007300 1 3c8 Rx d 8 05 00 00 00 00 00 00 00 
0.007900 1 381 Rx d 8 13 00 00 00 00 00 08 ff 
0.008100 1 3a1 Rx d 8 e8 42 0d 8a 01 08 a2 2c 
0.010600 1 2ec Rx d 3 2f 20 3d 
0.010900 1 282 Rx d 8 00 00 00 00 ec 43 0b 24 
0.011800 1 261 Rx d 8 05 22 6b ca 9a 42 90 be 
0.012100 1 3c2 Rx d 8 00 55 55 55 00 00 59 45 
0.012300 1 3e2 Rx d 7 00 00 80 2a 00 c0 04 
0.012500 1 3a3 Rx d 8 00 d0 00 00 38 03 fc 01 
0.013100 1 129 Rx d 8 fb 2c e6 1f 00 20 ff 3f 
0.013300 1 132 Rx d 6 18 8a f7 ff 27 40 
0.013500 1 2aa Rx d 3 2f 20 fb 
0.015900 1 2c1 Rx d 8 21 23 0d 0a 02 00 00 00 
0.016100 1 234 Rx d 8 1c d0 01 24 91 04 00 41 
0.016300 1 3a2 Rx d 8 01 10 20 00 1a f0 ff 00 
0.016600 1 263 Rx d 8 01 d0 5f 0f 88 c7 54 1f 
0.016800 1 719 Rx d 8 0c 58 0f 00 50 00 00 00 
0.017100 1 7a8 Rx d 8 01 00 00 00 ff a1 98 12 
0.017800 1 1f8 Rx d 4 00 00 00 00 
0.018400 1 393 Rx d 8 06 00 ee 70 07 b0 07 08 
0.019100 1 788 Rx d 8 01 00 00 00 ff a1 98 12 
0.019900 1 340 Rx d 8 08 00 00 00 00 00 00 00 
0.020100 1 2e1 Rx d 8 45 80 00 00 aa f5 94 6a 
0.021200 1 295 Rx d 8 1d 2c 00 00 00 00 00 00 
0.021400 1 61d Rx d 8 02 00 85 33 a7 29 27 19 
0.021700 1 238 Rx d 8 b0 29 9c d4 1f 00 36 d8 
0.022700 1 228 Rx d 8 03 16 00 8c 80 80 b1 80 
0.023100 1 379 Rx d 8 01 00 0a 48 33 3f 22 00 
0.023300 1 129 Rx d 8 80 2d e6 1f ff 1f ff 3f 
0.023500 1 132 Rx d 6 13 8a f7 ff 24 40 
0.023700 1 401 Rx d 8 1f 2a 4d 82 44 82 48 82 
0.024000 1 441 Rx d 8 12 85 89 00 32 00 28 e3 
0.024400 1 20c Rx d 8 00 e0 54 1e 00 c0 09 00 
0.024900 1 289 Rx d 8 a4 02 00 80 81 00 3d 0f 
0.025100 1 288 Rx d 8 03 16 00 8c 80 80 b1 e0 
0.025900 1 201 Rx d 8 01 04 98 00 10 00 80 c4 
0.026400 1 243 Rx d 8 02 cc d9 12 00 40 00 00 
0.026700 1 45a Rx d 8 a0 52 4c d0 3f 3c 00 6c 
0.027800 1 261 Rx d 8 00 10 1b 00 c5 4c a0 d2 
0.028100 1 23e Rx d 8 f4 01 3a c0 fa fc bf e4 
0.028600 1 409 Rx d 1 00 
0.028900 1 545 Rx d 8 01 00 00 00 00 10 80 db 
0.029100 1 7b8 Rx d 8 0c 57 5b 00 00 00 20 f8 
0.029900 1 139 Rx d 1 00 
0.030400 1 4e3 Rx d 8 03 59 00 00 00 00 a8 0c 
0.030800 1 241 Rx d 7 4d 4c 52 13 93 54 00 
0.031100 1 798 Rx d 8 f4 eb 5b df 7e 0b 20 6e 
0.031900 1 4e2 Rx d 8 03 48 00 00 00 00 a8 0c 
0.032400 1 400 Rx d 7 00 e0 fb be ef fb 00 
0.033100 1 129 Rx d 8 36 2e e6 1f 00 20 ff 3f 
0.033300 1 132 Rx d 6 1e 8a f7 ff 28 40 
0.034100 1 3ae Rx d 8 00 40 00 08 00 00 01 4a 
0.034700 1 39d Rx d 5 db 53 c1 27 00 
0.034900 1 2e8 Rx d 8 02 10 00 00 06 00 40 42 
0.035900 1 2e1 Rx d 8 10 21 04 00 12 00 20 08 
0.036100 1 2c1 Rx d 8 02 0d 06 05 16 d0 92 81 
0.036400 1 677 Rx d 8 03 00 00 00 00 00 00 00 
0.036600 1 263 Rx d 8 02 00 00 00 00 00 00 00 
0.036800 1 2b3 Rx d 8 e9 3d ce 3c 2a 00 5c 32 
0.037100 1 142 Rx d 8 01 00 40 0a c0 1b 00 00 
0.037300 1 2a8 Rx d 8 02 10 00 00 06 00 90 52 
0.037600 1 343 Rx d 8 00 92 60 5e 95 00 00 00 
0.037800 1 37a Rx d 8 01 00 de ed 2c 01 00 3c 
0.038900 1 552 Rx d 8 00 00 00 00 00 00 40 97 
0.039400 1 2c7 Rx d 8 00 00 00 00 00 00 52 ff 
0.039600 1 212 Rx d 8 58 04 00 00 82 ff 77 62 
0.039900 1 252 Rx d 8 00 00 94 06 00 18 1d 00 
0.040100 1 292 Rx d 8 ae 33 9f 3c ec 01 00 00 
0.040400 1 2a6 Rx d 8 00 00 6a 18 00 00 00 00 
0.040600 1 2a7 Rx d 8 00 00 00 00 00 88 05 84 
0.040800 1 2d2 Rx d 8 6e 29 a7 4e 00 00 a1 01 
0.041000 1 2f2 Rx d 2 12 01 
0.041200 1 312 Rx d 8 99 82 c7 14 1c 8d 00 00 
0.041400 1 392 Rx d 8 01 1c a9 67 10 27 02 00 
0.041700 1 448 Rx d 7 00 00 10 10 00 00 00 
0.041900 1 221 Rx d 8 40 41 05 05 00 50 91 8f 
0.042100 1 2f1 Rx d 8 06 90 62 81 06 00 01 00 
0.042400 1 22b Rx d 8 ff ff ff ff 1f fc ff ff 
0.042600 1 3c3 Rx d 8 00 00 00 00 00 45 00 00 
0.042800 1 3e3 Rx d 4 00 00 00 00 
0.043100 1 712 Rx d 8 05 00 00 00 00 00 00 00 
0.043300 1 129 Rx d 8 c7 2f e6 1f 00 20 ff 3f 
0.043500 1 132 Rx d 6 1e 8a f7 ff 27 40 
0.043600 1 249 Rx d 4 d3 03 00 00 
0.043900 1 401 Rx d 8 20 2a 45 82 4d 82 4a 82 
0.044100 1 261 Rx d 8 31 40 23 00 54 49 ba e1 
0.044400 1 359 Rx d 8 0e 04 00 00 a1 ee 6f c9 
0.044600 1 381 Rx d 8 14 00 20 00 00 00 00 fe 
0.044800 1 428 Rx d 7 00 00 10 10 00 00 00 
0.045100 1 7aa Rx d 8 f5 a0 83 0c 10 08 13 00 
0.045900 1 422 Rx d 6 f0 00 10 00 00 00 
0.046400 1 243 Rx d 8 03 00 00 80 43 72 2d 00 
0.048400 1 553 Rx d 8 00 00 00 00 00 00 40 98 
0.048900 1 3a2 Rx d 8 b2 2b 00 00 20 00 00 00 
0.050600 1 3cc Rx d 8 03 11 83 19 18 0e 09 00 
0.050900 1 201 Rx d 8 82 02 00 40 06 00 98 3b 
0.051100 1 38a Rx d 8 03 00 00 00 00 00 00 00 
0.051400 1 21d Rx d 8 04 00 35 00 00 00 00 00 
0.051700 1 25d Rx d 8 36 41 01 16 04 f0 d7 03 
0.051900 1 2e1 Rx d 8 29 6a 42 a1 1f 28 00 00 
0.052400 1 27d Rx d 8 00 00 00 00 00 00 00 00 
0.052800 1 29d Rx d 5 00 00 00 20 00 
0.053000 1 2c2 Rx d 8 55 5b a9 b6 02 00 12 a5 
0.053200 1 129 Rx d 8 22 20 e6 1f 00 20 ff 3f 
0.053400 1 132 Rx d 6 1c 8a f7 ff 27 40 
0.053600 1 2bd Rx d 4 00 00 00 00 
0.053800 1 3f5 Rx d 8 00 00 c8 08 80 04 00 00 
0.054100 1 405 Rx d 8 11 33 45 37 46 41 35 4d 
0.054300 1 414 Rx d 8 11 20 20 20 20 20 20 20 
0.054600 1 383 Rx d 8 bf 18 35 00 01 21 a3 74 
0.054700 1 41d Rx d 1 00 
0.054900 1 43d Rx d 6 00 00 ff 1f 40 00 
0.055100 1 49d Rx d 7 00 00 00 00 00 00 00 
0.055400 1 55a Rx d 8 05 00 00 00 00 00 00 00 
0.055500 1 666 Rx d 4 00 00 a0 00 
0.055900 1 2c1 Rx d 8 03 17 13 00 00 00 00 00 
0.056500 1 263 Rx d 8 03 00 00 00 00 00 00 25 
0.057500 1 39b Rx d 8 00 08 df e0 b0 48 41 9e 
0.057900 1 3a1 Rx d 8 6b 80 40 53 3e 00 b0 2c 
0.058100 1 39a Rx d 8 fd fd fd fd fd 01 00 00 
0.058400 1 3c9 Rx d 8 07 98 00 05 01 01 00 00 
0.059800 1 261 Rx d 8 a2 28 a6 02 80 5c c2 06 
0.060400 1 423 Rx d 7 00 00 00 00 08 00 00 
0.061900 1 545 Rx d 8 02 00 02 00 00 00 90 de 
0.062000 1 22a Rx d 4 00 00 29 16 
0.062300 1 3a8 Rx d 8 00 ff 00 7f 00 00 00 00 
0.062500 1 3c2 Rx d 8 29 55 00 00 00 00 00 80 
0.063100 1 129 Rx d 8 5c 21 e6 1f ff 1f ff 3f 
0.063300 1 132 Rx d 6 19 8a f7 ff 25 40 
0.063500 1 232 Rx d 8 4a 00 e0 09 df 04 00 00 
0.063800 1 372 Rx d 8 0b f0 ff f7 00 65 66 00 
0.063900 1 2d1 Rx d 2 7f 01 
0.064100 1 401 Rx d 8 21 2a 4a 82 49 82 45 82 
0.065100 1 219 Rx d 7 01 80 ff ff ff f9 0f 
0.066000 1 234 Rx d 8 24 e1 03 80 43 00 14 7a 
0.066200 1 719 Rx d 8 0d 00 00 00 00 00 00 00 
0.066500 1 243 Rx d 8 04 c8 f1 ff fd 7f 6c 6f 
0.066700 1 2c3 Rx d 8 55 a3 a8 b6 02 00 12 a5 
0.067000 1 78a Rx d 8 01 00 04 00 b7 04 97 00 
0.067900 1 2e1 Rx d 8 02 6c 7f 02 52 80 00 00 
0.068100 1 23e Rx d 8 f4 01 3a c0 fa fc cf f4 
0.068800 1 1fa Rx d 3 02 c0 01 
0.070600 1 682 Rx d 8 00 00 00 40 05 02 50 77 
0.071100 1 453 Rx d 4 00 00 00 00 
0.071300 1 1bb Rx d 1 02 
0.071500 1 284 Rx d 8 30 00 00 00 40 08 d0 ce 
0.071600 1 390 Rx d 2 17 06 
0.072100 1 2f9 Rx d 8 b0 fb 07 08 00 00 00 00 
0.072300 1 295 Rx d 8 3c 00 a1 ff 00 00 00 01 
0.072600 1 3ae Rx d 8 00 40 00 08 00 00 11 5a 
0.073100 1 129 Rx d 8 7c 22 e6 1f 00 20 ff 3f 
0.073300 1 132 Rx d 6 15 8a f7 ff 27 40 
0.073900 1 441 Rx d 8 56 00 b6 c3 58 00 2d bd 
0.074700 1 39d Rx d 5 fc 54 e1 27 00 
0.074900 1 421 Rx d 7 00 14 00 00 00 d0 48 
0.075900 1 737 Rx d 7 01 00 00 00 e0 f0 80 
0.076100 1 201 Rx d 8 83 02 00 40 06 00 98 3b 
0.076300 1 242 Rx d 4 10 15 04 05 
0.076500 1 261 Rx d 8 7b 4a 0a 00 00 40 d5 da 
0.076700 1 263 Rx d 8 04 00 00 00 10 04 00 00 
0.077000 1 2c1 Rx d 8 04 00 10 10 0a 0d 08 15 
0.077200 1 45a Rx d 8 fd 07 f8 ff 03 00 02 1f 
0.077500 1 677 Rx d 8 04 00 00 00 00 00 00 00 
0.077700 1 718 Rx d 7 00 00 00 00 00 00 00 
0.078200 1 2c4 Rx d 8 04 00 00 00 00 20 89 4b 
0.078500 1 204 Rx d 8 01 00 00 ff 00 00 00 10 
0.078700 1 264 Rx d 6 3a 00 00 00 a0 00 
0.079000 1 224 Rx d 8 04 08 00 48 19 01 10 08 
0.079200 1 2b4 Rx d 6 12 05 d4 0d dd 00 
0.079400 1 3f9 Rx d 8 06 00 00 00 00 00 00 00 
0.079900 1 381 Rx d 8 d5 52 51 5f 5a 00 00 01 
0.081900 1 3a2 Rx d 8 60 85 72 a9 04 80 40 73 
0.082300 1 225 Rx d 4 05 45 d2 00 
0.082600 1 25b Rx d 8 d3 c0 02 05 6a 86 a0 85 
0.082900 1 360 Rx d 8 04 00 00 00 00 00 00 00 
0.083100 1 129 Rx d 8 6b 23 e6 1f 00 20 ff 3f 
0.083300 1 132 Rx d 6 0d 8a f7 ff 27 40 
0.083600 1 401 Rx d 8 22 2a 54 82 4e 82 4e 82 
0.083900 1 2e1 Rx d 8 fb 19 4d 59 92 3f 09 00 
0.086200 1 339 Rx d 8 00 11 00 00 00 00 40 0f 
0.086500 1 243 Rx d 8 00 fc cf 4c c3 02 41 29 
0.086800 1 2a1 Rx d 6 00 00 98 3a 00 00 
0.087100 1 142 Rx d 8 28 00 02 5d 00 00 01 00 
0.088400 1 283 Rx d 6 00 00 00 00 00 00 
0.088500 1 419 Rx d 1 00 
0.089900 1 102 Rx d 8 22 b3 88 04 8c 0e a1 09 
0.090300 1 20e Rx d 3 12 02 00 
0.091800 1 261 Rx d 8 cc fe 2f 49 00 40 e4 5c 
0.092100 1 221 Rx d 8 41 01 55 51 01 02 a0 ae 
0.092300 1 22b Rx d 8 ff ff ff ff 1f fc ff ff 
0.093100 1 1f9 Rx d 8 00 00 00 00 00 00 00 00 
0.093300 1 129 Rx d 8 ed 24 e6 1f 00 20 ff 3f 
0.093500 1 132 Rx d 6 17 8a f7 ff 27 40 
0.093700 1 229 Rx d 3 49 0c 00 
0.093900 1 249 Rx d 4 d3 04 00 00 
0.094100 1 54f Rx d 8 00 00 00 00 00 00 00 00 
0.094400 1 3c0 Rx d 8 05 00 00 00 00 00 00 00 
0.094900 1 545 Rx d 8 40 01 22 c0 94 3f a9 e9 
0.095900 1 2c1 Rx d 8 88 3c 7e 00 00 8a 02 07 
0.096400 1 263 Rx d 8 00 d0 4f 07 d0 07 55 1f 
0.096700 1 2b3 Rx d 8 0a 0e 00 00 00 00 00 00 
0.096900 1 122 Rx d 8 00 00 12 92 12 00 00 00 
0.097300 1 3e9 Rx d 8 f0 80 02 00 00 00 40 9e 
0.097600 1 3ae Rx d 8 00 40 00 08 00 00 20 69 
0.098700 1 797 Rx d 4 14 09 30 e8 
0.099900 1 2e1 Rx d 8 04 00 00 80 48 44 26 00 
0.100000 1 119 Rx d 4 00 00 00 00 
0.100400 1 103 Rx d 8 22 b3 88 02 92 2c 21 32 
0.100900 1 201 Rx d 8 10 d3 02 80 22 03 f2 07 
0.101000 1 789 Rx d 4 54 11 30 97 
0.102000 1 113 Rx d 3 01 97 01 
0.102300 1 318 Rx d 8 1a 08 01 03 1f 21 31 b2 
0.102500 1 458 Rx d 7 00 00 00 00 40 00 00 
0.102600 1 7f4 Rx d 1 01 
0.102800 1 7ff Rx d 8 01 a5 4e 43 42 4c 7b 00 
0.103100 1 129 Rx d 8 93 25 e6 1f ff 1f ff 3f 
0.103300 1 132 Rx d 6 18 8a f7 ff 27 40 
0.103600 1 401 Rx d 8 23 02 4e 82 00 00 00 00 
0.103900 1 272 Rx d 8 09 80 63 00 00 00 00 00 
0.104100 1 382 Rx d 5 42 18 27 00 00 
0.104800 1 3e8 Rx d 8 06 00 00 00 00 00 00 00 
0.105600 1 420 Rx d 8 28 01 40 4b 00 00 80 00 
0.106400 1 123 Rx d 8 01 00 00 00 00 3f 00 00 
0.106700 1 243 Rx d 8 01 fc 6c 00 6f 00 7c 7c 
0.107100 1 439 Rx d 8 02 00 40 00 00 14 00 00 
0.107300 1 3c8 Rx d 8 06 00 00 00 00 00 00 00 
0.107900 1 261 Rx d 8 05 22 6b ca 9a 42 f0 1e 
0.108100 1 23e Rx d 8 f4 01 3a c0 fa fc df 04 
0.108300 1 3a1 Rx d 8 e8 42 0d 8a 01 08 c2 4c 
0.108600 1 31a Rx d 8 60 fc ff 02 00 00 20 9a 
0.110600 1 2ec Rx d 3 2f 30 4d 
0.110900 1 282 Rx d 8 00 00 00 00 ec 43 0b 24 
0.111900 1 40a Rx d 8 01 00 01 00 00 00 20 30 
0.112100 1 3c2 Rx d 8 00 55 55 55 00 00 59 45 
0.112400 1 3a3 Rx d 8 00 d0 00 00 38 03 fc 01 
0.113000 1 2aa Rx d 3 2f 30 0b 
0.113300 1 129 Rx d 8 49 26 e6 1f ff 1f ff 3f 
0.113500 1 132 Rx d 6 1e 8a f7 ff 28 40 
0.114600 1 39d Rx d 5 fd 55 e1 27 00 
0.114900 1 3a2 Rx d 8 01 10 20 00 00 f0 ff 00 
0.115900 1 2e1 Rx d 8 45 80 00 00 aa f5 94 6a 
0.116100 1 234 Rx d 8 1c d0 01 24 91 04 20 61 
0.116300 1 2c1 Rx d 8 21 23 0d 0a 02 00 00 00 
0.116600 1 263 Rx d 8 01 d0 5f 0f 88 c7 54 1f 
0.116800 1 381 Rx d 8 16 10 00 00 00 7f 64 00 
0.117000 1 42a Rx d 8 f9 6b fe 9a bf e6 af 55 
0.117300 1 677 Rx d 8 00 00 00 00 00 00 00 00 
0.117500 1 719 Rx d 8 13 00 00 00 00 00 00 00 
0.117800 1 7a8 Rx d 8 02 40 d3 77 4c 07 00 00 
0.118000 1 1f8 Rx d 4 00 00 00 00 
0.118400 1 393 Rx d 8 09 80 63 00 00 00 00 00 
0.119100 1 788 Rx d 8 02 40 d1 d7 4d 00 00 00 
0.119900 1 340 Rx d 8 09 00 00 00 00 00 00 00 
0.121200 1 285 Rx d 8 41 03 65 01 0d 00 08 00 
0.121400 1 286 Rx d 5 ff ff ff ff 31 
0.121600 1 3d8 Rx d 4 6c 00 66 00 
0.121800 1 353 Rx d 8 7b 0f 39 80 07 14 08 0b 
0.122000 1 7aa Rx d 8 e6 04 20 1e b1 ee a0 29 
0.122200 1 373 Rx d 8 06 b5 58 00 00 de 08 1f 
0.122700 1 228 Rx d 8 03 16 00 8c 80 80 c1 90 
0.123100 1 379 Rx d 8 02 00 0a 48 33 3f 22 00 
0.123300 1 129 Rx d 8 37 27 e6 1f 00 20 ff 3f 
0.123500 1 132 Rx d 6 1f 8a f7 ff 25 40 
0.123800 1 295 Rx d 8 50 00 bf ff 00 00 00 02 
0.124000 1 261 Rx d 8 00 10 1b 00 c5 4c 00 32 
0.124200 1 372 Rx d 8 0c f0 7f 91 0f 00 00 00 
0.124500 1 20c Rx d 8 00 e0 54 1e 00 c0 09 00 
0.124700 1 441 Rx d 8 12 85 89 00 32 00 30 eb 
0.125000 1 289 Rx d 8 a4 02 00 40 9d 00 3d 0f 
0.125200 1 288 Rx d 8 03 16 00 8c 80 80 c1 f0 
0.125900 1 201 Rx d 8 01 04 98 00 10 00 80 c4 
0.126400 1 243 Rx d 8 02 cc d9 12 00 40 00 00 
0.126700 1 45a Rx d 8 a0 52 4c d0 3f 3c 00 6c 
0.127700 1 409 Rx d 1 00 
0.128000 1 545 Rx d 8 01 00 00 00 00 10 b0 0b 
0.128800 1 7b8 Rx d 8 05 00 49 84 79 02 30 97 
0.129900 1 139 Rx d 1 00 
0.130400 1 4e3 Rx d 8 04 00 00 00 00 00 00 00 
0.130800 1 241 Rx d 7 4e 4c 92 13 93 54 00 
0.131100 1 798 Rx d 8 05 00 00 00 00 00 30 e1 
0.131900 1 2e1 Rx d 8 10 21 04 00 12 00 20 08 
0.132100 1 4e2 Rx d 8 04 16 40 81 09 a8 00 00 
0.132400 1 400 Rx d 7 00 e0 fb be ef fb 00 
0.133100 1 129 Rx d 8 e0 28 e6 1f 00 20 ff 3f 
0.133300 1 132 Rx d 6 1b 8a f6 ff 23 40 
0.134800 1 2e8 Rx d 8 02 10 00 00 06 00 50 52 
0.135900 1 2c1 Rx d 8 02 0d 06 05 16 d0 92 81 
0.136400 1 343 Rx d 8 00 92 5c 2e 95 00 00 00 
0.136700 1 263 Rx d 8 02 00 00 00 00 00 00 00 
0.136900 1 142 Rx d 8 01 00 40 0a c0 1b 00 00 
0.137200 1 2a8 Rx d 8 02 10 00 00 06 00 a0 62 
0.137400 1 37a Rx d 8 02 00 6b e4 f2 00 00 38 
0.137600 1 3ae Rx d 8 00 40 00 08 00 00 30 79 
0.138900 1 552 Rx d 8 00 00 00 00 00 00 50 a7 
0.139400 1 2c7 Rx d 8 00 00 00 00 00 00 52 ff 
0.139700 1 2a6 Rx d 8 00 00 6a 18 00 00 00 00 
0.139900 1 212 Rx d 8 58 04 00 00 82 ff 77 62 
0.140100 1 252 Rx d 8 00 00 94 06 00 18 1d 00 
0.140400 1 261 Rx d 8 31 40 2e 00 54 49 1a 4c 
0.140600 1 292 Rx d 8 ae 33 9f 3c ec 01 00 00 
0.140800 1 2a7 Rx d 8 00 00 00 00 00 88 05 84 
0.141100 1 2d2 Rx d 8 6d 29 a7 4e 00 00 a1 01 
0.141200 1 2f2 Rx d 2 12 01 
0.141400 1 448 Rx d 7 00 00 10 10 00 00 00 
0.141700 1 6e8 Rx d 8 01 00 00 00 00 00 00 00 
0.141900 1 221 Rx d 8 40 41 05 05 00 50 b1 af 
0.142200 1 2f1 Rx d 8 07 00 00 00 00 00 00 00 
0.142400 1 22b Rx d 8 ff ff ff ff 1f fc ff ff 
0.142600 1 323 Rx d 5 3b 14 21 01 02 
0.142800 1 3c3 Rx d 8 55 55 55 01 00 80 43 00 
0.143100 1 129 Rx d 8 18 29 e6 1f 01 20 ff 3f 
0.143300 1 428 Rx d 7 00 00 10 10 00 00 00 
0.143500 1 132 Rx d 6 18 8a f6 ff 25 40 
0.143700 1 249 Rx d 4 83 05 00 00 
0.144100 1 359 Rx d 8 0f 00 00 00 00 00 00 00 
0.145900 1 422 Rx d 6 f0 00 10 00 00 00 
0.146400 1 243 Rx d 8 03 00 00 80 43 72 2d 00 
0.147900 1 2e1 Rx d 8 29 6a 42 a1 1f 28 00 00 
0.148100 1 23e Rx d 8 f4 01 3a c0 fa fc ef 14 
0.148300 1 3a2 Rx d 8 b2 2b 00 00 20 00 00 00 
0.148600 1 553 Rx d 8 00 00 00 00 00 00 50 a8 
0.150900 1 201 Rx d 8 82 02 00 40 06 00 98 3b 
0.151100 1 38a Rx d 8 00 00 00 00 00 00 00 00 
0.151400 1 21d Rx d 8 04 00 35 00 00 00 00 00 
0.151700 1 25d Rx d 8 36 41 01 16 04 f0 d7 03 
0.152000 1 381 Rx d 8 17 00 00 00 00 00 00 00 
0.152400 1 27d Rx d 8 00 00 00 00 00 00 00 00 
0.152800 1 29d Rx d 5 00 00 00 20 00 
0.153000 1 2c2 Rx d 8 20 40 c0 4b 01 00 80 cb 
0.153200 1 129 Rx d 8 6a 2a e6 1f 00 20 ff 3f 
0.153400 1 132 Rx d 6 11 8a f6 ff 25 40 
0.153600 1 2bd Rx d 4 00 00 00 00 
0.153900 1 3f5 Rx d 8 00 00 c8 08 80 04 00 00 
0.154000 1 41d Rx d 1 00 
0.154200 1 43d Rx d 6 00 00 ff 1f 40 00 
0.154400 1 49d Rx d 7 00 00 00 00 00 00 00 
0.154600 1 383 Rx d 8 bf 18 35 00 01 21 a3 74 
0.154900 1 75d Rx d 8 b0 a5 6e 17 00 00 00 00 
0.155100 1 39d Rx d 5 de 56 c1 27 00 
0.155900 1 261 Rx d 8 a2 28 a6 02 80 5c 22 66 
0.156100 1 2c1 Rx d 8 03 17 13 00 00 00 00 00 
0.156300 1 677 Rx d 8 01 00 00 00 00 00 00 00 
0.156600 1 263 Rx d 8 03 00 00 00 00 00 00 25 
0.156800 1 2b3 Rx d 8 0b ff 9f f0 2f 20 16 00 
0.157900 1 3a1 Rx d 8 6b 80 40 57 3e 00 d0 50 
0.158100 1 39a Rx d 8 fc fd fd fd fd fd fd 01 
0.160400 1 423 Rx d 7 00 00 00 00 08 00 00 
0.160900 1 545 Rx d 8 02 00 02 00 00 00 c0 0e 
0.161900 1 2e2 Rx d 8 03 00 00 d6 02 1b 00 80 
0.162100 1 22a Rx d 4 00 00 29 16 
0.162300 1 3c2 Rx d 8 29 55 00 00 00 00 00 80 
0.163100 1 129 Rx d 8 9b 2b e6 1f 00 20 ff 3f 
0.163300 1 132 Rx d 6 1c 8a f8 ff 27 40 
0.163800 1 2d1 Rx d 2 7f 01 
0.164000 1 2e1 Rx d 8 02 6c 7f 02 52 80 00 00 
0.165100 1 219 Rx d 7 02 80 ff ff ff fa 0f 
0.166000 1 234 Rx d 8 24 e1 03 80 43 00 34 9a 
0.166200 1 34a Rx d 8 00 d7 04 20 00 00 00 60 
0.166400 1 243 Rx d 8 04 c8 f1 ff fd 7f 6c 6f 
0.166700 1 2c3 Rx d 8 00 00 00 4b 01 00 80 cb 
0.166900 1 43b Rx d 8 00 7f 00 ff 00 00 00 00 
0.167200 1 719 Rx d 8 03 00 00 00 00 00 00 00 
0.167400 1 78a Rx d 8 01 00 05 00 9d 0d 08 00 
0.168800 1 1fa Rx d 3 02 c0 01 
0.169900 1 682 Rx d 8 00 00 00 40 05 02 60 87 
0.170800 1 313 Rx d 8 02 64 64 05 00 00 90 75 
0.171900 1 261 Rx d 8 7b 4a 0a 00 00 40 35 3a 
0.172100 1 285 Rx d 8 02 d5 00 00 00 00 de 00 
0.172300 1 2f9 Rx d 8 b0 fb 07 10 00 00 00 00 
0.173100 1 129 Rx d 8 56 2c e6 1f 01 20 ff 3f 
0.173300 1 132 Rx d 6 1a 8a f7 ff 24 40 
0.173900 1 441 Rx d 8 56 00 b6 c3 58 00 35 c5 
0.174200 1 295 Rx d 8 1d 2c 00 00 00 00 00 03 
0.174400 1 2e3 Rx d 7 e8 87 20 00 00 00 00 
0.174900 1 421 Rx d 7 00 14 00 00 00 d0 48 
0.175900 1 2c1 Rx d 8 04 00 10 10 0a 0d 08 15 
0.176100 1 201 Rx d 8 83 02 00 40 06 00 98 3b 
0.176300 1 242 Rx d 4 10 15 04 05 
0.176500 1 263 Rx d 8 04 00 00 00 10 04 00 00 
0.176800 1 2bf Rx d 7 0a 00 00 00 3c 00 00 
0.177000 1 45a Rx d 8 fd 07 f8 ff 03 00 02 1f 
0.177600 1 3ae Rx d 8 00 40 00 08 00 00 40 89 
0.178200 1 2c4 Rx d 8 25 22 00 00 00 00 00 20 
0.178500 1 204 Rx d 8 01 00 00 ff 00 00 00 10 
0.178700 1 264 Rx d 6 3a 00 00 00 a0 00 
0.179000 1 224 Rx d 8 04 08 00 48 19 01 10 08 
0.179200 1 2b4 Rx d 6 12 05 d4 0d df 00 
0.179400 1 3f9 Rx d 8 07 00 00 00 00 00 00 00 
0.179900 1 2e1 Rx d 8 fb 19 4c 59 92 3e 09 00 
0.180900 1 3a2 Rx d 8 60 85 72 a9 04 80 40 73 
0.182300 1 225 Rx d 4 05 45 d2 00 
0.182600 1 25b Rx d 8 d3 c0 02 05 6a 86 b0 95 
0.182900 1 360 Rx d 8 05 00 00 00 00 00 00 00 
0.183200 1 129 Rx d 8 e9 2d e6 1f 00 20 ff 3f 
0.183400 1 132 Rx d 6 2b 8a f7 ff 25 40 
0.183600 1 372 Rx d 8 0d 32 00 d0 ff 5e 21 8a 
0.186200 1 339 Rx d 8 00 11 00 00 00 00 40 0f 
0.186500 1 243 Rx d 8 00 fc cf 4c c3 02 41 29 
0.186800 1 2a1 Rx d 6 00 00 98 3a 00 00 
0.187100 1 142 Rx d 8 28 00 02 5d 00 00 01 00 
0.187900 1 261 Rx d 8 cc fe 2f 49 00 40 44 bc 
0.188100 1 23e Rx d 8 f4 01 3a c0 fa fc ff 24 
0.188300 1 381 Rx d 8 18 00 00 00 00 00 00 00 
0.188600 1 283 Rx d 6 00 00 00 00 00 00 
0.188700 1 419 Rx d 1 00 
0.189900 1 102 Rx d 8 22 b3 88 04 8c 0c a1 09 
0.190300 1 20e Rx d 3 13 03 00 
0.191900 1 221 Rx d 8 41 01 55 51 01 02 c0 ce 
0.192300 1 22b Rx d 8 ff ff ff ff 1f fc ff ff 
0.193100 1 1f9 Rx d 8 00 00 00 00 00 00 00 00 
0.193300 1 129 Rx d 8 36 2e e6 1f 00 20 ff 3f 
0.193500 1 132 Rx d 6 1a 8a f7 ff 27 40 
0.193700 1 229 Rx d 3 2f 0d 00 
0.193900 1 545 Rx d 8 40 01 27 20 95 49 d9 89 
0.194100 1 249 Rx d 4 4c 06 00 00 
0.194400 1 54f Rx d 8 00 00 00 00 00 00 00 00 
0.194600 1 3c0 Rx d 8 06 00 00 00 00 00 00 00 
0.194800 1 39d Rx d 5 ff 57 e1 27 00 
0.195900 1 2e1 Rx d 8 04 00 00 80 48 44 26 00 
0.196100 1 2c1 Rx d 8 88 3c 7e 00 00 8a 02 07 
0.196300 1 677 Rx d 8 02 00 00 00 00 00 00 00 
0.196600 1 263 Rx d 8 00 d0 4f 07 d0 07 55 1f 
0.196900 1 122 Rx d 8 01 00 00 00 00 3f 00 00 
0.198700 1 797 Rx d 4 14 09 40 f8 
0.200000 1 119 Rx d 4 00 00 00 00 
0.200200 1 739 Rx d 5 29 06 20 01 00 
0.200400 1 103 Rx d 8 22 b3 88 02 92 2c 21 32 
0.200900 1 201 Rx d 8 10 d3 02 80 22 03 f2 07 
0.201000 1 789 Rx d 4 54 11 40 a7 
0.201300 1 7aa Rx d 8 07 f7 ff f7 ff f1 ff 48 
0.202000 1 113 Rx d 3 01 97 01 
0.202100 1 7f4 Rx d 1 01 
0.202400 1 7ff Rx d 8 02 53 26 2c 8c 51 a3 90 
0.202600 1 318 Rx d 8 1a 08 01 03 1f 21 33 b4 
0.202800 1 458 Rx d 7 00 00 00 00 40 00 00 
0.203100 1 129 Rx d 8 6a 2f e6 1f 01 20 ff 3f 
0.203300 1 132 Rx d 6 1b 8a f7 ff 28 40 
0.203600 1 320 Rx d 8 04 00 00 00 00 00 00 00 
0.203900 1 261 Rx d 8 05 22 6b ca 9a 42 50 7e 
0.204100 1 272 Rx d 8 06 00 ef 78 07 b0 07 08 
0.204800 1 3e8 Rx d 8 00 00 00 00 00 00 00 00 
0.205600 1 420 Rx d 8 28 01 40 4b 00 00 00 01 
0.206400 1 123 Rx d 8 00 00 12 92 d2 00 00 80 
0.206700 1 243 Rx d 8 01 fc 6c 00 6f 00 7c 7c 
0.207100 1 439 Rx d 8 02 00 40 00 00 14 00 00 
0.207300 1 3c8 Rx d 8 00 00 00 00 00 00 00 00 
0.207900 1 3a1 Rx d 8 e8 42 0d 8a 01 08 e2 6c 
0.210600 1 2ec Rx d 3 2f 40 5d 
0.210900 1 282 Rx d 8 00 00 00 00 ec 43 0b 24 
0.211900 1 2e1 Rx d 8 45 80 00 00 aa f5 94 6a 
0.212100 1 3c2 Rx d 8 00 55 55 55 00 00 59 45 
0.212300 1 3e2 Rx d 7 00 00 80 2a 00 c0 04 
0.212600 1 3a3 Rx d 8 00 d0 00 00 38 03 fc 01 
0.213100 1 129 Rx d 8 22 20 e6 1f 00 20 ff 3f 
0.213300 1 132 Rx d 6 19 8a f7 ff 25 40 
0.213500 1 2aa Rx d 3 2f 40 1b 
0.213900 1 3a2 Rx d 8 01 10 20 00 07 f0 ff 00 
0.215900 1 2c1 Rx d 8 21 23 0d 0a 02 00 00 00 
0.216100 1 234 Rx d 8 1c d0 01 24 91 04 40 81 
0.216400 1 719 Rx d 8 14 00 00 00 00 00 00 00 
0.216600 1 263 Rx d 8 01 d0 5f 0f 88 c7 54 1f 
0.216800 1 2b3 Rx d 8 ec 2d ab b1 e0 49 53 00 
0.217100 1 7a8 Rx d 8 a4 b4 71 63 00 00 82 00 
0.217500 1 3ae Rx d 8 00 40 00 08 00 00 50 99 
0.217800 1 1f8 Rx d 4 00 00 00 00 
0.218400 1 393 Rx d 8 06 00 ee 78 07 b0 07 08 
0.219100 1 788 Rx d 8 a8 bc 71 63 00 00 94 00 
0.219900 1 340 Rx d 8 0a 04 00 00 00 00 00 00 
0.220100 1 261 Rx d 8 00 10 1b 00 c5 4c 60 92 
0.220700 1 2d3 Rx d 8 7e 00 c6 03 43 15 2d 71 
0.220900 1 293 Rx d 8 01 0c 15 90 55 14 ff af 
0.221200 1 3df Rx d 8 00 00 00 00 01 d0 00 1b 
0.222700 1 228 Rx d 8 03 16 00 8c 80 80 d1 a0 
0.223100 1 379 Rx d 8 03 c0 11 48 33 b5 25 00 
0.223300 1 129 Rx d 8 35 21 e6 1f 00 20 ff 3f 
0.223500 1 132 Rx d 6 1a 8a f8 ff 29 40 
0.223700 1 285 Rx d 8 03 47 86 48 95 00 00 00 
0.224000 1 381 Rx d 8 d9 12 00 43 00 1e 00 00 
0.224200 1 441 Rx d 8 12 85 89 00 32 00 38 f3 
0.224500 1 20c Rx d 8 00 e0 54 1e 00 c0 09 00 
0.224700 1 295 Rx d 8 3c 00 a1 ff 00 00 00 04 
0.225000 1 289 Rx d 8 a4 02 00 80 90 00 3d 0f 
0.225200 1 288 Rx d 8 03 16 00 8c 80 80 d1 00 
0.225900 1 201 Rx d 8 01 04 98 00 10 00 80 c4 
0.226500 1 243 Rx d 8 02 cc d9 12 00 40 00 00 
0.226700 1 45a Rx d 8 a0 52 4c d0 3f 3c 00 6c 
0.226900 1 545 Rx d 8 01 00 00 00 00 10 e0 3b 
0.227900 1 2e1 Rx d 8 10 21 04 00 12 00 20 08 
0.228000 1 409 Rx d 1 00 
0.228200 1 23e Rx d 8 f4 01 3a c0 fa fc 0f 34 
0.228800 1 7b8 Rx d 8 06 00 00 00 00 00 40 60 
0.230000 1 139 Rx d 1 00 
0.230400 1 4e3 Rx d 8 cd 04 6b 51 00 0a 00 00 
0.230800 1 241 Rx d 7 4e 4c 92 13 93 54 00 
0.231100 1 798 Rx d 8 6e 04 00 00 00 00 40 5e 
0.231900 1 4e2 Rx d 8 45 03 65 41 03 08 00 00 
0.233100 1 129 Rx d 8 7c 22 e6 1f 00 20 ff 3f 
0.233300 1 132 Rx d 6 17 8a f7 ff 28 40 
0.233500 1 400 Rx d 7 00 e0 fb be ef fb 00 
0.234800 1 2e8 Rx d 8 02 10 00 00 06 00 60 62 
0.235000 1 39d Rx d 5 e0 58 c1 27 00 
0.235900 1 261 Rx d 8 31 40 28 00 54 49 7a a6 
0.236100 1 2c1 Rx d 8 02 0d 06 05 16 d0 92 81 
0.236400 1 677 Rx d 8 03 00 00 00 00 00 00 00 
0.236600 1 263 Rx d 8 02 00 00 00 00 00 00 00 
0.236800 1 343 Rx d 8 00 92 58 ee 94 00 00 00 
0.237100 1 142 Rx d 8 01 00 40 0a c0 1b 00 00 
0.237300 1 2a8 Rx d 8 02 10 00 00 06 00 b0 72 
0.237600 1 37a Rx d 8 03 00 00 00 00 00 00 00 
0.237800 1 709 Rx d 8 0b 6e 00 20 40 4f 00 00 
0.238900 1 552 Rx d 8 00 00 00 00 00 00 60 b7 
0.239400 1 2c7 Rx d 8 00 00 00 00 00 00 52 ff 
0.239600 1 212 Rx d 8 58 04 00 00 82 ff 77 62 
0.239900 1 252 Rx d 8 00 00 94 06 00 18 1d 00 
0.240100 1 292 Rx d 8 ae 33 9f 3c ec 01 00 00 
0.240400 1 2a6 Rx d 8 00 00 6a 18 00 00 00 00 
0.240600 1 2a7 Rx d 8 00 00 00 00 00 88 05 84 
0.240800 1 2d2 Rx d 8 6d 29 a7 4e 00 00 a1 01 
0.241000 1 2f2 Rx d 2 12 01 
0.241200 1 366 Rx d 8 0b 00 01 01 01 00 00 00 
0.241400 1 3b2 Rx d 8 13 32 c5 5c 49 5e c8 5d 
0.241700 1 448 Rx d 7 00 00 10 10 00 00 00 
0.241900 1 2f1 Rx d 8 08 01 00 00 04 80 04 00 
0.242100 1 221 Rx d 8 40 41 05 05 00 50 d1 cf 
0.242400 1 22b Rx d 8 ff ff ff ff 1f fc ff ff 
0.242600 1 3c3 Rx d 8 00 00 00 00 00 45 00 00 
0.242800 1 3e3 Rx d 4 00 00 00 00 
0.243100 1 129 Rx d 8 6b 23 e6 1f 00 20 ff 3f 
0.243300 1 428 Rx d 7 00 00 10 10 00 00 00 
0.243500 1 132 Rx d 6 21 8a f6 ff 24 40 
0.243700 1 249 Rx d 4 5e 07 00 00 
0.243900 1 2e1 Rx d 8 29 6a 42 a1 1f 28 00 00 
0.244200 1 359 Rx d 8 10 57 59 8b e7 31 2e 82 
0.244400 1 372 Rx d 8 0e 00 00 0c 06 7d 00 00 
0.245900 1 422 Rx d 6 f0 00 10 00 00 00 
0.246000 1 362 Rx d 3 00 00 00 
0.246400 1 243 Rx d 8 03 00 00 80 43 72 2d 00 
0.246900 1 3a2 Rx d 8 b2 2b 00 00 20 00 00 00 
0.248500 1 553 Rx d 8 00 00 00 00 00 00 60 b8 
0.250900 1 201 Rx d 8 82 02 00 40 06 00 98 3b 
0.251100 1 38a Rx d 8 01 00 00 00 00 00 00 00 
0.251400 1 21d Rx d 8 04 00 35 00 00 00 00 00 
0.251700 1 25d Rx d 8 36 41 01 16 04 f0 d7 03 
0.251900 1 261 Rx d 8 a2 28 a6 02 80 5c 82 c6 
0.252400 1 27d Rx d 8 00 00 00 00 00 00 00 00 
0.252800 1 29d Rx d 5 00 00 00 20 00 
0.253000 1 2c2 Rx d 8 55 5b a9 b6 02 00 12 a5 
0.253200 1 129 Rx d 8 ed 24 e6 1f 00 20 ff 3f 
0.253400 1 132 Rx d 6 0c 8a f7 ff 24 40 
0.253600 1 2bd Rx d 4 00 00 00 00 
0.253900 1 3f5 Rx d 8 00 00 c8 08 80 04 00 00 
0.254000 1 41d Rx d 1 00 
0.254200 1 43d Rx d 6 00 00 ff 1f 40 00 
0.254400 1 49d Rx d 7 00 00 00 00 00 00 00 
0.254600 1 383 Rx d 8 bf 18 35 00 01 21 a3 74 
0.255900 1 2c1 Rx d 8 03 17 13 00 00 00 00 00 
0.256500 1 263 Rx d 8 03 00 00 00 00 00 00 25 
0.257500 1 3ae Rx d 8 00 40 00 08 00 00 60 a9 
0.257900 1 3a1 Rx d 8 6b 80 40 63 3e 00 f0 7c 
0.258100 1 39a Rx d 8 fd fd fd fd fd 01 00 00 
0.259900 1 2e1 Rx d 8 02 6c 7f 02 52 80 00 00 
0.260100 1 381 Rx d 8 1a 16 16 71 00 00 00 00 
0.260400 1 545 Rx d 8 02 00 03 00 00 00 f0 3f 
0.260600 1 423 Rx d 7 00 00 00 00 08 00 00 
0.261900 1 3a8 Rx d 8 01 02 00 00 00 03 ff 00 
0.262100 1 22a Rx d 4 00 00 29 16 
0.262300 1 3c2 Rx d 8 29 55 00 00 00 00 00 80 
0.263100 1 129 Rx d 8 57 25 e6 1f 01 20 ff 3f 
0.263300 1 132 Rx d 6 20 8a f7 ff 27 40 
0.263800 1 2d1 Rx d 2 7f 01 
0.265100 1 219 Rx d 7 03 80 ff ff ff fb 0f 
0.266000 1 234 Rx d 8 24 e1 03 80 43 00 54 ba 
0.266200 1 719 Rx d 8 15 00 00 00 00 00 00 00 
0.266400 1 2c3 Rx d 8 55 a3 a8 b6 02 00 12 a5 
0.266700 1 243 Rx d 8 04 c8 f1 ff fd 7f 6c 6f 
0.267000 1 3aa Rx d 8 01 00 00 00 00 00 00 00 
0.267300 1 77a Rx d 8 a1 16 c0 5d e4 5d cc 5d 
0.267500 1 78a Rx d 8 01 00 06 00 04 00 00 00 
0.267900 1 261 Rx d 8 7b 4a 0a 00 00 40 95 9a 
0.268100 1 23e Rx d 8 f4 01 3a c0 fa fc 1f 44 
0.268800 1 1fa Rx d 3 02 c0 01 
0.270900 1 682 Rx d 8 00 00 00 40 05 02 70 97 
0.271100 1 253 Rx d 8 00 64 34 85 64 62 00 15 
0.271300 1 4f3 Rx d 4 00 00 00 00 
0.271400 1 213 Rx d 2 d8 ed 
0.271700 1 82 Rx d 8 00 7f ff 80 ff 03 00 80 
0.272100 1 2f9 Rx d 8 b0 fb 07 18 00 00 00 00 
0.273100 1 129 Rx d 8 20 26 e6 1f 00 20 ff 3f 
0.273300 1 132 Rx d 6 1e 8a f7 ff 27 40 
0.273900 1 441 Rx d 8 56 00 b6 c3 58 00 3d cd 
0.274700 1 39d Rx d 5 e1 59 c1 27 00 
0.274900 1 421 Rx d 7 00 14 00 00 00 d0 48 
0.275100 1 285 Rx d 8 04 53 93 47 8b 00 00 00 
0.275400 1 295 Rx d 8 50 00 bf ff 00 00 00 05 
0.275900 1 301 Rx d 8 18 00 00 00 ff ff ff ff 
0.276100 1 201 Rx d 8 83 02 00 40 06 00 98 3b 
0.276300 1 242 Rx d 4 10 15 04 05 
0.276600 1 263 Rx d 8 04 00 00 00 10 04 00 00 
0.276800 1 2b3 Rx d 8 0d 05 a0 94 6e 22 47 a2 
0.277000 1 2c1 Rx d 8 04 00 10 10 0a 0d 08 15 
0.277200 1 2e1 Rx d 8 fb 19 50 59 92 48 09 00 
0.277500 1 45a Rx d 8 fd 07 f8 ff 03 00 02 1f 
0.277700 1 677 Rx d 8 04 00 00 00 00 00 00 00 
0.278000 1 718 Rx d 7 01 00 00 00 00 00 00 
0.278200 1 2c4 Rx d 8 06 5e a1 8c ca e8 0d 00 
0.278500 1 204 Rx d 8 01 00 00 ff 00 00 00 10 
0.278700 1 264 Rx d 6 3a 00 00 00 a0 00 
0.278900 1 224 Rx d 8 04 08 00 48 19 01 10 08 
0.279100 1 2b4 Rx d 6 10 05 d4 0d d6 00 
0.279400 1 3f9 Rx d 8 08 00 00 00 00 00 00 00 
0.279900 1 3a2 Rx d 8 60 85 72 a7 04 80 40 73 
0.281900 1 7aa Rx d 8 08 00 00 00 1c 01 1b 0e 
0.282400 1 225 Rx d 4 05 45 d2 00 
0.282600 1 25b Rx d 8 d3 c0 02 05 6a 86 c0 a5 
0.282900 1 360 Rx d 8 06 00 00 00 00 00 00 00 
0.283200 1 129 Rx d 8 37 27 e6 1f 00 20 ff 3f 
0.283400 1 132 Rx d 6 18 8a f8 ff 28 40 
0.283900 1 261 Rx d 8 cc fe 2f 49 00 40 a4 1c 
0.286200 1 339 Rx d 8 00 11 00 00 00 00 40 0f 
0.286500 1 243 Rx d 8 00 fc cf 4c c3 02 41 29 
0.286800 1 2a1 Rx d 6 00 00 98 3a 00 00 
0.287100 1 142 Rx d 8 28 00 02 5d 00 00 01 00 
0.288400 1 283 Rx d 6 00 00 00 00 00 00 
0.288500 1 419 Rx d 1 00 
0.289900 1 102 Rx d 8 22 b3 88 04 8c 0c a1 09 
0.290300 1 20e Rx d 3 14 04 00 
0.291900 1 2e1 Rx d 8 04 00 00 80 48 44 26 00 
0.292100 1 221 Rx d 8 41 01 55 51 01 02 e0 ee 
0.292300 1 22b Rx d 8 ff ff ff ff 1f fc ff ff 
0.292900 1 545 Rx d 8 40 01 22 10 95 45 09 a0 
0.293100 1 1f9 Rx d 8 00 00 00 00 00 00 00 00 
0.293400 1 129 Rx d 8 e0 28 e6 1f 00 20 ff 3f 
0.293600 1 132 Rx d 6 1e 8a f7 ff 25 40 
0.293700 1 229 Rx d 3 31 0e 00 
0.293900 1 249 Rx d 4 3f 08 00 00 
0.294200 1 54f Rx d 8 00 00 00 00 00 00 00 00 
0.294500 1 3c0 Rx d 8 07 00 00 00 00 00 00 00 
0.295900 1 2c1 Rx d 8 88 3c 7e 00 00 8a 02 07 
0.296100 1 381 Rx d 8 60 c3 e5 92 b9 5c b2 10 
0.296500 1 263 Rx d 8 00 d0 4f 07 d0 07 55 1f 
0.296900 1 122 Rx d 8 00 00 12 92 12 00 00 00 
0.297500 1 3ae Rx d 8 00 40 00 08 00 00 70 b9 
0.298700 1 797 Rx d 4 14 09 50 08 
0.299900 1 261 Rx d 8 05 22 6b ca 9a 42 b0 de 
0.300000 1 119 Rx d 4 00 00 00 00 
0.300400 1 103 Rx d 8 22 b3 88 02 92 2c 21 32 
0.300900 1 201 Rx d 8 08 d3 02 80 22 03 f2 07 
0.301000 1 789 Rx d 4 54 11 50 b7 
0.302000 1 113 Rx d 3 01 97 01 
0.302300 1 318 Rx d 8 1a 08 02 03 1f 21 35 b7 
0.302500 1 458 Rx d 7 00 00 00 00 40 00 00 
0.302600 1 7f4 Rx d 1 01 
0.302800 1 7ff Rx d 8 03 33 08 00 e0 22 16 00 
0.303100 1 129 Rx d 8 b5 29 e6 1f 00 20 ff 3f 
0.303300 1 132 Rx d 6 23 8a f7 ff 25 40 
0.303600 1 52f Rx d 8 00 06 5a 4f 75 96 d7 80 
0.303800 1 348 Rx d 8 16 00 00 34 4a 08 01 10 
0.304000 1 272 Rx d 8 09 80 63 00 00 00 00 00 
0.304200 1 3ed Rx d 1 00 
0.304400 1 2d3 Rx d 8 7e 00 c6 03 43 15 2d 71 
0.304600 1 405 Rx d 8 12 43 32 35 36 38 32 33 
0.304900 1 3e8 Rx d 8 01 00 00 00 00 00 00 00 
0.305100 1 414 Rx d 8 12 20 20 20 20 20 20 20 
0.305300 1 528 Rx d 4 6a 94 f5 ee 
0.305500 1 55a Rx d 8 01 00 00 00 00 00 00 00 
0.305800 1 420 Rx d 8 28 01 40 4b 00 00 80 01 
0.305900 1 666 Rx d 4 00 00 a0 00 
0.306500 1 123 Rx d 8 01 00 00 00 00 3f 00 00 
0.306700 1 243 Rx d 8 01 fc 6c 00 6f 00 7c 7c 
0.307100 1 439 Rx d 8 02 00 40 00 00 14 00 00 
0.307400 1 3c8 Rx d 8 01 00 00 00 00 00 00 00 
0.307900 1 2e1 Rx d 8 45 80 00 00 aa f5 94 6a 
0.308100 1 3a1 Rx d 8 e8 42 0d 8a 01 08 02 8c 
0.308300 1 23e Rx d 8 f4 01 3a c0 fa fc 2f 54 
0.308600 1 31a Rx d 8 60 fc ff 02 00 00 30 aa 
0.308700 1 3d3 Rx d 3 00 00 00 
0.310600 1 2ec Rx d 3 2f 50 6d 
0.310900 1 282 Rx d 8 00 00 00 00 ec 43 0b 24 
0.311900 1 40a Rx d 8 01 00 01 00 00 00 30 40 
0.312100 1 3c2 Rx d 8 00 55 55 55 00 00 59 45 
0.312500 1 3a3 Rx d 8 00 d0 00 00 38 03 fc 01 
0.312900 1 3a2 Rx d 8 01 10 20 00 1a f0 ff 00 
0.313100 1 129 Rx d 8 6a 2a e6 1f 00 20 ff 3f 
0.313300 1 132 Rx d 6 11 8a f7 ff 28 40 
0.313500 1 2aa Rx d 3 2f 50 2b 
0.314700 1 39d Rx d 5 e2 5a c1 27 00 
0.315900 1 261 Rx d 8 00 10 1b 00 c5 4c c0 f2 
0.316100 1 234 Rx d 8 1c d0 01 24 91 04 60 a1 
0.316300 1 2c1 Rx d 8 21 23 0d 0a 02 00 00 00 
0.316600 1 263 Rx d 8 01 d0 5f 0f 88 c7 54 1f 
0.316800 1 42a Rx d 8 f9 6b fe 9a bf e6 af 55 
0.317100 1 677 Rx d 8 00 00 00 00 00 00 00 00 
0.317300 1 719 Rx d 8 16 00 00 00 00 00 00 00 
0.317500 1 7a8 Rx d 8 01 00 00 00 ff a1 98 12 
0.317900 1 1f8 Rx d 4 00 00 00 00 
0.318400 1 393 Rx d 8 09 80 63 00 00 00 00 00 
0.319100 1 788 Rx d 8 01 00 00 00 ff a1 98 12 
0.319900 1 340 Rx d 8 0b 40 00 00 00 00 00 00 
0.320800 1 473 Rx d 8 00 00 03 00 00 00 00 00 
0.321100 1 324 Rx d 8 35 a7 e0 55 a0 01 00 00 
0.321300 1 3b3 Rx d 8 8c 80 04 30 01 00 a8 80 
0.321400 1 5f3 Rx d 3 4a 51 09 
0.322100 1 253 Rx d 8 01 64 34 85 64 62 00 15 
0.322700 1 228 Rx d 8 03 16 00 8c 80 80 e1 b0 
0.323100 1 379 Rx d 8 04 00 62 5f 53 00 48 e6 
0.323300 1 129 Rx d 8 9b 2b e6 1f 00 20 ff 3f 
0.323500 1 132 Rx d 6 19 8a f7 ff 24 40 
0.323900 1 2e1 Rx d 8 10 21 04 00 12 00 20 08 
0.324200 1 441 Rx d 8 12 85 89 00 32 00 00 bb 
0.324500 1 20c Rx d 8 00 e0 54 1e 00 c0 09 00 
0.324900 1 289 Rx d 8 a4 02 00 40 86 00 3d 0f 
0.325200 1 288 Rx d 8 03 16 00 8c 80 80 e1 10 
0.325900 1 295 Rx d 8 2b 48 00 00 00 00 00 06 
0.326100 1 201 Rx d 8 01 04 98 00 10 00 80 c4 
0.326300 1 545 Rx d 8 01 00 00 00 00 10 10 6b 
0.326600 1 243 Rx d 8 02 cc d9 12 00 40 00 00 
0.326800 1 45a Rx d 8 a0 52 4c d0 3f 3c 00 6c 
0.328800 1 7b8 Rx d 8 28 82 08 6f 14 02 50 a1 
0.328900 1 409 Rx d 1 00 
0.330000 1 139 Rx d 1 00 
0.330400 1 4e3 Rx d 8 06 00 00 00 00 00 00 00 
0.330900 1 241 Rx d 7 4d 4c 52 13 93 54 00 
0.331100 1 798 Rx d 8 18 22 08 55 a0 01 50 34 
0.331900 1 261 Rx d 8 31 40 23 00 54 49 da 01 
0.332100 1 381 Rx d 8 01 00 00 42 ad ac ac 00 
0.332300 1 4e2 Rx d 8 06 00 00 00 00 00 00 00 
0.332600 1 400 Rx d 7 00 e0 fb be ef fb 00 
0.332800 1 38d Rx d 8 56 85 aa 6a aa 24 49 02 
0.333100 1 129 Rx d 8 fb 2c e6 1f 00 20 ff 3f 
0.333300 1 132 Rx d 6 14 8a f7 ff 25 40 
0.334800 1 2e8 Rx d 8 02 10 00 00 06 00 70 72 
0.335900 1 2c1 Rx d 8 02 0d 06 05 16 d0 92 81 
0.336400 1 343 Rx d 8 00 92 5c 8e 95 00 00 00 
0.336700 1 263 Rx d 8 02 00 00 00 00 00 00 00 
0.336900 1 142 Rx d 8 01 00 40 0a c0 1b 00 00 
0.337200 1 2a8 Rx d 8 02 10 00 00 06 00 c0 82 
0.337400 1 2b3 Rx d 8 ae 55 00 fc bf 3f 19 00 
0.337600 1 37a Rx d 8 00 00 71 ca 44 00 00 9a 
0.337900 1 3ae Rx d 8 00 40 00 08 00 00 80 c9 
0.338900 1 552 Rx d 8 00 00 00 00 00 00 70 c7 
0.339400 1 2c7 Rx d 8 00 00 00 00 00 00 52 ff 
0.339700 1 2a6 Rx d 8 00 00 6a 18 00 00 00 00 
0.339900 1 212 Rx d 8 58 04 00 00 82 ff 77 62 
0.340100 1 252 Rx d 8 00 00 94 06 00 18 1d 00 
0.340400 1 292 Rx d 8 ae 33 9f 3c ec 01 00 00 
0.340600 1 2a7 Rx d 8 00 00 00 00 00 88 05 84 
0.340800 1 2d2 Rx d 8 6d 29 a7 4e 00 00 a1 01 
0.341100 1 2e1 Rx d 8 29 6a 42 a1 1f 28 00 00 
0.341200 1 2f2 Rx d 2 12 01 
0.341400 1 448 Rx d 7 00 00 10 10 00 00 00 
0.341900 1 2f1 Rx d 8 09 01 00 00 04 30 02 00 
0.342100 1 221 Rx d 8 40 41 05 05 00 50 f1 ef 
0.342400 1 22b Rx d 8 ff ff ff ff 1f fc ff ff 
0.342600 1 25a Rx d 6 ff ff ff ff 00 00 
0.342800 1 3c3 Rx d 8 55 55 55 01 00 80 43 00 
0.343100 1 129 Rx d 8 e9 2d e6 1f 00 20 ff 3f 
0.343300 1 428 Rx d 7 00 00 10 10 00 00 00 
0.343600 1 132 Rx d 6 26 8a f7 ff 27 40 
0.343700 1 249 Rx d 4 5e 09 00 00 
0.344000 1 330 Rx d 8 0b 00 03 01 00 00 00 00 
0.344200 1 359 Rx d 8 bc 3f 00 00 0a 00 00 1c 
0.345900 1 422 Rx d 6 f0 00 10 00 00 00 
0.346100 1 3a2 Rx d 8 b2 2b 00 00 20 00 00 00 
0.346400 1 243 Rx d 8 03 00 00 80 43 72 2d 00 
0.347900 1 261 Rx d 8 a2 28 a6 02 80 5c e2 26 
0.348100 1 23e Rx d 8 f4 01 3a c0 fa fc 3f 64 
0.348500 1 553 Rx d 8 00 00 00 00 00 00 70 c8 
0.350900 1 201 Rx d 8 82 02 00 40 06 00 98 3b 
0.351100 1 38a Rx d 8 03 00 00 00 00 00 00 00 
0.351300 1 20a Rx d 6 f6 15 09 82 18 01 
0.351600 1 21d Rx d 8 04 00 35 00 00 00 00 00 
0.351800 1 7aa Rx d 8 09 f9 06 f9 06 01 00 00 
0.352400 1 25d Rx d 8 36 41 01 16 04 f0 d8 03 
0.352900 1 27d Rx d 8 00 00 00 00 00 00 00 00 
0.353100 1 129 Rx d 8 36 2e e6 1f 00 20 ff 3f 
0.353300 1 132 Rx d 6 0b 8a f6 ff 27 40 
0.353500 1 29d Rx d 5 00 00 00 20 00 
0.353800 1 2c2 Rx d 8 20 40 c0 4b 01 00 80 cb 
0.353900 1 2bd Rx d 4 00 00 00 00 
0.354200 1 3f5 Rx d 8 00 00 c8 08 80 04 00 00 
0.354300 1 41d Rx d 1 00 
0.354500 1 383 Rx d 8 bf 18 35 00 01 21 a3 74 
0.354700 1 43d Rx d 6 00 00 ff 1f 40 00 
0.354900 1 39d Rx d 5 e3 5b c1 27 00 
0.355100 1 49d Rx d 7 00 00 00 00 00 00 00 
0.355400 1 75d Rx d 8 01 00 00 00 00 00 20 a2 
0.355900 1 2e1 Rx d 8 02 6c 7f 02 52 80 00 00 
0.356100 1 2c1 Rx d 8 03 17 13 00 00 00 00 00 
0.356400 1 677 Rx d 8 01 00 00 00 00 00 00 00 
0.356600 1 263 Rx d 8 03 00 00 00 00 00 00 25 
0.357900 1 3a1 Rx d 8 6b 80 40 4f 3e 00 10 88 
0.358100 1 39a Rx d 8 fc fd fd fd fd fd fd 01 
0.358900 1 545 Rx d 8 02 00 03 00 00 00 20 6f 
0.360400 1 423 Rx d 7 00 00 00 00 08 00 00 
0.361000 1 708 Rx d 5 31 22 0d 00 00 
0.361800 1 22a Rx d 4 00 00 29 16 
0.362100 1 2e2 Rx d 8 04 00 00 da 02 1b 00 80 
0.362300 1 3c2 Rx d 8 29 55 00 00 00 00 00 80 
0.363100 1 129 Rx d 8 c7 2f e6 1f 00 20 ff 3f 
0.363300 1 132 Rx d 6 19 8a f7 ff 25 40 
0.363800 1 2d1 Rx d 2 7f 01 
0.364000 1 261 Rx d 8 7b 4a 0a 00 00 40 f5 fa 
0.365100 1 219 Rx d 7 04 74 74 00 00 00 00 
0.366000 1 234 Rx d 8 24 e1 03 80 43 00 74 da 
0.366200 1 719 Rx d 8 17 00 00 00 00 00 00 00 
0.366400 1 2c3 Rx d 8 00 00 00 4b 01 00 80 cb 
0.366700 1 243 Rx d 8 04 c8 f1 ff fd 7f 6c 6f 
0.367000 1 78a Rx d 8 01 00 00 00 22 13 15 0d 
0.367900 1 381 Rx d 8 22 62 f6 f7 0d 10 01 00 
0.368800 1 1fa Rx d 3 02 c0 01 
0.370800 1 682 Rx d 8 00 00 00 40 05 02 80 a7 
0.371000 1 333 Rx d 5 04 10 e8 07 00 
0.371300 1 334 Rx d 8 bf 3f 0a 04 ff 01 d2 15 
0.371500 1 3fd Rx d 8 00 00 00 3c 20 00 01 80 
0.371900 1 2e1 Rx d 8 fb 19 4c 59 92 45 09 00 
0.372100 1 2f9 Rx d 8 b0 fb 07 20 00 00 00 00 
0.373100 1 129 Rx d 8 22 20 e6 1f 00 20 ff 3f 
0.373300 1 132 Rx d 6 21 8a f7 ff 25 40 
0.373900 1 441 Rx d 8 56 00 b6 c3 58 00 05 95 
0.374400 1 2e3 Rx d 7 20 00 00 d2 02 0b 40 
0.374900 1 421 Rx d 7 00 14 00 00 00 d0 48 
0.375800 1 242 Rx d 4 10 15 04 05 
0.376100 1 201 Rx d 8 83 02 00 40 06 00 98 3b 
0.376300 1 2bf Rx d 7 0a 00 00 00 3c 00 00 
0.376500 1 263 Rx d 8 04 00 00 00 10 04 00 00 
0.376800 1 2c1 Rx d 8 04 00 10 10 0a 0d 08 15 
0.377000 1 3f6 Rx d 8 00 00 00 00 b6 14 00 00 
0.377200 1 443 Rx d 6 6f 04 ff 03 00 00 
0.377500 1 45a Rx d 8 fd 07 f8 ff 03 00 02 1f 
0.377700 1 3ae Rx d 8 00 40 00 08 00 00 90 d9 
0.378200 1 2c4 Rx d 8 87 06 a9 90 81 0c 9e 06 
0.378500 1 295 Rx d 8 96 00 a1 ff 00 00 00 07 
0.378700 1 204 Rx d 8 01 00 00 ff 00 00 00 10 
0.378900 1 264 Rx d 6 3a 00 00 00 a0 00 
0.379200 1 224 Rx d 8 04 08 00 48 19 01 10 08 
0.379400 1 2b4 Rx d 6 11 05 d4 0d db 00 
0.379600 1 3a2 Rx d 8 60 85 72 a9 04 80 40 73 
0.379900 1 3f9 Rx d 8 00 00 00 00 00 00 00 00 
0.380100 1 261 Rx d 8 cc fe 2f 49 00 40 04 7c 
0.382400 1 225 Rx d 4 05 45 d2 00 
0.382600 1 25b Rx d 8 d3 c0 02 05 6a 86 d0 b5 
0.382900 1 360 Rx d 8 07 00 00 00 00 00 00 00 
0.383200 1 129 Rx d 8 35 21 e6 1f 00 20 ff 3f 
0.383400 1 132 Rx d 6 1b 8a f7 ff 25 40 
0.386300 1 339 Rx d 8 00 11 00 00 00 00 40 0f 
0.386500 1 243 Rx d 8 00 fc cf 4c c3 02 41 29 
0.386800 1 2a1 Rx d 6 00 00 98 3a 00 00 
0.387100 1 142 Rx d 8 28 00 02 5d 00 00 01 00 
0.387900 1 2e1 Rx d 8 04 00 00 80 48 44 26 00 
0.388100 1 23e Rx d 8 f4 01 3a c0 fa fc 4f 74 
0.388300 1 302 Rx d 8 18 00 00 00 e8 f3 03 0d 
0.388600 1 283 Rx d 6 00 00 00 00 00 00 
0.388700 1 419 Rx d 1 00 
0.389900 1 102 Rx d 8 22 b3 88 04 8c 0c a1 09 
0.390300 1 20e Rx d 3 15 05 00 
0.391900 1 545 Rx d 8 40 01 27 30 95 46 39 f6 
0.392100 1 221 Rx d 8 41 01 55 51 01 02 00 0e 
0.392300 1 22b Rx d 8 ff ff ff ff 1f fc ff ff 
0.393100 1 1f9 Rx d 8 00 00 00 00 00 00 00 00 
0.393400 1 129 Rx d 8 7c 22 e6 1f 00 20 ff 3f 
0.393600 1 132 Rx d 6 18 8a f7 ff 28 40 
0.393700 1 229 Rx d 3 3b 0f 00 
0.393900 1 249 Rx d 4 e2 0a 00 00 
0.394200 1 54f Rx d 8 00 00 00 00 00 00 00 00 
0.394500 1 3c0 Rx d 8 08 00 00 00 00 00 00 00 
0.394700 1 300 Rx d 8 14 05 00 00 fc 21 82 ed 
0.394800 1 311 Rx d 2 ff 03 
0.395000 1 332 Rx d 6 10 09 ab a6 a9 00 
0.395200 1 39d Rx d 5 e4 5c c1 27 00 
0.395500 1 3d2 Rx d 8 78 12 d6 00 5e a7 df 00 
0.395700 1 3f2 Rx d 8 0b 7f 10 16 70 4e da 00 
0.395900 1 261 Rx d 8 05 22 6b ca 9a 42 10 3e 
0.396200 1 2c1 Rx d 8 88 3c 7e 00 00 8a 02 07 
0.396300 1 452 Rx d 3 d7 b8 00 
0.396500 1 263 Rx d 8 00 d0 4f 07 d0 07 55 1f 
0.396800 1 2b3 Rx d 8 af 06 80 30 0f 0e 00 00 
0.397000 1 122 Rx d 8 01 00 00 00 00 3f 00 00 
0.397300 1 472 Rx d 8 ff b0 b0 38 00 7f ff 07 
0.397500 1 492 Rx d 7 7d 03 ff 0f 28 00 00 
0.397700 1 677 Rx d 8 02 00 00 00 00 00 00 00 
0.398000 1 3ae Rx d 8 00 40 00 08 00 00 a1 ea 
0.398700 1 797 Rx d 4 14 09 60 18 
0.400000 1 119 Rx d 4 00 00 00 00 
0.400400 1 103 Rx d 8 22 b3 88 02 92 2c 21 32 
0.400900 1 201 Rx d 8 10 d3 02 80 22 03 f2 07 
0.401100 1 789 Rx d 4 54 11 60 c7 
0.402000 1 113 Rx d 3 01 97 01 
0.402300 1 318 Rx d 8 1a 08 02 03 1f 21 37 b9 
0.402500 1 458 Rx d 7 00 00 00 00 40 00 00 
0.402600 1 7f4 Rx d 1 01 
0.402900 1 7ff Rx d 8 04 21 fb a8 60 20 a4 20 
0.403100 1 129 Rx d 8 6b 23 e6 1f 00 20 ff 3f 
0.403300 1 132 Rx d 6 1b 8a f7 ff 27 40 
0.403600 1 320 Rx d 8 80 00 00 00 00 00 00 00 
0.403900 1 2e1 Rx d 8 45 80 00 00 aa f5 94 6a 
0.404100 1 272 Rx d 8 06 00 ef 78 07 b0 07 08 
0.404400 1 381 Rx d 8 03 56 3e 0b 00 10 04 00 
0.404600 1 372 Rx d 8 00 07 80 8c 12 12 ac 23 
0.404900 1 3e8 Rx d 8 02 00 00 00 00 00 00 00 
0.405100 1 401 Rx d 8 00 2a 4b 82 4a 82 4a 82 
0.405600 1 420 Rx d 8 28 01 40 4b 00 00 00 02 
0.406500 1 123 Rx d 8 00 00 12 92 d2 00 00 80 
0.406700 1 243 Rx d 8 01 fc 6c 00 6f 00 7c 7c 
0.407100 1 439 Rx d 8 02 00 40 00 00 14 00 00 
0.407300 1 3c8 Rx d 8 02 00 00 00 00 00 00 00 
0.407900 1 3a1 Rx d 8 e8 42 0d 8a 01 08 22 ac 
0.410600 1 2ec Rx d 3 2f 60 7d 
0.410900 1 282 Rx d 8 00 00 00 00 ec 43 0b 24 
0.411900 1 261 Rx d 8 00 10 1b 00 c5 4c 20 52 
0.412100 1 3a2 Rx d 8 01 10 20 00 00 f0 ff 00 
0.412400 1 3c2 Rx d 8 00 55 55 55 00 00 59 45 
0.412600 1 3a3 Rx d 8 00 d0 00 00 38 03 fc 01 
0.412800 1 3e2 Rx d 7 00 00 80 2a 00 c0 04 
0.413100 1 129 Rx d 8 40 24 e6 1f 01 20 ff 3f 
0.413300 1 132 Rx d 6 26 8a f7 ff 23 40 
0.413500 1 2aa Rx d 3 2f 60 3b 
0.415900 1 2c1 Rx d 8 21 23 0d 0a 02 00 00 00 
0.416100 1 234 Rx d 8 1d d0 01 24 91 04 80 c2 
0.416400 1 3db Rx d 8 06 56 00 44 00 00 00 00 
0.416600 1 263 Rx d 8 01 d0 5f 0f 88 c7 54 1f 
0.416800 1 43b Rx d 8 01 7f 00 ff 00 00 00 00 
0.417100 1 719 Rx d 8 00 03 14 14 14 20 25 00 
0.417300 1 7a8 Rx d 8 02 40 d4 77 4c 07 00 00 
0.417800 1 1f8 Rx d 4 00 00 00 00 
0.418400 1 393 Rx d 8 06 00 ee 70 07 b0 07 08 
0.419100 1 788 Rx d 8 02 40 d2 d7 4d 00 00 00 
0.419900 1 340 Rx d 8 00 00 00 00 00 00 00 00 
0.420100 1 2e1 Rx d 8 10 21 04 00 12 00 20 08 
0.421200 1 3bb Rx d 3 14 0f 14 
0.421400 1 2f3 Rx d 8 0e 0e 0b 00 00 20 00 00 
0.421700 1 33a Rx d 8 eb 34 13 0e ff ff 03 45 
0.421900 1 273 Rx d 8 81 e1 10 00 c8 00 10 01 
0.422200 1 3fd Rx d 8 01 00 02 00 00 08 12 80 
0.422700 1 228 Rx d 8 03 16 00 8c 80 80 f1 c0 
0.423100 1 379 Rx d 8 05 00 ca 34 51 00 7d 0c 
0.423300 1 129 Rx d 8 fa 25 e6 1f 00 20 ff 3f 
0.423500 1 132 Rx d 6 14 8a f7 ff 27 40 
0.423800 1 401 Rx d 8 01 2a 4c 82 4d 82 4e 82 
0.424000 1 441 Rx d 8 12 85 89 00 32 00 08 c3 
0.424500 1 20c Rx d 8 00 e0 54 1e 00 c0 09 00 
0.424900 1 545 Rx d 8 01 00 00 00 00 10 40 9b 
0.425100 1 289 Rx d 8 a4 02 00 80 a1 00 3d 0f 
0.425400 1 288 Rx d 8 03 16 00 8c 80 80 f1 20 
0.425900 1 201 Rx d 8 01 04 98 00 10 00 80 c4 
0.426500 1 243 Rx d 8 02 cc d9 12 00 40 00 00 
0.426700 1 45a Rx d 8 a0 52 4c d0 3f 3c 00 6c 
0.427900 1 261 Rx d 8 31 40 1f 00 54 49 3a 5d 
0.428100 1 295 Rx d 8 c8 00 ab ff 00 00 00 08 
0.428300 1 23e Rx d 8 f4 01 3a c0 fa fc 5f 84 
0.428500 1 409 Rx d 1 00 
0.428800 1 7b8 Rx d 8 31 f6 02 80 04 00 60 27 
0.430000 1 139 Rx d 1 00 
0.430400 1 4e3 Rx d 8 07 00 00 00 00 00 00 00 
0.430900 1 241 Rx d 7 4e 4c 92 13 93 54 00 
0.431100 1 798 Rx d 8 51 f6 02 42 04 01 60 9c 
0.431900 1 4e2 Rx d 8 1f 18 00 00 00 00 00 00 
0.432400 1 400 Rx d 7 00 e0 fb be ef fb 00 
0.432700 1 7aa Rx d 8 0a 7a 06 7a 06 00 43 00 
0.433100 1 129 Rx d 8 49 26 e6 1f ff 1f ff 3f 
0.433300 1 132 Rx d 6 21 8a f7 ff 28 40 
0.434700 1 39d Rx d 5 05 5d e1 27 00 
0.434900 1 2e8 Rx d 8 02 10 00 00 06 00 80 82 
0.435900 1 2e1 Rx d 8 29 6a 42 a1 1f 28 00 00 
0.436100 1 2c1 Rx d 8 02 0d 06 05 16 d0 92 81 
0.436400 1 677 Rx d 8 03 00 00 00 00 00 00 00 
0.436600 1 263 Rx d 8 02 00 00 00 00 00 00 00 
0.436900 1 343 Rx d 8 00 92 5c 2e 95 00 00 00 
0.437100 1 142 Rx d 8 01 00 40 0a c0 1b 00 00 
0.437400 1 2a8 Rx d 8 02 10 00 00 06 00 d0 92 
0.437600 1 37a Rx d 8 01 00 de ed 2c 01 00 3c 
0.437800 1 3ae Rx d 8 00 40 00 08 00 00 b1 fa 
0.438900 1 552 Rx d 8 00 00 00 00 00 00 80 d7 
0.439400 1 2c7 Rx d 8 00 00 00 00 00 00 52 ff 
0.439700 1 2a6 Rx d 8 00 00 6a 18 00 00 00 00 
0.439900 1 2a7 Rx d 8 00 00 00 00 00 84 05 84 
0.440100 1 381 Rx d 8 04 94 8e 8e 95 91 97 69 
0.440700 1 448 Rx d 7 00 00 10 10 00 00 00 
0.441700 1 2d2 Rx d 8 6e 29 a7 4e 00 00 a1 01 
0.441900 1 212 Rx d 8 58 04 00 00 82 ff 77 62 
0.442200 1 221 Rx d 8 40 41 05 05 00 50 11 0f 
0.442400 1 22b Rx d 8 ff ff ff ff 1f fc ff ff 
0.442700 1 252 Rx d 8 00 00 94 06 00 18 1d 00 
0.442900 1 292 Rx d 8 ae 33 9f 3c ec 01 00 00 
0.443100 1 129 Rx d 8 37 27 e6 1f 00 20 ff 3f 
0.443400 1 2f1 Rx d 8 0a b1 01 00 00 00 00 00 
0.443600 1 132 Rx d 6 1f 8a f7 ff 27 40 
0.443700 1 249 Rx d 4 28 0b 00 00 
0.444000 1 261 Rx d 8 a2 28 a6 02 80 5c 42 86 
0.444100 1 2f2 Rx d 2 12 01 
0.444400 1 359 Rx d 8 3d 00 00 00 00 00 00 00 
0.444500 1 35f Rx d 1 00 
0.444700 1 3c3 Rx d 8 00 00 00 00 00 45 00 00 
0.445000 1 3a2 Rx d 8 b2 2b 00 00 20 00 00 00 
0.445100 1 3e3 Rx d 4 00 00 00 00 
0.445400 1 401 Rx d 8 02 2a 4e 82 4c 82 52 82 
0.445600 1 428 Rx d 7 00 00 10 10 00 00 00 
0.445800 1 42e Rx d 8 00 e0 bf ff fe ef bf ff 
0.446000 1 422 Rx d 6 f0 00 10 00 00 00 
0.446300 1 42f Rx d 7 50 c3 cb 02 fa 00 ff 
0.446500 1 243 Rx d 8 03 00 00 80 43 72 2d 00 
0.448500 1 553 Rx d 8 00 00 00 00 00 00 80 d8 
0.450900 1 201 Rx d 8 82 02 00 40 06 00 98 3b 
0.451100 1 38a Rx d 8 00 00 00 00 00 00 00 00 
0.451500 1 37d Rx d 8 01 79 73 74 00 00 00 00 
0.451700 1 53e Rx d 8 14 05 00 00 75 65 02 81 
0.452000 1 2e1 Rx d 8 02 6c 7f 02 52 80 00 00 
0.452400 1 3dd Rx d 8 32 02 1f 30 02 1f 00 00 
0.452900 1 21d Rx d 8 04 00 35 00 00 00 00 00 
0.453100 1 2c2 Rx d 8 55 5b a9 b6 02 00 12 a5 
0.453300 1 129 Rx d 8 4d 28 e6 1f 01 20 ff 3f 
0.453500 1 132 Rx d 6 11 8a f7 ff 27 40 
0.453800 1 25d Rx d 8 36 41 01 16 04 f0 d7 03 
0.454000 1 27d Rx d 8 00 00 00 00 00 00 00 00 
0.454300 1 3f5 Rx d 8 00 00 c8 08 80 04 00 00 
0.454500 1 29d Rx d 5 00 00 00 20 00 
0.454700 1 383 Rx d 8 bf 18 35 00 01 21 a3 74 
0.454900 1 2bd Rx d 4 00 00 00 00 
0.455000 1 41d Rx d 1 00 
0.455200 1 43d Rx d 6 00 00 ff 1f 40 00 
0.455400 1 49d Rx d 7 00 00 00 00 00 00 00 
0.455900 1 2c1 Rx d 8 03 17 13 00 00 00 00 00 
0.456500 1 263 Rx d 8 03 00 00 00 00 00 00 25 
0.456700 1 2b3 Rx d 8 10 00 00 7c 7c 00 00 00 
0.457900 1 545 Rx d 8 02 00 03 00 00 00 50 9f 
0.458100 1 3a1 Rx d 8 6b 80 40 65 3e 00 30 be 
0.458400 1 39a Rx d 8 fd fd fd fd fd 01 00 00 
0.459900 1 261 Rx d 8 7b 4a 0a 00 00 40 55 5a 
0.460400 1 423 Rx d 7 00 00 00 00 08 00 00 
0.461800 1 22a Rx d 4 00 00 29 16 
0.462000 1 3a8 Rx d 8 02 00 18 01 00 00 00 00 
0.462300 1 3c2 Rx d 8 29 55 00 00 00 00 00 80 
0.463100 1 129 Rx d 8 dc 29 e6 1f ff 1f ff 3f 
0.463300 1 132 Rx d 6 1c 8a f7 ff 28 40 
0.463600 1 372 Rx d 8 01 a9 15 04 40 00 38 01 
0.463800 1 401 Rx d 8 03 2a 52 82 56 82 50 82 
0.463900 1 2d1 Rx d 2 7f 01 
0.465100 1 219 Rx d 7 05 00 6e 6e 6c 6d 00 
0.465900 1 234 Rx d 8 24 e1 03 80 43 00 94 fa 
0.466200 1 719 Rx d 8 01 00 00 00 00 00 00 00 
0.466400 1 2c3 Rx d 8 55 a3 a8 b6 02 00 12 a5 
0.466700 1 243 Rx d 8 04 c8 f1 ff fd 7f 6c 6f 
0.467100 1 78a Rx d 8 01 00 01 00 d8 5d 78 5d 
0.467900 1 2e1 Rx d 8 fb 19 4e 59 92 4c 09 00 
0.468100 1 23e Rx d 8 f4 01 3a c0 fa fc 6f 94 
0.468800 1 1fa Rx d 3 02 c0 01 
0.470600 1 682 Rx d 8 00 00 00 40 05 02 90 b7 
0.471300 1 294 Rx d 8 14 c1 40 00 00 00 00 00 
0.472100 1 2f9 Rx d 8 b0 fb 07 28 00 00 00 00 
0.472400 1 3fd Rx d 8 02 00 00 00 00 00 00 90 
0.473100 1 129 Rx d 8 6a 2a e6 1f 00 20 ff 3f 
0.473300 1 132 Rx d 6 1d 8a f7 ff 25 40 
0.473900 1 441 Rx d 8 56 00 b6 c3 58 00 0d 9d 
0.474500 1 303 Rx d 8 18 00 00 00 ff ff ff ff 
0.474700 1 39d Rx d 5 e6 5e c1 27 00 
0.474900 1 421 Rx d 7 00 14 00 00 00 d0 48 
0.475800 1 724 Rx d 3 06 00 00 
0.476100 1 201 Rx d 8 83 02 00 40 06 00 98 3b 
0.476200 1 242 Rx d 4 10 15 04 05 
0.476500 1 261 Rx d 8 cc fe 2f 49 00 40 64 dc 
0.476700 1 263 Rx d 8 04 00 00 00 10 04 00 00 
0.476900 1 2c1 Rx d 8 04 00 10 10 0a 0d 08 15 
0.477200 1 381 Rx d 8 05 58 6a ff 00 66 c8 28 
0.477400 1 45a Rx d 8 fd 07 f8 ff 03 00 02 1f 
0.477700 1 677 Rx d 8 04 00 00 00 00 00 00 00 
0.477900 1 718 Rx d 7 02 00 00 00 00 00 00 
0.478100 1 3a2 Rx d 8 60 85 72 a9 04 80 40 73 
0.478400 1 2c4 Rx d 8 68 36 00 a7 c1 05 c3 a2 
0.478600 1 204 Rx d 8 01 00 00 ff 00 00 00 10 
0.478800 1 264 Rx d 6 3a 00 00 00 a0 00 
0.479100 1 224 Rx d 8 04 08 00 48 19 01 10 08 
0.479300 1 295 Rx d 8 2b 48 00 00 00 00 00 09 
0.479500 1 2b4 Rx d 6 11 05 d4 0d dc 00 
0.479700 1 3ae Rx d 8 00 40 00 08 00 00 c1 0a 
0.480000 1 3f9 Rx d 8 01 00 00 00 00 00 00 00 
0.482400 1 225 Rx d 4 05 45 d2 00 
0.482600 1 25b Rx d 8 d3 c0 02 05 6a 86 e0 c5 
0.482900 1 360 Rx d 8 08 00 00 00 00 00 04 00 
0.483200 1 129 Rx d 8 f2 2b e6 1f ff 1f ff 3f 
0.483400 1 132 Rx d 6 21 8a f7 ff 25 40 
0.483600 1 401 Rx d 8 04 2a 53 82 50 82 49 82 
0.483900 1 2e1 Rx d 8 04 00 00 80 48 44 26 00 
0.486300 1 339 Rx d 8 00 11 00 00 00 00 40 0f 
0.486500 1 243 Rx d 8 00 fc cf 4c c3 02 41 29 
0.486900 1 2a1 Rx d 6 00 00 98 3a 00 00 
0.487100 1 142 Rx d 8 28 00 02 5d 00 00 01 00 
0.488400 1 283 Rx d 6 00 00 00 00 00 00 
0.488500 1 419 Rx d 1 00 
0.489900 1 102 Rx d 8 22 b3 88 04 8c 0c a1 09 
0.490300 1 20e Rx d 3 16 06 00 
0.490900 1 545 Rx d 8 30 01 27 d0 94 40 69 af 
0.491900 1 261 Rx d 8 05 22 6b ca 9a 42 70 9e 
0.492100 1 221 Rx d 8 41 01 55 51 01 02 20 2e 
0.492300 1 22b Rx d 8 ff ff ff ff 1f fc ff ff 
0.493100 1 1f9 Rx d 8 00 00 00 00 00 00 00 00 
0.493400 1 129 Rx d 8 fb 2c e6 1f 00 20 ff 3f 
0.493600 1 132 Rx d 6 1d 8a f7 ff 24 40 
0.493700 1 229 Rx d 3 46 00 00 
0.494000 1 407 Rx d 8 0d 02 00 00 00 00 00 00 
0.494100 1 249 Rx d 4 3a 0c 00 00 
0.494400 1 54f Rx d 8 00 00 00 00 00 00 00 00 
0.494700 1 3c0 Rx d 8 09 00 00 00 00 00 00 00 
0.495900 1 2c1 Rx d 8 88 3c 7e 00 00 8a 02 07 
0.496500 1 263 Rx d 8 00 d0 4f 07 d0 07 55 1f 
0.496900 1 122 Rx d 8 00 00 12 92 12 00 00 00 
0.498700 1 797 Rx d 4 14 09 70 28 
0.499900 1 2e1 Rx d 8 45 80 00 00 aa f5 94 6a 
0.500000 1 119 Rx d 4 00 00 00 00 
0.500500 1 103 Rx d 8 22 b3 88 02 92 2c 21 32 
0.500900 1 201 Rx d 8 10 e3 02 80 22 03 f2 07 
0.501100 1 789 Rx d 4 54 11 70 d7 
0.502000 1 113 Rx d 3 01 97 01 
0.502200 1 7f4 Rx d 1 01 
0.502400 1 7ff Rx d 8 05 09 20 41 20 04 81 00 
0.502600 1 318 Rx d 8 1a 08 02 03 1f 21 39 bb 
0.502900 1 458 Rx d 7 00 00 00 00 40 00 00 
0.503100 1 129 Rx d 8 e9 2d e6 1f 00 20 ff 3f 
0.503300 1 132 Rx d 6 20 8a f7 ff 27 40 
0.503600 1 401 Rx d 8 05 2a 48 82 4b 82 48 82 
0.503900 1 272 Rx d 8 09 80 63 00 00 00 00 00 
0.504800 1 3e8 Rx d 8 03 00 00 00 00 00 00 00 
0.505600 1 420 Rx d 8 28 01 40 4b 00 00 80 02 
0.506500 1 123 Rx d 8 01 00 00 00 00 3f 00 00 
0.506700 1 243 Rx d 8 01 fc 6c 00 6f 00 7c 7c 
0.507100 1 439 Rx d 8 02 00 40 00 00 14 00 00 
0.507400 1 3c8 Rx d 8 03 00 00 00 00 00 00 00 
0.507900 1 261 Rx d 8 00 10 1b 00 c5 4c 80 b2 
0.508100 1 23e Rx d 8 f4 01 3a c0 fa fc 7f a4 
0.508400 1 3a1 Rx d 8 e8 42 0d 8a 01 08 42 cc 
0.508600 1 31a Rx d 8 60 fc ff 02 00 00 40 ba 
0.510600 1 2ec Rx d 3 2f 70 8d 
0.510900 1 282 Rx d 8 00 00 00 00 ec 43 0b 24 
0.511200 1 3a2 Rx d 8 01 10 20 00 00 f0 ff 00 
0.511900 1 381 Rx d 8 46 00 00 00 08 01 00 00 
0.512100 1 3c2 Rx d 8 00 55 55 55 00 00 59 45 
0.512400 1 40a Rx d 8 01 00 01 00 00 00 40 50 
0.512600 1 3a3 Rx d 8 00 d0 00 00 38 03 fc 01 
0.512900 1 7aa Rx d 8 0b 40 00 29 3e 00 34 00 
0.513100 1 129 Rx d 8 5f 2e e6 1f ff 1f ff 3f 
0.513300 1 132 Rx d 6 23 8a f7 ff 25 40 
0.513500 1 2aa Rx d 3 2f 70 4b 
0.514700 1 39d Rx d 5 07 5f e1 27 00 
0.515900 1 2e1 Rx d 8 10 21 04 00 12 00 20 08 
0.516100 1 234 Rx d 8 1c d0 01 24 91 04 a0 e1 
0.516400 1 2c1 Rx d 8 21 23 0d 0a 02 00 00 00 
0.516600 1 263 Rx d 8 01 d0 5f 0f 88 c7 54 1f 
0.516800 1 2b3 Rx d 8 00 9d 95 80 9d 92 7a 8b 
0.517100 1 42a Rx d 8 f9 6b fe 9a bf e6 af 55 
0.517300 1 677 Rx d 8 00 00 00 00 00 00 00 00 
0.517600 1 719 Rx d 8 0e 00 00 00 00 00 00 14 
0.517800 1 7a8 Rx d 8 a4 b4 71 63 00 00 82 00 
0.518000 1 1f8 Rx d 4 00 00 00 00 
0.518200 1 3ae Rx d 8 00 40 00 08 00 00 d1 1a 
0.518500 1 393 Rx d 8 09 80 63 00 00 00 00 00 
0.519100 1 788 Rx d 8 a8 bc 71 63 00 00 94 00 
0.519900 1 340 Rx d 8 01 00 00 00 00 00 00 00 
0.521300 1 61d Rx d 8 02 00 85 33 a7 29 27 19 
0.521500 1 238 Rx d 8 b0 29 9c d4 1f 00 46 e8 
0.522700 1 228 Rx d 8 03 16 00 8c 80 80 01 d0 
0.523100 1 379 Rx d 8 06 00 3c 88 52 00 81 c0 
0.523300 1 129 Rx d 8 c7 2f e6 1f 00 20 ff 3f 
0.523500 1 132 Rx d 6 21 8a f7 ff 25 40 
0.523800 1 372 Rx d 8 02 8e 00 3b 80 01 3c 59 
0.524000 1 261 Rx d 8 31 40 18 00 54 49 9a b6 
0.524200 1 401 Rx d 8 06 2a 4b 82 48 82 52 82 
0.524500 1 20c Rx d 8 00 e0 54 1e 00 c0 09 00 
0.524700 1 441 Rx d 8 12 85 89 00 32 00 10 cb 
0.525000 1 545 Rx d 8 01 00 00 00 00 10 70 cb 
0.525200 1 288 Rx d 8 03 16 00 8c 80 80 01 30 
0.525400 1 289 Rx d 8 a4 02 00 c0 94 00 3d 0f 
0.525900 1 201 Rx d 8 01 04 98 00 10 00 80 c4 
0.526500 1 243 Rx d 8 02 cc d9 12 00 40 00 00 
0.526700 1 45a Rx d 8 a0 52 4c d0 3f 3c 00 6c 
0.527200 1 7c8 Rx d 8 0d c4 0c 38 59 00 00 00 
0.527800 1 409 Rx d 1 00 
0.528800 1 7b8 Rx d 8 a2 1d 10 a0 c0 05 70 be 
0.529900 1 295 Rx d 8 96 00 a1 ff 00 00 00 0a 
0.530000 1 139 Rx d 1 00 
0.530100 1 726 Rx d 3 06 00 00 
0.530500 1 4e3 Rx d 8 20 06 03 00 00 00 a8 1f 
0.530900 1 241 Rx d 7 4f 4c d2 13 93 54 00 
0.531100 1 798 Rx d 8 0a 23 77 3c 08 01 70 05 
0.531900 1 2e1 Rx d 8 29 6a 42 a1 1f 28 00 00 
0.532100 1 4e2 Rx d 8 20 10 02 00 00 00 a8 15 
0.532400 1 400 Rx d 7 00 e0 fb be ef fb 00 
0.533100 1 129 Rx d 8 22 20 e6 1f 00 20 ff 3f 
0.533300 1 132 Rx d 6 1c 8a f7 ff 27 40 
0.534800 1 2e8 Rx d 8 02 10 00 00 06 00 90 92 
0.535900 1 2c1 Rx d 8 02 0d 06 05 16 d0 92 81 
0.536500 1 343 Rx d 8 00 92 5c 5e 95 00 00 00 
0.536700 1 263 Rx d 8 02 00 00 00 00 00 00 00 
0.536900 1 142 Rx d 8 01 00 40 0a c0 1b 00 00 
0.537200 1 2a8 Rx d 8 02 10 00 00 06 00 e0 a2 
0.537400 1 37a Rx d 8 02 00 6b e4 f2 00 00 38 
0.538900 1 552 Rx d 8 00 00 00 00 00 00 90 e7 
0.539200 1 2d2 Rx d 8 6d 29 a7 4e 00 00 a1 01 
0.539400 1 212 Rx d 8 58 04 00 00 82 ff 77 62 
0.539700 1 252 Rx d 8 00 00 94 06 00 18 1d 00 
0.539900 1 261 Rx d 8 a2 28 a6 02 80 5c a2 e6 
0.540100 1 292 Rx d 8 ae 33 9f 3c ec 01 00 00 
0.540400 1 2a6 Rx d 8 00 00 6a 18 00 00 00 00 
0.540600 1 2a7 Rx d 8 00 00 00 00 00 88 05 84 
0.540900 1 2c7 Rx d 8 00 00 00 00 00 00 52 ff 
0.541000 1 2f2 Rx d 2 12 01 
0.541200 1 312 Rx d 8 70 e4 66 04 9d b9 1a 1c 
0.541500 1 352 Rx d 8 00 00 b4 09 6d 09 66 09 
0.541700 1 392 Rx d 8 00 10 00 00 00 00 00 00 
0.541900 1 221 Rx d 8 40 41 05 05 00 50 31 2f 
0.542200 1 2f1 Rx d 8 2b 74 00 80 00 00 00 00 
0.542400 1 3b2 Rx d 8 14 ff 03 00 00 00 90 16 
0.542700 1 3c3 Rx d 8 55 55 55 01 00 80 43 00 
0.542900 1 448 Rx d 7 00 00 10 10 00 00 00 
0.543100 1 712 Rx d 8 00 2a c0 11 0b 11 9f 11 
0.543400 1 129 Rx d 8 35 21 e6 1f 00 20 ff 3f 
0.543600 1 132 Rx d 6 1a 8a f6 ff 24 40 
0.543800 1 22b Rx d 8 ff ff ff ff 1f fc ff ff 
0.544000 1 249 Rx d 4 13 0d 00 00 
0.544200 1 359 Rx d 8 3e 04 00 00 75 f6 b3 8f 
0.544400 1 3a2 Rx d 8 b2 2b 00 00 20 00 00 00 
0.544700 1 401 Rx d 8 07 2a 49 82 4d 82 4b 82 
0.544900 1 428 Rx d 7 00 00 10 10 00 00 00 
0.545900 1 422 Rx d 6 f0 00 10 00 00 00 
0.546500 1 243 Rx d 8 03 00 00 80 43 72 2d 00 
0.547900 1 2e1 Rx d 8 02 6c 7f 02 52 80 00 00 
0.548100 1 23e Rx d 8 f4 01 3a c0 fa fc 8f b4 
0.548400 1 381 Rx d 8 07 00 00 54 7d 27 00 00 
0.548600 1 553 Rx d 8 00 00 00 00 00 00 90 e8 
0.548900 1 709 Rx d 8 0c e2 00 00 00 00 00 00 
0.550600 1 3cc Rx d 8 03 11 c3 19 18 0e 09 00 
0.550900 1 201 Rx d 8 82 02 00 40 06 00 98 3b 
0.551100 1 38a Rx d 8 01 00 00 00 00 00 00 00 
0.551500 1 31e Rx d 8 00 00 00 00 00 00 00 00 
0.551600 1 41d Rx d 1 00 
0.551900 1 21d Rx d 8 04 00 35 00 00 00 00 00 
0.552500 1 25d Rx d 8 36 41 01 16 04 f0 d8 03 
0.552900 1 3f5 Rx d 8 00 00 c8 08 80 04 00 00 
0.553100 1 129 Rx d 8 7c 22 e6 1f 00 20 ff 3f 
0.553300 1 132 Rx d 6 16 8a f7 ff 27 40 
0.553600 1 27d Rx d 8 00 00 00 00 00 00 00 00 
0.553800 1 29d Rx d 5 00 00 00 20 00 
0.553900 1 2bd Rx d 4 00 00 00 00 
0.554200 1 2c2 Rx d 8 20 40 c0 4b 01 00 80 cb 
0.554400 1 39b Rx d 8 00 08 df e0 b0 48 51 ae 
0.554700 1 383 Rx d 8 bf 18 35 00 01 21 a3 74 
0.554900 1 405 Rx d 8 10 00 00 00 00 4c 52 57 
0.555100 1 39d Rx d 5 d8 50 c1 27 00 
0.555300 1 414 Rx d 8 10 00 00 00 00 20 20 20 
0.555500 1 43d Rx d 6 00 00 ff 1f 40 00 
0.555800 1 49d Rx d 7 00 00 00 00 00 00 00 
0.556000 1 261 Rx d 8 7b 4a 0a 00 00 40 b5 ba 
0.556200 1 2c1 Rx d 8 03 17 13 00 00 00 00 00 
0.556500 1 263 Rx d 8 03 00 00 00 00 00 00 25 
0.556700 1 55a Rx d 8 02 00 00 00 00 00 00 00 
0.557000 1 545 Rx d 8 02 00 03 00 00 00 80 cf 
0.557100 1 666 Rx d 4 00 00 a0 00 
0.557400 1 677 Rx d 8 01 00 00 00 00 00 00 00 
0.557600 1 75d Rx d 8 52 d0 ac 7a 80 d5 f4 41 
0.557900 1 3ae Rx d 8 00 40 00 08 00 00 e1 2a 
0.558100 1 3a1 Rx d 8 6b 80 40 51 3e 00 50 ca 
0.558300 1 39a Rx d 8 fc fd fd fd fd fd fd 01 
0.560400 1 423 Rx d 7 00 00 00 00 08 00 00 
0.561800 1 22a Rx d 4 00 00 29 16 
0.562000 1 2e2 Rx d 8 05 00 00 d6 02 1b 00 80 
0.562300 1 3c2 Rx d 8 29 55 00 00 00 00 00 80 
0.563100 1 129 Rx d 8 6b 23 e6 1f 00 20 ff 3f 
0.563300 1 132 Rx d 6 07 8a f7 ff 28 40 
0.563600 1 401 Rx d 8 08 2a 4b 82 4d 82 4c 82 
0.563800 1 2d1 Rx d 2 7f 01 
0.564000 1 2e1 Rx d 8 fb 19 48 59 92 3a 09 00 
0.565100 1 219 Rx d 7 00 80 ff ff ff f8 0f 
0.566000 1 234 Rx d 8 23 e1 03 80 43 00 b4 19 
0.566200 1 719 Rx d 8 0c 58 0f 00 50 00 00 00 
0.566500 1 2c3 Rx d 8 00 00 00 4b 01 00 80 cb 
0.566700 1 243 Rx d 8 04 c8 f1 ff fd 7f 6c 6f 
0.567000 1 78a Rx d 8 01 00 02 00 66 06 65 06 
0.568800 1 1fa Rx d 3 02 c0 01 
0.570600 1 682 Rx d 8 00 00 00 40 05 02 a0 c7 
0.570800 1 1bb Rx d 1 02 
0.571100 1 284 Rx d 8 30 00 00 00 40 08 e0 de 
0.571900 1 261 Rx d 8 cc fe 2f 49 00 40 c4 3c 
0.572100 1 2f9 Rx d 8 b0 fb 07 01 9f a0 6f b2 
0.573100 1 129 Rx d 8 ed 24 e6 1f 00 20 ff 3f 
0.573300 1 132 Rx d 6 1c 8a f7 ff 28 40 
0.573900 1 441 Rx d 8 56 00 b6 c3 58 00 15 a5 
0.574400 1 2e3 Rx d 7 03 00 00 d6 02 0b 00 
0.574900 1 421 Rx d 7 00 14 00 00 00 d0 48 
0.575900 1 3bd Rx d 8 04 00 00 00 00 00 00 00 
0.576100 1 201 Rx d 8 83 02 00 40 06 00 98 3b 
0.576300 1 242 Rx d 4 10 15 04 05 
0.576600 1 263 Rx d 8 04 00 00 00 10 04 00 00 
0.576800 1 2b3 Rx d 8 01 b0 a5 9b 94 a0 98 9c 
0.577000 1 2bf Rx d 7 0a 00 00 00 3c 00 00 
0.577300 1 2c1 Rx d 8 04 00 10 10 0a 0d 08 15 
0.577500 1 3a2 Rx d 8 60 85 72 a9 04 80 40 73 
0.577700 1 45a Rx d 8 fd 07 f8 ff 03 00 02 1f 
0.578200 1 2c4 Rx d 8 49 da fd 2e a9 9c 25 8b 
0.578500 1 204 Rx d 8 01 00 00 ff 00 00 00 10 
0.578700 1 264 Rx d 6 3a 00 00 00 a0 00 
0.579000 1 224 Rx d 8 04 08 00 48 19 01 10 08 
0.579200 1 2b4 Rx d 6 11 05 d4 0d db 00 
0.579400 1 3f9 Rx d 8 02 00 00 00 00 00 00 00 
0.579900 1 2e1 Rx d 8 04 00 00 80 48 44 26 00 
0.580400 1 295 Rx d 8 c8 00 ab ff 00 00 00 0b 
0.581800 1 7aa Rx d 8 0c 00 00 00 00 00 00 39 
0.582400 1 225 Rx d 4 05 45 d2 00 
0.582600 1 25b Rx d 8 d3 c0 02 05 6a 86 f0 d5 
0.583000 1 360 Rx d 8 09 00 00 00 00 00 00 00 
0.583200 1 129 Rx d 8 fa 25 e6 1f 00 20 ff 3f 
0.583400 1 132 Rx d 6 2a 8a f7 ff 27 40 
0.583600 1 372 Rx d 8 03 10 0f 50 00 00 00 00 
0.583900 1 401 Rx d 8 09 2a 50 82 4e 82 4d 82 
0.584100 1 381 Rx d 8 e8 6d fe fc 00 00 20 01 
0.586300 1 339 Rx d 8 00 11 00 00 00 00 40 0f 
0.586500 1 243 Rx d 8 00 fc cf 4c c3 02 41 29 
0.586900 1 2a1 Rx d 6 00 00 98 3a 00 00 
0.587100 1 142 Rx d 8 28 00 02 5d 00 00 01 00 
0.587900 1 261 Rx d 8 05 22 6b ca 9a 42 d0 fe 
0.588300 1 23e Rx d 8 f4 01 3a c0 fa fc 9f c4 
0.588500 1 283 Rx d 6 00 00 00 00 00 00 
0.588700 1 419 Rx d 1 00 
0.589900 1 545 Rx d 8 40 01 27 00 95 48 99 28 
0.590100 1 102 Rx d 8 22 b3 88 04 8c 0c a1 09 
0.590300 1 20e Rx d 3 17 07 00 
0.591900 1 221 Rx d 8 41 01 55 51 01 02 40 4e 
0.592300 1 22b Rx d 8 ff ff ff ff 1f fc ff ff 
0.592600 1 3e9 Rx d 8 f0 80 02 00 00 00 50 ae 
0.593100 1 129 Rx d 8 8d 26 e6 1f 01 20 ff 3f 
0.593300 1 132 Rx d 6 22 8a f7 ff 23 40 
0.593600 1 1f9 Rx d 8 00 00 00 00 00 00 00 00 
0.593700 1 229 Rx d 3 44 01 00 
0.593900 1 249 Rx d 4 af 0e 00 00 
0.594200 1 54f Rx d 8 00 00 00 00 00 00 00 00 
0.594500 1 3c0 Rx d 8 0a 00 10 00 00 00 00 00 
0.594700 1 39d Rx d 5 f9 51 e1 27 00 
0.595900 1 2e1 Rx d 8 45 80 00 00 aa f5 94 6a 
0.596100 1 2c1 Rx d 8 88 3c 7e 00 00 8a 02 07 
0.596400 1 677 Rx d 8 02 00 00 00 00 00 00 00 
0.596600 1 263 Rx d 8 00 d0 4f 07 d0 07 55 1f 
0.597000 1 122 Rx d 8 01 00 00 00 00 3f 00 00 
0.598000 1 3ae Rx d 8 00 40 00 08 00 00 f1 3a 
0.598700 1 797 Rx d 4 14 09 80 38 
0.600000 1 119 Rx d 4 00 00 00 00 
0.600500 1 103 Rx d 8 22 b3 88 02 92 2c 21 32 
0.600900 1 201 Rx d 8 08 d3 02 80 22 03 f2 07 
0.601100 1 789 Rx d 4 54 11 80 e7 
0.602100 1 113 Rx d 3 01 97 01 
0.602300 1 318 Rx d 8 1a 08 02 03 1f 21 3b bd 
0.602500 1 458 Rx d 7 00 00 00 00 40 00 00 
0.602600 1 7f4 Rx d 1 01 
0.602900 1 7ff Rx d 8 06 84 32 00 00 00 08 c0 
0.603100 1 129 Rx d 8 9a 27 e6 1f 01 20 ff 3f 
0.603300 1 132 Rx d 6 23 8a f7 ff 28 40 
0.603600 1 320 Rx d 8 01 00 00 08 00 00 00 00 
0.603800 1 401 Rx d 8 0a 2a 4d 82 4d 82 53 82 
0.604000 1 261 Rx d 8 00 10 1b 00 c5 4c e0 12 
0.604300 1 272 Rx d 8 06 00 ef 78 07 b0 07 08 
0.604800 1 3e8 Rx d 8 04 00 00 00 00 00 00 00 
0.605600 1 420 Rx d 8 28 01 40 4b 00 00 00 03 
0.606500 1 123 Rx d 8 00 00 12 92 d2 00 00 80 
0.606700 1 243 Rx d 8 01 fc 6c 00 6f 00 7c 7c 
0.607100 1 439 Rx d 8 02 00 40 00 00 14 00 00 
0.607400 1 3c8 Rx d 8 04 00 00 00 00 00 00 00 
0.607900 1 3a1 Rx d 8 e8 42 0d 8a 01 08 62 ec 
0.609900 1 3a2 Rx d 8 01 10 20 00 07 f0 ff 00 
0.610600 1 2ec Rx d 3 2f 80 9d 
0.610900 1 282 Rx d 8 00 00 00 00 ec 43 0b 24 
0.611900 1 2e1 Rx d 8 10 21 04 00 12 00 20 08 
0.612100 1 3c2 Rx d 8 00 55 55 55 00 00 59 45 
0.612400 1 3e2 Rx d 7 00 00 80 2a 00 c0 04 
0.612600 1 3a3 Rx d 8 00 d0 00 00 38 03 fc 01 
0.613100 1 129 Rx d 8 4d 28 e6 1f 01 20 ff 3f 
0.613300 1 132 Rx d 6 16 8a f7 ff 25 40 
0.613500 1 2aa Rx d 3 2f 80 5b 
0.615900 1 2c1 Rx d 8 21 23 0d 0a 02 00 00 00 
0.616100 1 234 Rx d 8 1d d0 01 24 91 04 c0 02 
0.616400 1 719 Rx d 8 0d 00 00 00 00 00 00 00 
0.616600 1 263 Rx d 8 01 d0 5f 0f 88 c7 54 1f 
0.616900 1 7a8 Rx d 8 01 00 00 00 ff a1 98 12 
0.617800 1 1f8 Rx d 4 00 00 00 00 
0.618500 1 393 Rx d 8 06 00 ee 78 07 b0 07 08 
0.619100 1 788 Rx d 8 01 00 00 00 ff a1 98 12 
0.619900 1 340 Rx d 8 02 00 00 00 00 00 00 00 
0.620100 1 261 Rx d 8 31 40 1b 00 53 49 fa 18 
0.620400 1 381 Rx d 8 09 00 00 82 02 00 00 6c 
0.621300 1 285 Rx d 8 41 03 65 01 0d 00 08 00 
0.621500 1 286 Rx d 5 ff ff ff ff 31 
0.622800 1 228 Rx d 8 03 16 00 8c 80 80 11 e0 
0.623000 1 545 Rx d 8 01 00 00 00 00 10 a0 fb 
0.623200 1 129 Rx d 8 b5 29 e6 1f 00 20 ff 3f 
0.623400 1 132 Rx d 6 12 8a f7 ff 25 40 
0.623700 1 379 Rx d 8 07 a0 79 0b 00 20 03 06 
0.623900 1 401 Rx d 8 0b 2a 50 82 52 82 4f 82 
0.624100 1 441 Rx d 8 12 85 89 00 32 00 18 d3 
0.624500 1 20c Rx d 8 00 e0 54 1e 00 c0 09 00 
0.625000 1 289 Rx d 8 a4 02 00 00 88 00 3d 0f 
0.625200 1 288 Rx d 8 03 16 00 8c 80 80 11 40 
0.625900 1 201 Rx d 8 01 04 98 00 10 00 80 c4 
0.626200 1 23a Rx d 8 0a ed 00 03 00 00 00 00 
0.626500 1 243 Rx d 8 02 cc d9 12 00 40 00 00 
0.626700 1 45a Rx d 8 a0 52 4c d0 3f 3c 00 6c 
0.627900 1 2e1 Rx d 8 29 6a 42 a1 1f 28 00 00 
0.628000 1 409 Rx d 1 00 
0.628300 1 23e Rx d 8 f4 01 3a c0 fa fc af d4 
0.628800 1 7b8 Rx d 8 8b ac 32 a5 c9 06 80 77 
0.630000 1 139 Rx d 1 00 
0.630500 1 4e3 Rx d 8 01 e3 06 ff 0f 00 28 29 
0.630900 1 241 Rx d 7 4d 4c 52 13 93 54 00 
0.631100 1 798 Rx d 8 9b f2 48 43 16 09 80 63 
0.631900 1 4e2 Rx d 8 01 c5 06 00 00 00 a8 28 
0.632400 1 400 Rx d 7 00 e0 fb be ef fb 00 
0.633100 1 129 Rx d 8 6a 2a e6 1f 00 20 ff 3f 
0.633300 1 132 Rx d 6 0d 8a f7 ff 25 40 
0.634700 1 39d Rx d 5 da 52 c1 27 00 
0.634900 1 2e8 Rx d 8 02 10 00 00 06 00 a0 a2 
0.635900 1 261 Rx d 8 a2 28 a6 02 80 5c 02 46 
0.636100 1 2c1 Rx d 8 02 0d 06 05 16 d0 92 81 
0.636400 1 677 Rx d 8 03 00 00 00 00 00 00 00 
0.636600 1 263 Rx d 8 02 00 00 00 00 00 00 00 
0.636900 1 2b3 Rx d 8 22 55 00 00 00 00 00 0e 
0.637100 1 142 Rx d 8 01 00 40 0a c0 1b 00 00 
0.637300 1 2a8 Rx d 8 02 10 00 00 06 00 f0 b2 
0.637600 1 343 Rx d 8 00 92 5c be 94 00 00 00 
0.637800 1 37a Rx d 8 03 00 00 00 00 00 00 00 
0.638100 1 3ae Rx d 8 00 40 00 08 00 00 01 4a 
0.638900 1 552 Rx d 8 00 00 00 00 00 00 a0 f7 
0.639400 1 2c7 Rx d 8 00 00 00 00 00 00 52 ff 
0.639700 1 2a6 Rx d 8 00 00 6a 18 00 00 00 00 
0.639900 1 212 Rx d 8 58 04 00 00 82 ff 77 62 
0.640100 1 252 Rx d 8 00 00 94 06 00 18 1d 00 
0.640400 1 292 Rx d 8 ae 33 9f 3c ec 01 00 00 
0.640600 1 2a7 Rx d 8 00 00 00 00 00 88 05 84 
0.640800 1 2d2 Rx d 8 6e 29 a7 4e 00 00 a1 01 
0.641000 1 2f2 Rx d 2 12 01 
0.641200 1 448 Rx d 7 00 00 10 10 00 00 00 
0.641400 1 712 Rx d 8 01 2a 85 11 bb 10 a1 11 
0.641600 1 727 Rx d 2 06 00 
0.641900 1 2f1 Rx d 8 0c 19 00 d0 01 00 00 00 
0.642200 1 221 Rx d 8 40 41 05 05 00 50 51 4f 
0.642400 1 22b Rx d 8 ff ff ff ff 1f fc ff ff 
0.642600 1 3c3 Rx d 8 00 00 00 00 00 45 00 00 
0.642800 1 3e3 Rx d 4 00 00 00 00 
0.643100 1 3a2 Rx d 8 b2 2b 00 00 20 00 00 00 
0.643300 1 129 Rx d 8 9b 2b e6 1f 00 20 ff 3f 
0.643500 1 132 Rx d 6 0b 8a f7 ff 24 40 
0.643700 1 249 Rx d 4 ce 0f 00 00 
0.643900 1 372 Rx d 8 04 00 00 00 00 00 fa 10 
0.644100 1 2e1 Rx d 8 02 6c 7f 02 52 80 00 00 
0.644400 1 359 Rx d 8 3f 00 00 00 00 00 00 00 
0.644600 1 401 Rx d 8 0c 2a 53 82 52 82 4d 82 
0.644900 1 428 Rx d 7 00 00 10 10 00 00 00 
0.645900 1 422 Rx d 6 f0 00 10 00 00 00 
0.646500 1 243 Rx d 8 03 00 00 80 43 72 2d 00 
0.648500 1 553 Rx d 8 00 00 00 00 00 00 a0 f8 
0.650900 1 201 Rx d 8 82 02 00 40 06 00 98 3b 
0.651100 1 38a Rx d 8 03 00 00 00 00 00 00 00 
0.651400 1 31e Rx d 8 01 00 00 00 00 00 00 00 
0.651600 1 21d Rx d 8 04 00 35 00 00 00 00 00 
0.651900 1 261 Rx d 8 7b 4a 0a 00 00 40 15 1a 
0.652500 1 25d Rx d 8 36 41 01 16 04 f0 d8 03 
0.652900 1 3f5 Rx d 8 00 00 c8 08 80 04 00 00 
0.653100 1 129 Rx d 8 92 2c e6 1f ff 1f ff 3f 
0.653300 1 132 Rx d 6 1b 8a f6 ff 24 40 
0.653600 1 27d Rx d 8 00 00 00 00 00 00 00 00 
0.653800 1 29d Rx d 5 00 00 00 20 00 
0.653900 1 2bd Rx d 4 00 00 00 00 
0.654200 1 2c2 Rx d 8 55 5b a9 b6 02 00 12 a5 
0.654300 1 41d Rx d 1 00 
0.654500 1 383 Rx d 8 bf 18 35 00 01 21 a3 74 
0.654700 1 43d Rx d 6 00 00 ff 1f 40 00 
0.655000 1 49d Rx d 7 00 00 00 00 00 00 00 
0.655900 1 2c1 Rx d 8 03 17 13 00 00 00 00 00 
0.656200 1 381 Rx d 8 0a c0 b2 02 90 dd 6e 00 
0.656400 1 545 Rx d 8 02 00 03 00 00 00 b0 ff 
0.656600 1 263 Rx d 8 03 00 00 00 00 00 00 25 
0.657900 1 3a1 Rx d 8 6b 80 40 4d 3e 00 70 e6 
0.658100 1 39a Rx d 8 fd fd fd fd fd 01 00 00 
0.659900 1 2e1 Rx d 8 fb 19 49 49 92 43 09 00 
0.660400 1 423 Rx d 7 00 00 00 00 08 00 00 
0.661800 1 22a Rx d 4 00 00 29 16 
0.662000 1 3a8 Rx d 8 03 00 00 00 00 00 00 00 
0.662300 1 3c2 Rx d 8 29 55 00 00 00 00 00 80 
0.662500 1 7aa Rx d 8 c0 ef 8e 3c 00 08 8c 29 
0.663100 1 129 Rx d 8 e9 2d e6 1f 00 20 ff 3f 
0.663300 1 132 Rx d 6 15 8a f7 ff 27 40 
0.663600 1 401 Rx d 8 0d 2a 49 82 4c 82 4d 82 
0.663800 1 2d1 Rx d 2 7f 01 
0.665100 1 219 Rx d 7 01 80 ff ff ff f9 0f 
0.665900 1 234 Rx d 8 24 e1 03 80 43 00 d4 3a 
0.666200 1 43b Rx d 8 02 7f 00 ff 00 00 00 00 
0.666400 1 34a Rx d 8 01 07 00 00 00 00 00 60 
0.666700 1 243 Rx d 8 04 c8 f1 ff fd 7f 6c 6f 
0.666900 1 2c3 Rx d 8 55 a3 a8 b6 02 00 12 a5 
0.667100 1 719 Rx d 8 13 00 00 00 00 00 00 00 
0.667400 1 78a Rx d 8 01 00 03 00 a5 04 7c 02 
0.667900 1 261 Rx d 8 cc fe 27 49 00 40 24 94 
0.668100 1 23e Rx d 8 f4 01 3a c0 fa fc bf e4 
0.668800 1 1fa Rx d 3 02 c0 01 
0.670900 1 682 Rx d 8 00 00 00 40 05 02 b0 d7 
0.671100 1 355 Rx d 7 80 ec 00 bc 94 00 00 
0.671300 1 313 Rx d 8 02 64 64 05 00 00 a0 85 
0.671900 1 2d7 Rx d 4 d1 00 00 80 
0.672100 1 2f9 Rx d 8 b0 fb 07 08 00 00 00 00 
0.672600 1 285 Rx d 8 02 d5 00 00 00 00 de 00 
0.673100 1 129 Rx d 8 36 2e e6 1f 00 20 ff 3f 
0.673300 1 132 Rx d 6 19 8a f7 ff 24 40 
0.673900 1 441 Rx d 8 56 00 b6 c3 58 00 1d ad 
0.674700 1 39d Rx d 5 db 53 c1 27 00 
0.674900 1 421 Rx d 7 00 14 00 00 00 d0 48 
0.675900 1 321 Rx d 8 9b 7a aa 9c 01 93 b0 c3 
0.676100 1 201 Rx d 8 83 02 00 40 06 00 98 3b 
0.676300 1 242 Rx d 4 10 15 04 05 
0.676600 1 263 Rx d 8 04 00 00 00 10 04 00 00 
0.676800 1 2c1 Rx d 8 04 00 10 10 0a 0d 08 15 
0.677000 1 2e1 Rx d 8 04 00 00 80 48 44 26 00 
0.677300 1 3a2 Rx d 8 60 85 72 a9 04 80 40 73 
0.677500 1 45a Rx d 8 fd 07 f8 ff 03 00 02 1f 
0.677700 1 677 Rx d 8 04 00 00 00 00 00 00 00 
0.678000 1 718 Rx d 7 03 00 00 00 00 00 00 
0.678200 1 3ae Rx d 8 00 40 00 08 00 00 11 5a 
0.678400 1 2c4 Rx d 8 0a 00 00 80 4c 68 02 00 
0.678700 1 204 Rx d 8 01 00 00 ff 00 00 00 10 
0.678900 1 264 Rx d 6 3a 00 00 00 a0 00 
0.679100 1 224 Rx d 8 04 08 00 48 19 01 10 08 
0.679300 1 2b4 Rx d 6 11 05 d3 0d d9 00 
0.679600 1 3f9 Rx d 8 03 00 00 00 00 00 00 00 
0.682400 1 225 Rx d 4 05 45 d2 00 
0.682600 1 25b Rx d 8 d3 c0 02 05 6a 86 00 e5 
0.682900 1 360 Rx d 8 0a 00 00 00 00 00 00 00 
0.683200 1 129 Rx d 8 c7 2f e6 1f 00 20 ff 3f 
0.683400 1 132 Rx d 6 13 8a f7 ff 28 40 
0.683600 1 401 Rx d 8 0e 2a 4e 82 4b 82 4d 82 
0.683900 1 261 Rx d 8 05 22 6b ca 9a 42 30 5e 
0.686300 1 339 Rx d 8 00 11 00 00 00 00 40 0f 
0.686500 1 243 Rx d 8 00 fc cf 4c c3 02 41 29 
0.686900 1 2a1 Rx d 6 00 00 98 3a 00 00 
0.687100 1 142 Rx d 8 28 00 02 5d 00 00 01 00 
0.688400 1 283 Rx d 6 00 00 00 00 00 00 
0.688600 1 419 Rx d 1 00 
0.688900 1 545 Rx d 8 40 01 27 10 95 45 c9 65 
0.689900 1 102 Rx d 8 22 b3 88 04 8c 0c a1 09 
0.690300 1 20e Rx d 3 10 00 00 
0.691900 1 2e1 Rx d 8 45 80 00 00 aa f5 94 6a 
0.692100 1 221 Rx d 8 41 01 55 51 01 02 60 6e 
0.692400 1 22b Rx d 8 ff ff ff ff 1f fc ff ff 
0.692600 1 381 Rx d 8 0b 00 00 c8 00 00 3c 06 
0.693100 1 129 Rx d 8 22 20 e6 1f 00 20 ff 3f 
0.693300 1 132 Rx d 6 11 8a f7 ff 25 40 
0.693600 1 1f9 Rx d 8 00 00 00 00 00 00 00 00 
0.693700 1 229 Rx d 3 52 02 00 
0.694000 1 6c8 Rx d 8 f4 62 00 13 04 00 00 00 
0.694200 1 249 Rx d 4 9b 00 00 00 
0.694400 1 54f Rx d 8 00 00 00 00 00 00 00 00 
0.694700 1 3c0 Rx d 8 00 00 00 00 00 00 00 00 
0.695900 1 2c1 Rx d 8 88 3c 7e 00 00 8a 02 07 
0.696500 1 263 Rx d 8 00 d0 4f 07 d0 07 55 1f 
0.696700 1 2b3 Rx d 8 03 46 46 11 00 00 80 3c 
0.697000 1 122 Rx d 8 00 00 12 92 12 00 00 00 
0.698700 1 797 Rx d 4 14 09 90 48 
0.699900 1 261 Rx d 8 00 10 1b 00 c5 4c 40 72 
0.700100 1 119 Rx d 4 00 00 00 00 
0.700500 1 103 Rx d 8 22 b3 88 02 92 2c 21 32 
0.700900 1 201 Rx d 8 10 d3 02 80 22 03 f2 07 
0.701100 1 789 Rx d 4 54 11 90 f7 
0.702100 1 113 Rx d 3 01 97 01 
0.702300 1 318 Rx d 8 1a 08 02 03 1f 21 3d bf 
0.702500 1 458 Rx d 7 00 00 00 00 40 00 00 
0.702800 1 3ae Rx d 8 00 40 00 08 00 00 20 69 
0.702900 1 7f4 Rx d 1 01 
0.703100 1 7ff Rx d 8 07 20 80 44 40 00 02 20 
0.703400 1 129 Rx d 8 35 21 e6 1f 00 20 ff 3f 
0.703600 1 132 Rx d 6 21 8a f7 ff 25 40 
0.703800 1 372 Rx d 8 05 46 3b 0d 00 00 00 00 
0.704100 1 272 Rx d 8 09 80 63 00 00 00 00 00 
0.704300 1 401 Rx d 8 0f 2a 4e 82 52 82 52 82 
0.704800 1 3e8 Rx d 8 05 00 00 00 00 00 00 00 
0.705600 1 420 Rx d 8 28 01 40 4b 00 00 80 03 
0.706500 1 123 Rx d 8 01 00 00 00 00 3f 00 00 
0.706700 1 243 Rx d 8 01 fc 6c 00 6f 00 7c 7c 
0.707100 1 439 Rx d 8 02 00 40 00 00 14 00 00 
0.707400 1 3c8 Rx d 8 05 00 00 00 00 00 00 00 
0.707900 1 2e1 Rx d 8 10 21 04 00 12 00 20 08 
0.708200 1 23e Rx d 8 f4 01 3a c0 fa fc cf f4 
0.708400 1 3a1 Rx d 8 e8 42 0d 8a 01 08 82 0c 
0.708600 1 31a Rx d 8 60 fc ff 02 00 00 50 ca 
0.709000 1 3a2 Rx d 8 01 10 20 00 00 f0 ff 00 
0.710700 1 2ec Rx d 3 2f 90 ad 
0.710900 1 282 Rx d 8 00 00 00 00 ec 43 0b 24 
0.711900 1 40a Rx d 8 01 00 01 00 00 00 50 60 
0.712200 1 3c2 Rx d 8 00 55 55 55 00 00 59 45 
0.712500 1 3a3 Rx d 8 00 d0 00 00 38 03 fc 01 
0.713100 1 129 Rx d 8 7c 22 e6 1f 00 20 ff 3f 
0.713300 1 132 Rx d 6 15 8a f7 ff 27 40 
0.713500 1 2aa Rx d 3 2f 90 6b 
0.714700 1 39d Rx d 5 dc 54 c1 27 00 
0.715900 1 261 Rx d 8 31 40 16 00 53 49 5a 73 
0.716100 1 234 Rx d 8 1d d0 01 24 91 04 e0 22 
0.716400 1 2c1 Rx d 8 21 23 0d 0a 02 00 00 00 
0.716600 1 263 Rx d 8 01 d0 5f 0f 88 c7 54 1f 
0.716800 1 42a Rx d 8 f9 6b fe 9a bf e6 af 55 
0.717100 1 677 Rx d 8 00 00 00 00 00 00 00 00 
0.717300 1 719 Rx d 8 03 00 00 00 00 00 00 00 
0.717600 1 7a8 Rx d 8 02 40 d0 77 4c 07 00 00 
0.717900 1 1f8 Rx d 4 00 00 00 00 
0.718500 1 393 Rx d 8 09 80 63 00 00 00 00 00 
0.719100 1 788 Rx d 8 02 40 d4 d7 4d 00 00 00 
0.719900 1 340 Rx d 8 03 01 00 00 00 00 00 00 
0.721200 1 3df Rx d 8 00 00 00 00 01 d0 00 1b 
0.721500 1 293 Rx d 8 01 0c 15 90 55 14 0f bf 
0.721900 1 545 Rx d 8 01 00 00 00 00 10 d0 2b 
0.722800 1 228 Rx d 8 03 16 00 8c 80 80 21 f0 
0.723100 1 379 Rx d 8 08 00 00 00 00 00 0d 03 
0.723400 1 129 Rx d 8 6b 23 e6 1f 00 20 ff 3f 
0.723600 1 132 Rx d 6 23 8a f7 ff 28 40 
0.723800 1 285 Rx d 8 03 47 86 48 95 00 00 00 
0.724000 1 2e1 Rx d 8 29 6a 42 a1 1f 28 00 00 
0.724300 1 401 Rx d 8 10 2a 54 82 51 82 53 82 
0.724500 1 20c Rx d 8 00 e0 54 1e 00 c0 09 00 
0.724700 1 441 Rx d 8 12 85 89 00 32 00 20 db 
0.725000 1 289 Rx d 8 a4 02 00 c0 a5 00 3d 0f 
0.725200 1 288 Rx d 8 03 16 00 8c 80 80 21 50 
0.725900 1 201 Rx d 8 01 04 98 00 10 00 80 c4 
0.726500 1 243 Rx d 8 02 cc d9 12 00 40 00 00 
0.726700 1 45a Rx d 8 a0 52 4c d0 3f 3c 00 6c 
0.727800 1 409 Rx d 1 00 
0.728000 1 381 Rx d 8 0c 20 00 19 99 cc 01 06 
0.728800 1 7b8 Rx d 8 0c 77 5b 00 00 00 90 88 
0.730000 1 139 Rx d 1 00 
0.730500 1 4e3 Rx d 8 02 7e 00 00 00 00 a8 03 
0.730900 1 241 Rx d 7 4e 4c 92 13 93 54 00 
0.731100 1 798 Rx d 8 f4 0b 5c df 7e 0b 90 ff 
0.731900 1 261 Rx d 8 a2 28 a6 02 80 5c 62 a6 
0.732100 1 4e2 Rx d 8 02 36 05 00 00 00 28 25 
0.732500 1 400 Rx d 7 00 e0 fb be ef fb 00 
0.733100 1 129 Rx d 8 ed 24 e6 1f 00 20 ff 3f 
0.733300 1 132 Rx d 6 1c 8a f7 ff 27 40 
0.733600 1 752 Rx d 8 00 28 58 82 00 00 00 00 
0.734800 1 2e8 Rx d 8 02 10 00 00 06 00 b0 b2 
0.735900 1 2c1 Rx d 8 02 0d 06 05 16 d0 92 81 
0.736500 1 343 Rx d 8 00 92 60 5e 95 00 00 00 
0.736700 1 263 Rx d 8 02 00 00 00 00 00 00 00 
0.737000 1 142 Rx d 8 01 00 40 0a c0 1b 00 00 
0.737200 1 2a8 Rx d 8 02 10 00 00 06 00 00 c2 
0.737400 1 37a Rx d 8 00 00 71 ca 44 00 00 9a 
0.738900 1 552 Rx d 8 00 00 00 00 00 00 b0 07 
0.739400 1 2c7 Rx d 8 00 00 00 00 00 00 52 ff 
0.739700 1 2a6 Rx d 8 00 00 6a 18 00 00 00 00 
0.739900 1 212 Rx d 8 58 04 00 00 82 ff 77 62 
0.740100 1 252 Rx d 8 00 00 94 06 00 18 1d 00 
0.740400 1 292 Rx d 8 ae 33 9f 3c ec 01 00 00 
0.740600 1 2a7 Rx d 8 00 00 00 00 00 88 05 84 
0.740800 1 2d2 Rx d 8 6d 29 a7 4e 00 00 a1 01 
0.741100 1 2e1 Rx d 8 02 6c 7f 02 52 80 00 00 
0.741200 1 2f2 Rx d 2 12 01 
0.741400 1 448 Rx d 7 00 00 10 10 00 00 00 
0.741700 1 712 Rx d 8 02 2a 96 11 ac 11 c5 10 
0.741900 1 2f1 Rx d 8 0d 00 00 00 00 00 00 00 
0.742200 1 221 Rx d 8 40 41 05 05 00 50 71 6f 
0.742400 1 22b Rx d 8 ff ff ff ff 1f fc ff ff 
0.742600 1 3a2 Rx d 8 b2 2b 00 00 20 00 00 00 
0.742900 1 3ae Rx d 8 00 40 00 08 00 00 30 79 
0.743100 1 3c3 Rx d 8 55 55 55 01 00 80 43 00 
0.743400 1 129 Rx d 8 fa 25 e6 1f 00 20 ff 3f 
0.743500 1 132 Rx d 6 1a 8a f7 ff 27 40 
0.743700 1 249 Rx d 4 e8 01 00 00 
0.744000 1 401 Rx d 8 11 2a 51 82 4f 82 49 82 
0.744200 1 359 Rx d 8 40 00 00 00 00 00 00 00 
0.744400 1 428 Rx d 7 00 00 10 10 00 00 00 
0.744700 1 7aa Rx d 8 01 d1 0d d2 0d 01 00 2e 
0.745900 1 422 Rx d 6 f0 00 10 00 00 00 
0.746500 1 243 Rx d 8 03 00 00 80 43 72 2d 00 
0.747300 1 38b Rx d 8 fe fe 2f 11 b2 c0 25 03 
0.747900 1 261 Rx d 8 7b 4a 0a 00 00 40 75 7a 
0.748100 1 23e Rx d 8 f4 01 3a c0 fa fc df 04 
0.748500 1 553 Rx d 8 00 00 00 00 00 00 b0 08 
0.750900 1 201 Rx d 8 82 02 00 40 06 00 98 3b 
0.751200 1 38a Rx d 8 00 00 00 00 00 00 00 00 
0.751400 1 75d Rx d 8 03 00 80 00 00 00 00 00 
0.751900 1 31e Rx d 8 02 00 00 00 00 00 00 00 
0.752500 1 21d Rx d 8 04 00 35 00 00 00 00 00 
0.752900 1 3f5 Rx d 8 00 00 c8 08 80 04 00 00 
0.753100 1 129 Rx d 8 20 26 e6 1f 00 20 ff 3f 
0.753300 1 132 Rx d 6 1e 8a f7 ff 27 40 
0.753600 1 25d Rx d 8 36 41 01 16 04 f0 d9 03 
0.753800 1 27d Rx d 8 00 00 00 00 00 00 00 00 
0.754000 1 29d Rx d 5 00 00 00 20 00 
0.754200 1 2bd Rx d 4 00 00 00 00 
0.754400 1 2c2 Rx d 8 20 40 c0 4b 01 00 80 cb 
0.754700 1 383 Rx d 8 bf 18 35 00 01 21 a3 74 
0.754800 1 41d Rx d 1 00 
0.755000 1 39d Rx d 5 dd 55 c1 27 00 
0.755200 1 43d Rx d 6 00 00 ff 1f 40 00 
0.755400 1 49d Rx d 7 00 00 00 00 00 00 00 
0.755600 1 545 Rx d 8 02 00 03 00 00 00 e0 2f 
0.755900 1 2e1 Rx d 8 fb 19 4a 49 92 44 09 00 
0.756200 1 2c1 Rx d 8 03 17 13 00 00 00 00 00 
0.756400 1 677 Rx d 8 01 00 00 00 00 00 00 00 
0.756700 1 263 Rx d 8 03 00 00 00 00 00 00 25 
0.756900 1 2b3 Rx d 8 c4 62 c5 7b f7 10 0a 34 
0.757900 1 3a1 Rx d 8 6b 80 40 63 3e 00 90 1c 
0.758200 1 39a Rx d 8 fc fd fd fd fd fd fd 01 
0.760400 1 423 Rx d 7 00 00 00 00 08 00 00 
0.761800 1 22a Rx d 4 00 00 29 16 
0.762000 1 2e2 Rx d 8 f7 13 50 3f 69 f6 d2 54 
0.762200 1 3c2 Rx d 8 29 55 00 00 00 00 00 80 
0.763100 1 129 Rx d 8 37 27 e6 1f 00 20 ff 3f 
0.763300 1 132 Rx d 6 11 8a f7 ff 25 40 
0.763600 1 372 Rx d 8 06 9e db 1d ae a3 cf 05 
0.763800 1 401 Rx d 8 12 2a 47 82 4c 82 4a 82 
0.764000 1 261 Rx d 8 cc fe 27 49 00 40 84 f4 
0.764100 1 2d1 Rx d 2 7f 01 
0.764400 1 381 Rx d 8 6d 83 01 08 01 20 db 05 
0.765100 1 219 Rx d 7 02 80 ff ff ff fa 0f 
0.765900 1 234 Rx d 8 24 e1 03 80 43 00 f4 5a 
0.766200 1 719 Rx d 8 14 00 00 00 00 00 00 00 
0.766500 1 2c3 Rx d 8 00 00 00 4b 01 00 80 cb 
0.766700 1 243 Rx d 8 04 c8 f1 ff fd 7f 6c 6f 
0.767000 1 3aa Rx d 8 00 00 00 00 00 00 00 00 
0.767200 1 77a Rx d 8 00 e6 1d 00 f8 0c 5f 61 
0.767500 1 78a Rx d 8 01 00 04 00 b7 04 97 00 
0.768000 1 399 Rx d 3 00 00 00 
0.768800 1 1fa Rx d 3 02 c0 01 
0.770400 1 682 Rx d 8 00 00 00 40 05 02 c0 e7 
0.771200 1 253 Rx d 8 00 64 34 85 64 62 00 15 
0.771300 1 213 Rx d 2 e8 fd 
0.771500 1 4f3 Rx d 4 00 00 00 00 
0.771900 1 2e1 Rx d 8 04 00 00 80 48 44 26 00 
0.772100 1 2f9 Rx d 8 b0 fb 07 10 00 00 00 00 
0.773100 1 129 Rx d 8 89 28 e6 1f ff 1f ff 3f 
0.773300 1 132 Rx d 6 14 8a f7 ff 27 40 
0.773900 1 441 Rx d 8 56 00 b6 c3 58 00 25 b5 
0.774500 1 2e3 Rx d 7 94 12 62 00 1c 06 00 
0.774800 1 285 Rx d 8 04 53 93 47 8b 00 00 00 
0.775100 1 3a2 Rx d 8 60 85 72 a9 04 80 40 73 
0.775300 1 421 Rx d 7 00 14 00 00 00 d0 48 
0.775900 1 242 Rx d 4 10 15 04 05 
0.776100 1 201 Rx d 8 83 02 00 40 06 00 98 3b 
0.776300 1 2bf Rx d 7 0a 00 00 00 3c 00 00 
0.776600 1 263 Rx d 8 04 00 00 00 10 04 00 00 
0.776800 1 2c1 Rx d 8 04 00 10 10 0a 0d 08 15 
0.777100 1 45a Rx d 8 fd 07 f8 ff 03 00 02 1f 
0.778200 1 2c4 Rx d 8 0b 40 00 00 3b 47 01 00 
0.778500 1 204 Rx d 8 01 00 00 ff 00 00 00 10 
0.778700 1 264 Rx d 6 3a 00 00 00 a0 00 
0.778900 1 224 Rx d 8 04 08 00 48 19 01 10 08 
0.779200 1 2b4 Rx d 6 12 05 d4 0d dc 00 
0.779400 1 3f9 Rx d 8 04 00 00 00 00 00 00 00 
0.779900 1 2a4 Rx d 8 21 20 c1 08 58 70 04 55 
0.780100 1 261 Rx d 8 05 22 6b ca 9a 42 90 be 
0.780300 1 364 Rx d 4 3c 82 1c 01 
0.780600 1 3a4 Rx d 8 00 00 00 00 00 00 00 00 
0.782400 1 225 Rx d 4 05 45 d2 00 
0.782600 1 3ae Rx d 8 00 40 00 08 00 00 40 89 
0.782900 1 25b Rx d 8 d3 c0 02 05 6a 86 10 f5 
0.783100 1 360 Rx d 8 00 00 00 00 00 00 00 00 
0.783400 1 129 Rx d 8 b5 29 e6 1f 00 20 ff 3f 
0.783500 1 132 Rx d 6 25 8a f7 ff 25 40 
0.783800 1 401 Rx d 8 13 2a 49 82 4c 82 4c 82 
0.786300 1 339 Rx d 8 00 11 00 00 00 00 40 0f 
0.786500 1 243 Rx d 8 00 fc cf 4c c3 02 41 29 
0.786900 1 2a1 Rx d 6 00 00 98 3a 00 00 
0.787100 1 142 Rx d 8 28 00 02 5d 00 00 01 00 
0.787900 1 2e1 Rx d 8 45 80 00 00 aa f5 94 6a 
0.788100 1 23e Rx d 8 f4 01 3a c0 fa fc ef 14 
0.788400 1 545 Rx d 8 40 01 22 10 95 45 f9 90 
0.788600 1 283 Rx d 6 00 00 00 00 00 00 
0.788700 1 419 Rx d 1 00 
0.789900 1 102 Rx d 8 22 b3 88 04 8c 0c a1 09 
0.790300 1 20e Rx d 3 11 01 00 
0.791900 1 221 Rx d 8 41 01 55 51 01 02 80 8e 
0.792300 1 22b Rx d 8 ff ff ff ff 1f fc ff ff 
0.793100 1 129 Rx d 8 6a 2a e6 1f 00 20 ff 3f 
0.793300 1 132 Rx d 6 20 8a f7 ff 28 40 
0.793600 1 1f9 Rx d 8 00 00 00 00 00 00 00 00 
0.793700 1 229 Rx d 3 6d 03 00 
0.793900 1 249 Rx d 4 2a 02 00 00 
0.794200 1 54f Rx d 8 00 00 00 00 00 00 00 00 
0.794500 1 3c0 Rx d 8 01 00 00 00 00 00 00 01 
0.794700 1 39d Rx d 5 de 56 c1 27 00 
0.795900 1 261 Rx d 8 00 10 1b 00 c5 4c a0 d2 
0.796100 1 2c1 Rx d 8 88 3c 7e 00 00 8a 02 07 
0.796400 1 677 Rx d 8 02 00 00 00 00 00 00 00 
0.796600 1 263 Rx d 8 00 d0 4f 07 d0 07 55 1f 
0.797000 1 122 Rx d 8 01 00 00 00 00 3f 00 00 
0.798700 1 797 Rx d 4 14 09 a0 58 
0.799900 1 381 Rx d 8 8e ef fb f3 41 2a 51 00 
0.800100 1 119 Rx d 4 00 00 00 00 
0.800500 1 103 Rx d 8 22 b3 88 02 92 2c 21 32 
0.800900 1 201 Rx d 8 10 e3 02 80 22 03 f2 07 
0.801100 1 789 Rx d 4 54 11 a0 07 
0.802100 1 113 Rx d 3 01 97 01 
0.802200 1 7f4 Rx d 1 01 
0.802400 1 7ff Rx d 8 08 00 00 01 00 00 00 00 
0.802700 1 318 Rx d 8 1a 08 02 03 1f 21 3f c1 
0.802900 1 458 Rx d 7 00 00 00 00 40 00 00 
0.803200 1 129 Rx d 8 9b 2b e6 1f 00 20 ff 3f 
0.803400 1 132 Rx d 6 19 8a f7 ff 25 40 
0.803600 1 320 Rx d 8 02 00 00 00 00 00 00 00 
0.803800 1 401 Rx d 8 14 2a 49 82 56 82 50 82 
0.804100 1 272 Rx d 8 06 00 ef 78 07 b0 07 08 
0.804300 1 2e1 Rx d 8 10 21 04 00 12 00 20 08 
0.804500 1 405 Rx d 8 11 33 45 37 46 41 35 4d 
0.804800 1 414 Rx d 8 11 20 20 20 20 20 20 20 
0.805000 1 3e8 Rx d 8 06 00 00 00 00 00 00 00 
0.805300 1 55a Rx d 8 04 00 00 00 00 00 00 00 
0.805400 1 666 Rx d 4 00 00 a0 00 
0.805700 1 420 Rx d 8 28 01 40 4b 00 00 00 04 
0.806500 1 123 Rx d 8 00 00 12 92 d2 00 00 80 
0.806700 1 243 Rx d 8 01 fc 6c 00 6f 00 7c 7c 
0.807000 1 70b Rx d 8 06 85 90 a2 26 5f 00 00 
0.807200 1 439 Rx d 8 02 00 40 00 00 14 00 00 
0.807500 1 3c8 Rx d 8 06 00 00 00 00 00 00 00 
0.807900 1 3a1 Rx d 8 e8 42 0d 8a 01 08 a2 2c 
0.808200 1 3a2 Rx d 8 01 10 20 00 0b f0 ff 00 
0.808800 1 748 Rx d 5 2e 22 0b 00 00 
0.810700 1 2ec Rx d 3 2f a0 bd 
0.811000 1 282 Rx d 8 00 00 00 00 ec 43 0b 24 
0.811900 1 261 Rx d 8 31 40 13 00 53 49 ba d0 
0.812100 1 3c2 Rx d 8 00 55 55 55 00 00 59 45 
0.812400 1 3e2 Rx d 7 00 00 80 2a 00 c0 04 
0.812600 1 3a3 Rx d 8 00 d0 00 00 38 03 fc 01 
0.812800 1 7aa Rx d 8 e2 07 72 f9 43 07 21 00 
0.813100 1 129 Rx d 8 fb 2c e6 1f 00 20 ff 3f 
0.813300 1 132 Rx d 6 1e 8a f7 ff 27 40 
0.813500 1 2aa Rx d 3 2f a0 7b 
0.813800 1 744 Rx d 1 aa 
0.815900 1 2c1 Rx d 8 21 23 0d 0a 02 00 00 00 
0.816100 1 234 Rx d 8 1d d0 01 24 91 04 00 42 
0.816400 1 719 Rx d 8 15 00 00 00 00 00 00 00 
0.816600 1 263 Rx d 8 01 d0 5f 0f 88 c7 54 1f 
0.816900 1 2b3 Rx d 8 25 10 34 00 14 82 a1 a1 
0.817100 1 7a8 Rx d 8 a4 b4 71 63 00 00 82 00 
0.817900 1 1f8 Rx d 4 00 00 00 00 
0.818500 1 393 Rx d 8 06 00 ee 70 07 b0 07 08 
0.819100 1 788 Rx d 8 a8 bc 71 63 00 00 94 00 
0.819900 1 340 Rx d 8 04 00 00 00 00 00 00 00 
0.820100 1 2e1 Rx d 8 29 6a 42 a1 1f 28 00 00 
0.820400 1 473 Rx d 8 00 00 03 00 00 00 00 00 
0.820600 1 3b3 Rx d 8 8c 80 04 30 01 00 a8 80 
0.820900 1 545 Rx d 8 01 00 00 00 00 10 00 5b 
0.821500 1 253 Rx d 8 01 64 34 85 64 62 00 15 
0.822600 1 3ae Rx d 8 00 40 00 08 00 00 50 99 
0.822800 1 228 Rx d 8 03 16 00 8c 80 80 31 00 
0.823100 1 379 Rx d 8 09 00 00 00 00 00 12 03 
0.823400 1 129 Rx d 8 44 2d e6 1f 01 20 ff 3f 
0.823600 1 132 Rx d 6 18 8a f7 ff 27 40 
0.823800 1 372 Rx d 8 07 00 00 00 00 00 00 00 
0.824000 1 401 Rx d 8 15 2a 56 82 55 82 55 82 
0.824300 1 441 Rx d 8 12 85 89 00 32 00 28 e3 
0.824500 1 20c Rx d 8 00 e0 54 1e 00 c0 09 00 
0.825000 1 289 Rx d 8 a4 02 00 00 99 00 3d 0f 
0.825200 1 288 Rx d 8 03 16 00 8c 80 80 31 60 
0.825900 1 201 Rx d 8 01 04 98 00 10 00 80 c4 
0.826500 1 243 Rx d 8 02 cc d9 12 00 40 00 00 
0.826700 1 45a Rx d 8 a0 52 4c d0 3f 3c 00 6c 
0.827900 1 261 Rx d 8 a2 28 a6 02 80 5c c2 06 
0.828000 1 409 Rx d 1 00 
0.828300 1 23e Rx d 8 f4 01 3a c0 fa fc ff 24 
0.828800 1 7b8 Rx d 8 05 e0 48 83 81 02 a0 ed 
0.830000 1 139 Rx d 1 00 
0.830500 1 4e3 Rx d 8 03 59 00 00 00 00 a8 0c 
0.830900 1 241 Rx d 7 4f 4c d2 13 93 54 00 
0.831100 1 798 Rx d 8 05 00 00 00 00 00 a0 51 
0.832000 1 4e2 Rx d 8 03 48 00 00 00 00 a8 0c 
0.832400 1 400 Rx d 7 00 e0 fb be ef fb 00 
0.833100 1 129 Rx d 8 36 2e e6 1f 00 20 ff 3f 
0.833300 1 132 Rx d 6 17 8a f7 ff 24 40 
0.834700 1 39d Rx d 5 df 57 c1 27 00 
0.834900 1 2e8 Rx d 8 02 10 00 00 06 00 c0 c2 
0.835900 1 2e1 Rx d 8 02 6c 7f 02 52 80 00 00 
0.836200 1 2c1 Rx d 8 02 0d 06 05 16 d0 92 81 
0.836400 1 381 Rx d 8 cf 73 37 a8 00 00 43 06 
0.836600 1 263 Rx d 8 02 00 00 00 00 00 00 00 
0.836900 1 343 Rx d 8 00 92 5c 2e 95 00 00 00 
0.837100 1 142 Rx d 8 01 00 40 0a c0 1b 00 00 
0.837400 1 2a8 Rx d 8 02 10 00 00 06 00 10 d2 
0.837600 1 37a Rx d 8 01 00 de ed 2c 01 00 3c 
0.837800 1 677 Rx d 8 03 00 00 00 00 00 00 00 
0.838900 1 552 Rx d 8 00 00 00 00 00 00 c0 17 
0.839400 1 2c7 Rx d 8 00 00 00 00 00 00 52 ff 
0.839700 1 2a6 Rx d 8 00 00 6a 18 00 00 00 00 
0.839900 1 212 Rx d 8 58 04 00 00 82 ff 77 62 
0.840100 1 252 Rx d 8 00 00 94 06 00 18 1d 00 
0.840400 1 292 Rx d 8 ae 33 9f 3c ec 01 00 00 
0.840600 1 2a7 Rx d 8 00 00 00 00 00 88 05 84 
0.840800 1 2d2 Rx d 8 6d 29 a7 4e 00 00 a1 01 
0.841000 1 2f2 Rx d 2 12 01 
0.841200 1 3a2 Rx d 8 b2 2b 00 00 20 00 00 00 
0.841400 1 3b2 Rx d 8 15 12 e0 3b 06 d0 3f 1b 
0.841700 1 448 Rx d 7 00 00 10 10 00 00 00 
0.841900 1 712 Rx d 8 03 2a c4 11 f5 10 ad 11 
0.842100 1 221 Rx d 8 40 41 05 05 00 50 91 8f 
0.842400 1 22b Rx d 8 ff ff ff ff 1f fc ff ff 
0.842600 1 2f1 Rx d 8 2e 00 00 20 1c 01 10 04 
0.842900 1 3c3 Rx d 8 00 00 00 00 00 45 00 00 
0.843000 1 3e3 Rx d 4 00 00 00 00 
0.843300 1 129 Rx d 8 c7 2f e6 1f 00 20 ff 3f 
0.843500 1 428 Rx d 7 00 00 10 10 00 00 00 
0.843700 1 132 Rx d 6 1b 8a f7 ff 25 40 
0.843900 1 249 Rx d 4 d3 03 00 00 
0.844100 1 261 Rx d 8 7b 4a 0a 00 00 40 d5 da 
0.844300 1 359 Rx d 8 c8 3f 00 00 0c 00 00 02 
0.844600 1 401 Rx d 8 16 2a 51 82 4c 82 4c 82 
0.845900 1 422 Rx d 6 f0 00 10 00 00 00 
0.846500 1 243 Rx d 8 03 00 00 80 43 72 2d 00 
0.848500 1 553 Rx d 8 00 00 00 00 00 00 c0 18 
0.850900 1 201 Rx d 8 82 02 00 40 06 00 98 3b 
0.851200 1 38a Rx d 8 01 00 00 00 00 00 00 00 
0.851400 1 31e Rx d 8 03 00 00 00 00 00 00 00 
0.851700 1 21d Rx d 8 04 00 35 00 00 00 00 00 
0.851900 1 2e1 Rx d 8 fb 19 4b 49 92 45 09 00 
0.852500 1 25d Rx d 8 36 41 01 16 04 f0 d7 03 
0.852900 1 3f5 Rx d 8 00 00 c8 08 80 04 00 00 
0.853200 1 129 Rx d 8 22 20 e6 1f 00 20 ff 3f 
0.853400 1 132 Rx d 6 25 8a f7 ff 23 40 
0.853600 1 27d Rx d 8 00 00 00 00 00 00 00 00 
0.853800 1 29d Rx d 5 00 00 00 20 00 
0.854000 1 2bd Rx d 4 00 00 00 00 
0.854200 1 2c2 Rx d 8 55 5b a9 b6 02 00 12 a5 
0.854300 1 41d Rx d 1 00 
0.854600 1 383 Rx d 8 bf 18 35 00 01 21 a3 74 
0.854800 1 43d Rx d 6 00 00 ff 1f 40 00 
0.855000 1 49d Rx d 7 00 00 00 00 00 00 00 
0.855200 1 545 Rx d 8 02 00 03 00 00 00 10 5f 
0.855900 1 2c1 Rx d 8 03 17 13 00 00 00 00 00 
0.856500 1 263 Rx d 8 03 00 00 00 00 00 00 25 
0.857900 1 3a1 Rx d 8 6b 80 40 4f 3e 00 b0 28 
0.858200 1 39a Rx d 8 fd fd fd fd fd 01 00 00 
0.859900 1 261 Rx d 8 cc fe 27 49 00 40 e4 54 
0.860100 1 709 Rx d 8 0d 91 00 47 40 4f 00 00 
0.860500 1 423 Rx d 7 00 00 00 00 08 00 00 
0.862000 1 3a8 Rx d 8 04 80 03 7f 00 00 00 00 
0.862100 1 22a Rx d 4 00 00 29 16 
0.862400 1 3c2 Rx d 8 29 55 00 00 00 00 00 80 
0.862600 1 3ae Rx d 8 00 40 00 08 00 00 60 a9 
0.863100 1 129 Rx d 8 5c 21 e6 1f ff 1f ff 3f 
0.863300 1 132 Rx d 6 21 8a f7 ff 25 40 
0.863600 1 401 Rx d 8 17 2a 4d 82 4e 82 51 82 
0.863800 1 2d1 Rx d 2 7f 01 
0.865100 1 219 Rx d 7 03 80 ff ff ff fb 0f 
0.865900 1 234 Rx d 8 25 e1 03 80 43 00 14 7b 
0.866200 1 719 Rx d 8 16 00 00 00 00 00 00 00 
0.866500 1 2c3 Rx d 8 55 a3 a8 b6 02 00 12 a5 
0.866700 1 243 Rx d 8 04 c8 f1 ff fd 7f 6c 6f 
0.866800 1 24a Rx d 1 03 
0.867100 1 78a Rx d 8 01 00 05 00 9d 0d 08 00 
0.867900 1 2e1 Rx d 8 04 00 00 80 48 44 26 00 
0.868200 1 23e Rx d 8 f4 01 3a c0 fa fc 0f 34 
0.868900 1 1fa Rx d 3 02 c0 01 
0.870600 1 682 Rx d 8 00 00 00 40 05 02 d0 f7 
0.871300 1 4f Rx d 8 a8 a6 5c 51 2d 65 67 10 
0.871500 1 3bc Rx d 4 00 00 00 00 
0.871700 1 333 Rx d 5 04 10 e8 07 00 
0.871900 1 334 Rx d 8 bf 3f 0a 04 ff 01 e2 25 
0.872100 1 2f9 Rx d 8 b0 fb 07 18 00 00 00 00 
0.872400 1 381 Rx d 8 30 00 41 de 41 cc 00 60 
0.872600 1 3fd Rx d 8 00 00 00 3c 20 00 01 80 
0.873100 1 129 Rx d 8 d1 22 e6 1f 01 20 ff 3f 
0.873300 1 132 Rx d 6 24 8a f7 ff 24 40 
0.873900 1 441 Rx d 8 56 00 b6 c3 58 00 2d bd 
0.874200 1 3a2 Rx d 8 60 85 72 a9 04 80 40 73 
0.874700 1 39d Rx d 5 00 58 e1 27 00 
0.874900 1 421 Rx d 7 00 14 00 00 00 d0 48 
0.875900 1 261 Rx d 8 05 22 6b ca 9a 42 f0 1e 
0.876200 1 201 Rx d 8 83 02 00 40 06 00 98 3b 
0.876300 1 242 Rx d 4 10 15 04 05 
0.876600 1 263 Rx d 8 04 00 00 00 10 04 00 00 
0.876800 1 2b3 Rx d 8 06 19 da dc 0e 40 a3 d3 
0.877000 1 2c1 Rx d 8 04 00 10 10 0a 0d 08 15 
0.877200 1 443 Rx d 6 70 05 ff 03 00 00 
0.877500 1 45a Rx d 8 fd 07 f8 ff 03 00 02 1f 
0.877700 1 677 Rx d 8 04 00 00 00 00 00 00 00 
0.878000 1 718 Rx d 7 04 00 00 00 00 00 00 
0.878200 1 2c4 Rx d 8 0c 00 00 00 d8 48 01 00 
0.878500 1 204 Rx d 8 01 00 00 ff 00 00 00 10 
0.878700 1 264 Rx d 6 3a 00 00 00 a0 00 
0.878900 1 224 Rx d 8 04 08 00 48 19 01 10 08 
0.879100 1 2b4 Rx d 6 12 05 d4 0d de 00 
0.879400 1 3f9 Rx d 8 05 00 00 00 00 00 00 00 
0.882400 1 225 Rx d 4 05 45 d2 00 
0.882600 1 25b Rx d 8 d3 c0 02 05 6a 86 20 05 
0.883000 1 360 Rx d 8 01 00 00 00 00 00 00 00 
0.883200 1 129 Rx d 8 6b 23 e6 1f 00 20 ff 3f 
0.883400 1 132 Rx d 6 1f 8a f7 ff 25 40 
0.883600 1 372 Rx d 8 08 00 00 00 00 00 00 00 
0.883900 1 401 Rx d 8 18 2a 4e 82 50 82 4c 82 
0.884100 1 2e1 Rx d 8 45 80 00 00 aa f5 94 6a 
0.886300 1 339 Rx d 8 00 11 00 00 00 00 40 0f 
0.886500 1 243 Rx d 8 00 fc cf 4c c3 02 41 29 
0.886900 1 2a1 Rx d 6 00 00 98 3a 00 00 
0.887100 1 142 Rx d 8 28 00 02 5d 00 00 01 00 
0.887400 1 545 Rx d 8 40 01 27 00 95 44 29 b4 
0.888500 1 283 Rx d 6 00 00 00 00 00 00 
0.888600 1 419 Rx d 1 00 
0.889900 1 102 Rx d 8 22 b3 88 04 8c 0c a1 09 
0.890300 1 20e Rx d 3 12 02 00 
0.891900 1 261 Rx d 8 00 10 1b 00 c5 4c 00 32 
0.892100 1 221 Rx d 8 41 01 55 51 01 02 a0 ae 
0.892400 1 22b Rx d 8 ff ff ff ff 1f fc ff ff 
0.892600 1 7aa Rx d 8 23 6c f9 3d 07 13 00 1c 
0.893100 1 129 Rx d 8 ed 24 e6 1f 00 20 ff 3f 
0.893300 1 132 Rx d 6 1f 8a f7 ff 25 40 
0.893600 1 1f9 Rx d 8 00 00 00 00 00 00 00 00 
0.893700 1 229 Rx d 3 43 04 00 
0.893900 1 249 Rx d 4 d3 04 00 00 
0.894200 1 54f Rx d 8 00 00 00 00 00 00 00 00 
0.894500 1 3c0 Rx d 8 02 00 00 00 00 00 00 00 
0.895900 1 2c1 Rx d 8 88 3c 7e 00 00 8a 02 07 
0.896500 1 263 Rx d 8 00 d0 4f 07 d0 07 55 1f 
0.897000 1 122 Rx d 8 00 00 12 92 12 00 00 00 
0.898700 1 797 Rx d 4 14 09 b0 68 
0.899900 1 2e1 Rx d 8 10 21 04 00 12 00 20 08 
0.900100 1 119 Rx d 4 00 00 00 00 
0.900500 1 103 Rx d 8 22 b3 88 02 92 2c 21 32 
0.900900 1 201 Rx d 8 10 d3 02 80 22 03 f2 07 
0.901100 1 789 Rx d 4 54 11 b0 17 
0.902100 1 113 Rx d 3 01 97 01 
0.902200 1 7f4 Rx d 1 01 
0.902400 1 7ff Rx d 8 09 ef 00 00 08 00 00 00 
0.902700 1 318 Rx d 8 1a 08 02 03 1f 21 21 a3 
0.902900 1 458 Rx d 7 00 00 00 00 40 00 00 
0.903200 1 129 Rx d 8 fa 25 e6 1f 00 20 ff 3f 
0.903300 1 132 Rx d 6 1e 8a f7 ff 28 40 
0.903600 1 3ae Rx d 8 00 40 00 08 00 00 70 b9 
0.903800 1 401 Rx d 8 19 2a 53 82 54 82 57 82 
0.904100 1 272 Rx d 8 09 80 63 00 00 00 00 00 
0.904900 1 3e8 Rx d 8 00 00 00 00 00 00 00 00 
0.905600 1 420 Rx d 8 28 01 40 4b 00 00 80 04 
0.906500 1 123 Rx d 8 01 00 00 00 00 3f 00 00 
0.906700 1 243 Rx d 8 01 fc 6c 00 6f 00 7c 7c 
0.907000 1 3a2 Rx d 8 01 10 20 00 0b f0 ff 00 
0.907200 1 439 Rx d 8 02 00 40 00 00 14 00 00 
0.907500 1 3c8 Rx d 8 00 00 00 00 00 00 00 00 
0.907900 1 261 Rx d 8 31 40 1c 00 53 49 1a 39 
0.908200 1 23e Rx d 8 f4 01 3a c0 fa fc 1f 44 
0.908400 1 381 Rx d 8 11 39 4b 00 23 00 00 aa 
0.908600 1 31a Rx d 8 60 fc ff 02 00 00 60 da 
0.908900 1 3a1 Rx d 8 e8 42 0d 8a 01 08 c2 4c 
0.910100 1 319 Rx d 8 18 00 00 00 81 f3 de 61 
0.910700 1 2ec Rx d 3 2f b0 cd 
0.911000 1 282 Rx d 8 00 00 00 00 ec 43 0b 24 
0.912000 1 40a Rx d 8 01 00 01 00 00 00 60 70 
0.912200 1 3c2 Rx d 8 00 55 55 55 00 00 59 45 
0.912500 1 3a3 Rx d 8 00 d0 00 00 38 03 fc 01 
0.913100 1 129 Rx d 8 49 26 e6 1f ff 1f ff 3f 
0.913300 1 132 Rx d 6 1c 8a f7 ff 27 40 
0.913500 1 2aa Rx d 3 2f b0 8b 
0.914700 1 39d Rx d 5 01 59 e1 27 00 
0.915900 1 2e1 Rx d 8 29 6a 42 a1 1f 28 00 00 
0.916200 1 234 Rx d 8 1d d0 01 24 91 04 20 62 
0.916400 1 2c1 Rx d 8 21 23 0d 0a 02 00 00 00 
0.916600 1 263 Rx d 8 01 d0 5f 0f 88 c7 54 1f 
0.916900 1 3db Rx d 8 04 00 00 d5 05 00 00 00 
0.917100 1 42a Rx d 8 f9 6b fe 9a bf e6 af 55 
0.917400 1 43b Rx d 8 03 7f 00 ff 00 00 00 00 
0.917600 1 677 Rx d 8 00 00 00 00 00 00 00 00 
0.917900 1 719 Rx d 8 17 00 00 00 00 00 00 00 
0.918000 1 1f8 Rx d 4 00 00 00 00 
0.918300 1 7a8 Rx d 8 01 00 00 00 ff a1 98 12 
0.918500 1 393 Rx d 8 09 80 63 00 00 00 00 00 
0.919100 1 788 Rx d 8 01 00 00 00 ff a1 98 12 
0.919900 1 340 Rx d 8 05 00 00 00 00 00 00 00 
0.920200 1 545 Rx d 8 01 00 00 00 00 10 30 8b 
0.920400 1 2f3 Rx d 8 0e 0e 0b 00 00 20 00 00 
0.920600 1 273 Rx d 8 81 e1 10 00 c8 00 10 01 
0.921700 1 3fd Rx d 8 01 00 02 00 00 08 12 80 
0.922800 1 228 Rx d 8 03 16 00 8c 80 80 41 10 
0.923100 1 379 Rx d 8 0a 00 00 00 00 00 12 03 
0.923400 1 129 Rx d 8 37 27 e6 1f 00 20 ff 3f 
0.923600 1 132 Rx d 6 21 8a f7 ff 28 40 
0.923800 1 401 Rx d 8 1a 2a 55 82 55 82 57 82 
0.924000 1 261 Rx d 8 a2 28 a6 02 80 5c 22 66 
0.924300 1 441 Rx d 8 12 85 89 00 32 00 30 eb 
0.924500 1 20c Rx d 8 00 e0 54 1e 00 c0 09 00 
0.925000 1 289 Rx d 8 a4 02 00 40 8c 00 3d 0f 
0.925200 1 288 Rx d 8 03 16 00 8c 80 80 41 70 
0.925900 1 201 Rx d 8 01 04 98 00 10 00 80 c4 
0.926500 1 243 Rx d 8 02 cc d9 12 00 40 00 00 
0.926700 1 45a Rx d 8 a0 52 4c d0 3f 3c 00 6c 
0.927800 1 409 Rx d 1 00 
0.928800 1 7b8 Rx d 8 06 00 00 00 00 00 b0 d0 
0.930000 1 139 Rx d 1 00 
0.930500 1 4e3 Rx d 8 04 00 00 00 00 00 00 00 
0.930900 1 241 Rx d 7 4e 4c 92 13 93 54 00 
0.931100 1 798 Rx d 8 6e 04 00 00 00 00 b0 ce 
0.931900 1 2e1 Rx d 8 02 6c 7f 02 52 80 00 00 
0.932100 1 4e2 Rx d 8 04 16 40 81 09 a8 00 00 
0.933100 1 129 Rx d 8 e0 28 e6 1f 00 20 ff 3f 
0.933300 1 132 Rx d 6 1c 8a f7 ff 27 40 
0.933600 1 400 Rx d 7 00 e0 fb be ef fb 00 
0.934900 1 2e8 Rx d 8 02 10 00 00 06 00 d0 d2 
0.935900 1 2c1 Rx d 8 02 0d 06 05 16 d0 92 81 
0.936500 1 343 Rx d 8 00 92 5c ee 94 00 00 00 
0.936700 1 263 Rx d 8 02 00 00 00 00 00 00 00 
0.937000 1 142 Rx d 8 01 00 40 0a c0 1b 00 00 
0.937200 1 2b3 Rx d 8 07 ba 9c a8 e3 a9 19 05 
0.937400 1 2a8 Rx d 8 02 10 00 00 06 00 20 e2 
0.937700 1 37a Rx d 8 02 00 6b e4 f2 00 00 38 
0.938900 1 552 Rx d 8 00 00 00 00 00 00 d0 27 
0.939400 1 2c7 Rx d 8 00 00 00 00 00 00 52 ff 
0.939700 1 212 Rx d 8 58 04 00 00 82 ff 77 62 
0.939900 1 252 Rx d 8 00 00 94 06 00 18 1d 00 
0.940100 1 261 Rx d 8 7b 4a 0a 00 00 40 35 3a 
0.940400 1 292 Rx d 8 ae 33 9f 3c ec 01 00 00 
0.940600 1 2a6 Rx d 8 00 00 6a 18 00 00 00 00 
0.940800 1 2a7 Rx d 8 00 00 00 00 00 88 05 84 
0.941100 1 2d2 Rx d 8 6d 29 a7 4e 00 00 a1 01 
0.941200 1 2f2 Rx d 2 12 01 
0.941400 1 3a2 Rx d 8 b2 2b 00 00 20 00 00 00 
0.941700 1 448 Rx d 7 00 00 10 10 00 00 00 
0.941900 1 712 Rx d 8 04 00 00 00 00 00 00 00 
0.942200 1 221 Rx d 8 40 41 05 05 00 50 b1 af 
0.942400 1 22b Rx d 8 ff ff ff ff 1f fc ff ff 
0.942600 1 2f1 Rx d 8 0f 06 a9 91 98 73 39 00 
0.942900 1 3ae Rx d 8 00 40 00 08 00 00 80 c9 
0.943100 1 3c3 Rx d 8 55 55 55 01 00 80 43 00 
0.943300 1 129 Rx d 8 18 29 e6 1f 01 20 ff 3f 
0.943500 1 132 Rx d 6 15 8a f6 ff 24 40 
0.943700 1 249 Rx d 4 83 05 00 00 
0.944000 1 372 Rx d 8 09 00 00 00 00 f8 3f 00 
0.944200 1 359 Rx d 8 49 00 00 00 00 00 00 00 
0.944400 1 381 Rx d 8 72 00 32 36 00 58 95 03 
0.944700 1 401 Rx d 8 1b 2a 49 82 4a 82 4a 82 
0.944900 1 428 Rx d 7 00 00 10 10 00 00 00 
0.945900 1 422 Rx d 6 f0 00 10 00 00 00 
0.946500 1 243 Rx d 8 03 00 00 80 43 72 2d 00 
0.947900 1 2e1 Rx d 8 fb 19 4b 49 92 43 09 00 
0.948300 1 23e Rx d 8 f4 01 3a c0 fa fc 2f 54 
0.948500 1 553 Rx d 8 00 00 00 00 00 00 d0 28 
0.950900 1 201 Rx d 8 82 02 00 40 06 00 98 3b 
0.951200 1 38a Rx d 8 03 00 00 00 00 00 00 00 
0.951400 1 75d Rx d 8 04 00 00 00 00 00 00 00 
0.951700 1 21d Rx d 8 04 00 35 00 00 00 00 00 
0.952500 1 25d Rx d 8 36 41 01 16 04 f0 d7 03 
0.952900 1 3f5 Rx d 8 00 00 c8 08 80 04 00 00 
0.953200 1 129 Rx d 8 6a 2a e6 1f 00 20 ff 3f 
0.953400 1 132 Rx d 6 16 8a f6 ff 27 40 
0.953600 1 27d Rx d 8 00 00 00 00 00 00 00 00 
0.953800 1 29d Rx d 5 00 00 00 20 00 
0.954000 1 2bd Rx d 4 00 00 00 00 
0.954200 1 2c2 Rx d 8 20 40 c0 4b 01 00 80 cb 
0.954300 1 41d Rx d 1 00 
0.954600 1 383 Rx d 8 bf 18 35 00 01 21 a3 74 
0.954800 1 43d Rx d 6 00 00 ff 1f 40 00 
0.955000 1 39d Rx d 5 e2 5a c1 27 00 
0.955200 1 49d Rx d 7 00 00 00 00 00 00 00 
0.955400 1 545 Rx d 8 02 00 03 00 00 00 40 8f 
0.955900 1 261 Rx d 8 cc fe 27 49 00 40 44 b4 
0.956100 1 262 Rx d 8 0b 00 d5 de 00 b0 90 10 
0.956400 1 2c1 Rx d 8 03 17 13 00 00 00 00 00 
0.956600 1 263 Rx d 8 03 00 00 00 00 00 00 25 
0.956900 1 677 Rx d 8 01 00 00 00 00 00 00 00 
0.957900 1 3a1 Rx d 8 6b 80 40 43 3e 00 d0 3c 
0.958200 1 39a Rx d 8 fc fd fd fd fd fd fd 01 
0.960500 1 423 Rx d 7 00 00 00 00 08 00 00 
0.962000 1 2e2 Rx d 8 f8 2d 00 00 00 00 00 00 
0.962100 1 22a Rx d 4 00 00 29 16 
0.962400 1 3c2 Rx d 8 29 55 00 00 00 00 00 80 
0.963100 1 129 Rx d 8 9b 2b e6 1f 00 20 ff 3f 
0.963300 1 132 Rx d 6 1c 8a f7 ff 25 40 
0.963600 1 401 Rx d 8 1c 2a 4c 82 4b 82 4c 82 
0.963800 1 2d1 Rx d 2 7f 01 
0.964100 1 2e1 Rx d 8 04 00 00 80 48 44 26 00 
0.965100 1 219 Rx d 7 04 74 74 00 00 00 00 
0.965900 1 234 Rx d 8 24 e1 03 80 43 00 34 9a 
0.966200 1 719 Rx d 8 00 03 14 14 14 20 25 00 
0.966500 1 2c3 Rx d 8 00 00 00 4b 01 00 80 cb 
0.966700 1 243 Rx d 8 04 c8 f1 ff fd 7f 6c 6f 
0.967000 1 78a Rx d 8 01 00 06 00 04 00 00 00 
0.968800 1 1fa Rx d 3 02 c0 01 
0.970200 1 294 Rx d 8 14 c1 40 00 00 00 00 00 
0.970700 1 682 Rx d 8 00 00 00 40 05 02 e0 07 
0.971300 1 7aa Rx d 8 04 00 0f c0 00 1a 00 00 
0.971900 1 261 Rx d 8 05 22 6b ca 9a 42 50 7e 
0.972100 1 2f9 Rx d 8 b0 fb 07 20 00 00 00 00 
0.972400 1 743 Rx d 1 22 
0.972700 1 3fd Rx d 8 02 00 00 00 00 00 00 90 
0.973000 1 3a2 Rx d 8 60 85 72 a9 04 80 40 73 
0.973200 1 129 Rx d 8 fb 2c e6 1f 00 20 ff 3f 
0.973400 1 132 Rx d 6 15 8a f7 ff 25 40 
0.973900 1 441 Rx d 8 56 00 b6 c3 58 00 35 c5 
0.974500 1 2e3 Rx d 7 06 00 00 00 00 00 00 
0.974800 1 7e8 Rx d 8 0d c7 ab cd 3e 00 00 00 
0.975100 1 421 Rx d 7 00 14 00 00 00 d0 48 
0.975900 1 361 Rx d 5 34 0d 20 03 01 
0.976100 1 201 Rx d 8 83 02 00 40 06 00 98 3b 
0.976300 1 242 Rx d 4 10 15 04 05 
0.976500 1 2bf Rx d 7 0a 00 00 00 3c 00 00 
0.976700 1 263 Rx d 8 04 00 00 00 10 04 00 00 
0.977000 1 2c1 Rx d 8 04 00 10 10 0a 0d 08 15 
0.977200 1 45a Rx d 8 fd 07 f8 ff 03 00 02 1f 
0.978200 1 2c4 Rx d 8 6d 80 00 02 00 00 00 00 
0.978500 1 204 Rx d 8 01 00 00 ff 00 00 00 10 
0.978700 1 264 Rx d 6 39 00 00 00 a0 00 
0.978900 1 224 Rx d 8 04 08 00 48 19 01 10 08 
0.979100 1 2b4 Rx d 6 0f 05 d4 0d d8 00 
0.979400 1 3f9 Rx d 8 06 00 00 00 00 00 00 00 
0.979900 1 2e1 Rx d 8 45 80 00 00 aa f5 94 6a 
0.980200 1 381 Rx d 8 13 00 00 00 00 00 08 ff 
0.982400 1 225 Rx d 4 05 45 d2 00 
0.983000 1 360 Rx d 8 02 00 00 00 00 00 00 00 
0.983200 1 129 Rx d 8 e9 2d e6 1f 00 20 ff 3f 
0.983400 1 132 Rx d 6 15 8a f7 ff 25 40 
0.983600 1 3ae Rx d 8 00 40 00 08 00 00 90 d9 
0.983900 1 401 Rx d 8 1d 2a 4b 82 50 82 4f 82 
0.984100 1 25b Rx d 8 d3 c0 02 05 6a 86 30 15 
0.985900 1 545 Rx d 8 40 01 27 00 95 44 59 e4 
0.986300 1 339 Rx d 8 00 11 00 00 00 00 40 0f 
0.986500 1 243 Rx d 8 00 fc cf 4c c3 02 41 29 
0.986900 1 2a1 Rx d 6 00 00 98 3a 00 00 
0.987100 1 142 Rx d 8 28 00 02 5d 00 00 01 00 
0.987900 1 261 Rx d 8 00 10 1b 00 c5 4c 60 92 
0.988100 1 23e Rx d 8 f4 01 3a c0 fa fc 3f 64 
0.988500 1 283 Rx d 6 00 00 00 00 00 00 
0.988600 1 419 Rx d 1 00 
0.990000 1 102 Rx d 8 22 b3 88 04 8c 0c a1 09 
0.990300 1 20e Rx d 3 13 03 00 
0.991900 1 221 Rx d 8 41 01 55 51 01 02 c0 ce 
0.992300 1 22b Rx d 8 ff ff ff ff 1f fc ff ff 
0.993100 1 129 Rx d 8 36 2e e6 1f 00 20 ff 3f 
0.993300 1 132 Rx d 6 26 8a f7 ff 27 40 
0.993600 1 1f9 Rx d 8 00 00 00 00 00 00 00 00 
0.993700 1 229 Rx d 3 41 05 00 
0.994000 1 407 Rx d 8 0e 03 00 00 00 00 00 00 
0.994200 1 249 Rx d 4 4c 06 00 00 
0.994400 1 54f Rx d 8 00 00 00 00 00 00 00 00 
