date Thu Aug 27 01:58:58 PM 2026
base hex timestamps absolute
// version 7.0.0
0.000000 1 118 Rx d 8 f4 61 32 00 00 48 00 00 
0.000100 1 409 Rx d 1 00 
0.000400 1 266 Rx d 8 00 00 01 22 00 00 9f 01 
0.000600 1 257 Rx d 8 6b 41 1f 00 02 a0 0f 01 
0.000900 1 423 Rx d 7 00 00 00 00 08 00 00 
0.001200 1 1d8 Rx d 8 29 00 00 00 00 00 60 62 
0.001400 1 1e5 Rx d 8 02 ac 04 00 00 00 60 f8 
0.002000 1 419 Rx d 1 00 
0.002700 1 78a Rx d 8 01 00 01 00 e4 5d 9c 5d 
0.003700 1 20e Rx d 3 15 05 00 
0.003900 1 132 Rx d 6 e1 87 f4 ff 20 40 
0.004100 1 401 Rx d 8 13 2a 44 80 44 80 44 80 
0.004400 1 682 Rx d 8 00 00 00 40 05 02 d0 f7 
0.004600 1 129 Rx d 8 3b 24 dc 5f 00 20 ff 3f 
0.004800 1 2c2 Rx d 8 20 40 80 20 01 00 80 cb 
0.005100 1 310 Rx d 8 0b 00 04 02 05 00 02 00 
0.005300 1 400 Rx d 7 00 e0 fb be ef fb 00 
0.005600 1 2a1 Rx d 6 00 00 98 3a 00 00 
0.006000 1 31e Rx d 8 03 00 00 00 00 00 00 00 
0.006100 1 41d Rx d 1 00 
0.006300 1 219 Rx d 7 01 80 4a 49 97 99 04 
0.006600 1 21d Rx d 8 04 00 35 00 00 00 00 00 
0.006800 1 25d Rx d 8 36 41 01 2a 04 f0 d8 03 
0.007100 1 243 Rx d 8 04 ac f1 ff fd 7f 68 69 
0.007300 1 2c3 Rx d 8 55 5b a9 b6 02 00 12 a5 
0.007500 1 2e1 Rx d 8 fb 19 77 a9 94 6a 09 00 
0.007700 1 3a2 Rx d 8 60 85 72 bc 1c 80 c1 71 
0.008000 1 407 Rx d 8 10 05 00 00 00 00 00 00 
0.008200 1 719 Rx d 8 0c e0 0f 00 50 00 00 00 
0.010600 1 221 Rx d 8 61 05 55 55 01 02 80 b6 
0.010900 1 118 Rx d 8 f5 62 32 00 00 48 00 00 
0.011100 1 266 Rx d 8 00 00 01 22 00 00 9f 01 
0.011400 1 1d8 Rx d 8 29 00 00 00 00 00 80 82 
0.011600 1 1e5 Rx d 8 02 ac 04 00 00 00 00 98 
0.012400 1 789 Rx d 4 55 19 c0 30 
0.013300 1 2f9 Rx d 8 b0 fb 07 08 00 00 00 00 
0.013600 1 3a8 Rx d 8 04 80 05 c9 01 00 00 00 
0.013800 1 2c4 Rx d 8 06 2e a2 8c ca 88 10 00 
0.014000 1 132 Rx d 6 e4 87 f5 ff 22 40 
0.014200 1 204 Rx d 8 01 00 00 ff 00 00 00 10 
0.014400 1 264 Rx d 6 39 00 00 00 a0 00 
0.014700 1 129 Rx d 8 2c 25 dc 5f 00 20 ff 3f 
0.014900 1 224 Rx d 8 04 08 00 48 19 01 10 08 
0.015100 1 249 Rx d 4 e8 01 00 00 
0.015300 1 261 Rx d 8 cc 02 50 4a 00 40 a4 42 
0.015500 1 2b4 Rx d 6 24 05 9d 0d 0c 01 
0.015700 1 2c1 Rx d 8 58 28 7e 00 00 8a 02 47 
0.016000 1 330 Rx d 8 0b 00 03 01 00 00 00 00 
0.016200 1 3c2 Rx d 8 29 55 00 00 00 00 00 80 
0.016500 1 677 Rx d 8 02 00 00 00 00 00 00 00 
0.017000 1 263 Rx d 8 04 00 00 00 20 04 00 00 
0.017200 1 45a Rx d 8 fd 07 f8 ff 03 00 00 28 
0.018600 1 3c8 Rx d 8 06 00 00 00 00 00 00 00 
0.019200 1 39d Rx d 5 21 58 01 28 00 
0.019600 1 201 Rx d 8 f0 d1 01 80 22 87 f1 07 
0.019900 1 22b Rx d 8 ff ff ff ff ff ff ff ff 
0.020100 1 118 Rx d 8 f6 63 32 00 00 48 00 00 
0.020300 1 23e Rx d 8 f4 01 3a bf fa fc 5f 83 
0.020500 1 1fa Rx d 3 22 c0 01 
0.020700 1 266 Rx d 8 00 00 01 22 00 00 9f 01 
0.021000 1 257 Rx d 8 6c 42 1f 00 02 a0 0f 01 
0.021200 1 1d8 Rx d 8 29 00 00 00 00 00 a0 a2 
0.021500 1 1e5 Rx d 8 02 ac 04 00 00 00 20 b8 
0.021700 1 3ae Rx d 8 e8 3f 00 08 00 00 f1 21 
0.021900 1 3f9 Rx d 8 02 00 00 00 00 00 00 00 
0.022200 1 420 Rx d 8 28 01 40 4b 00 00 00 02 
0.022400 1 545 Rx d 8 01 00 00 00 00 10 d0 2b 
0.022700 1 2e1 Rx d 8 04 00 00 80 48 44 26 00 
0.022900 1 225 Rx d 4 45 55 fa 00 
0.023900 1 25b Rx d 8 d3 c0 02 05 6a 86 40 25 
0.024100 1 132 Rx d 6 ed 87 f5 ff 22 40 
0.024400 1 320 Rx d 8 02 00 00 00 00 00 00 00 
0.024600 1 129 Rx d 8 f6 26 dc 5f 00 20 ff 3f 
0.024700 1 2aa Rx d 3 7f c0 eb 
0.025000 1 401 Rx d 8 14 2a 44 80 4e 80 4c 80 
0.025300 1 7e8 Rx d 8 0d c7 ab cd 3e 00 00 00 
0.026600 1 381 Rx d 8 13 00 00 00 00 20 00 ff 
0.026900 1 3a1 Rx d 8 e8 4e 0e ca 00 10 a2 80 
0.027100 1 243 Rx d 8 00 fc 4f 8c c3 02 41 29 
0.027400 1 242 Rx d 4 55 15 86 05 
0.027700 1 339 Rx d 8 04 e1 02 00 00 00 40 0f 
0.028900 1 283 Rx d 6 00 00 00 00 00 00 
0.029800 1 344 Rx d 8 00 00 00 00 00 00 60 a7 
0.030000 1 554 Rx d 7 60 eb 03 0b 14 e0 01 
0.030200 1 6d4 Rx d 8 15 01 cb 32 22 44 17 c5 
0.030500 1 386 Rx d 8 00 00 00 00 00 00 00 00 
0.030700 1 261 Rx d 8 05 22 01 c8 9a 42 b0 72 
0.031000 1 118 Rx d 8 f7 64 32 00 00 48 00 00 
0.031200 1 3a0 Rx d 8 00 00 00 00 00 00 00 00 
0.031400 1 1d8 Rx d 8 29 00 00 00 00 00 c0 c2 
0.031700 1 384 Rx d 8 00 00 00 00 00 00 00 00 
0.031900 1 266 Rx d 8 00 00 01 22 00 00 9f 01 
0.032200 1 380 Rx d 8 00 00 00 00 00 00 00 00 
0.032400 1 1e5 Rx d 8 02 ac 04 00 00 00 40 d8 
0.032700 1 788 Rx d 8 bc c4 81 63 00 00 8a 00 
0.032800 1 7b5 Rx d 3 03 00 00 
0.033900 1 132 Rx d 6 e5 87 f5 ff 20 40 
0.034400 1 1f9 Rx d 8 00 00 00 00 00 00 00 00 
0.034600 1 129 Rx d 8 e1 27 dc 5f 00 20 ff 3f 
0.034800 1 2c1 Rx d 8 21 1b 0d 0a 02 00 00 00 
0.035100 1 360 Rx d 8 05 00 00 00 00 00 00 00 
0.035300 1 3c0 Rx d 8 02 00 00 00 00 00 00 00 
0.035600 1 453 Rx d 4 00 00 00 00 
0.035700 1 1bb Rx d 1 02 
0.035900 1 284 Rx d 8 30 00 00 00 40 08 d0 ce 
0.036100 1 390 Rx d 2 17 06 
0.036500 1 288 Rx d 8 03 11 00 40 80 00 91 ef 
0.037000 1 263 Rx d 8 00 d0 e7 89 d4 07 55 1f 
0.037200 1 2b3 Rx d 8 07 50 a1 50 c0 08 00 00 
0.038500 1 142 Rx d 8 28 00 02 59 18 00 01 00 
0.038700 1 2e1 Rx d 8 65 80 08 00 24 d2 8f 6a 
0.039000 1 340 Rx d 8 03 01 00 00 00 00 00 00 
0.039200 1 211 Rx d 6 98 16 71 0d 00 f1 
0.039400 1 38b Rx d 8 fe fe 2f 0f f0 00 25 03 
0.039700 1 3a2 Rx d 8 01 10 20 00 0b f0 ff 00 
0.039900 1 6a2 Rx d 5 00 00 00 00 00 
0.040100 1 118 Rx d 8 f8 65 32 00 00 48 00 00 
0.040300 1 266 Rx d 8 00 00 01 22 00 00 9f 01 
0.040600 1 257 Rx d 8 6d 43 1f 00 02 a0 0f 01 
0.040900 1 103 Rx d 8 22 b3 88 04 92 2c 21 02 
0.041200 1 1d8 Rx d 8 29 00 00 00 00 00 e0 e2 
0.041400 1 119 Rx d 4 00 00 00 00 
0.041600 1 102 Rx d 8 22 b3 88 04 8c 0c 21 08 
0.041800 1 1e5 Rx d 8 02 ac 04 00 00 00 60 f8 
0.042100 1 234 Rx d 8 29 e1 03 80 43 00 b4 1f 
0.042500 1 798 Rx d 8 20 42 08 5b cc 01 c0 fe 
0.042800 1 441 Rx d 8 28 85 89 00 32 00 28 f9 
0.043900 1 132 Rx d 6 df 87 f6 ff 24 40 
0.044100 1 372 Rx d 8 07 00 00 00 00 00 00 00 
0.044400 1 401 Rx d 8 15 2a 4d 80 4a 80 50 80 
0.044600 1 129 Rx d 8 36 28 dc 5f 00 20 ff 3f 
0.044800 1 201 Rx d 8 01 04 18 01 00 00 80 c4 
0.046500 1 2c7 Rx d 8 00 00 00 00 00 00 4b ff 
0.046700 1 261 Rx d 8 00 10 0e 00 d2 4c c0 f2 
0.047000 1 123 Rx d 8 01 00 00 00 00 3f 00 00 
0.047200 1 243 Rx d 8 01 fc 68 00 69 00 7c 7c 
0.047500 1 2a6 Rx d 8 00 00 6a 18 00 00 00 00 
0.047700 1 2a7 Rx d 8 00 00 00 00 00 70 05 84 
0.047900 1 22a Rx d 4 00 00 c9 15 
0.048300 1 439 Rx d 8 02 00 40 00 00 14 00 00 
0.048600 1 122 Rx d 8 00 00 12 92 12 00 00 00 
0.048800 1 2a8 Rx d 8 02 11 00 00 06 80 50 93 
0.049100 1 31a Rx d 8 60 fc ff 02 00 00 60 da 
0.049300 1 797 Rx d 4 15 0d c0 7d 
0.049600 1 241 Rx d 7 28 28 14 0a 0a 45 00 
0.050800 1 118 Rx d 8 f9 66 32 00 00 48 00 00 
0.051000 1 266 Rx d 8 00 00 01 22 00 00 9f 01 
0.051200 1 1d8 Rx d 8 29 00 00 00 00 00 00 02 
0.051500 1 1e5 Rx d 8 02 ac 04 00 00 00 00 98 
0.051700 1 319 Rx d 8 25 00 00 00 ff ff ff ff 
0.052900 1 3a3 Rx d 8 00 e0 00 00 38 03 fc 01 
0.053600 1 545 Rx d 8 02 00 02 00 00 00 e0 2e 
0.053900 1 132 Rx d 6 e9 87 f4 ff 20 40 
0.054500 1 129 Rx d 8 63 29 dc 5f 00 20 ff 3f 
0.054800 1 2c1 Rx d 8 02 0d 06 05 00 d0 92 c1 
0.055000 1 2e1 Rx d 8 10 21 04 00 12 00 20 08 
0.055200 1 428 Rx d 7 00 00 10 10 00 00 00 
0.055500 1 3e8 Rx d 8 06 00 00 00 00 00 00 00 
0.055700 1 272 Rx d 8 09 80 63 00 00 00 00 00 
0.056000 1 677 Rx d 8 03 00 00 00 00 00 00 00 
0.056900 1 263 Rx d 8 01 d0 bf b1 8c c7 54 1f 
0.057300 1 42a Rx d 8 53 d5 4c 35 56 4d 56 aa 
0.057600 1 3db Rx d 8 04 00 00 d5 05 00 00 00 
0.057800 1 43b Rx d 8 03 7f 04 ff 00 00 00 00 
0.058100 1 719 Rx d 8 0d 00 00 00 00 00 00 00 
0.058900 1 393 Rx d 8 09 80 63 00 00 00 00 00 
0.059700 1 39d Rx d 5 22 59 01 28 00 
0.060000 1 118 Rx d 8 fa 67 32 00 00 48 00 00 
0.060300 1 3ae Rx d 8 e8 3f 00 08 00 00 01 31 
0.060500 1 23e Rx d 8 f4 01 3a bf fa fc 6f 93 
0.060700 1 221 Rx d 8 60 55 55 05 54 51 91 68 
0.061000 1 266 Rx d 8 00 00 01 22 00 00 9f 01 
0.061200 1 108 Rx d 8 20 07 00 02 00 01 00 0d 
0.061500 1 1d8 Rx d 8 29 00 00 00 00 00 20 22 
0.061700 1 126 Rx d 5 01 b0 1d 38 2d 
0.061900 1 257 Rx d 8 6e 44 1f 00 02 a0 0f 01 
0.062100 1 128 Rx d 5 80 02 e4 0a 02 
0.062300 1 1e5 Rx d 8 02 ac 04 00 00 00 20 b8 
0.062600 1 1d6 Rx d 8 00 08 04 00 0a 0c 0b 05 
0.062800 1 212 Rx d 8 59 04 00 00 81 ff 77 31 
0.063000 1 252 Rx d 8 49 23 88 4a 00 fc 0f 00 
0.063300 1 261 Rx d 8 31 00 0a 00 77 49 d8 c9 
0.063400 1 268 Rx d 5 01 01 f8 00 c0 
0.063700 1 279 Rx d 8 4c 07 0d 01 74 05 62 02 
0.063900 1 282 Rx d 8 00 00 00 00 e8 23 0b 24 
0.064100 1 132 Rx d 6 ed 87 f5 ff 24 40 
0.064400 1 292 Rx d 8 c9 4d 47 de 72 01 00 00 
0.064600 1 129 Rx d 8 bc 2a dc 5f 00 20 ff 3f 
0.064700 1 2b6 Rx d 3 00 03 00 
0.065000 1 20c Rx d 8 00 a0 56 1e 00 c0 08 00 
0.065100 1 229 Rx d 3 44 01 00 
0.065300 1 113 Rx d 3 01 97 01 
0.065500 1 249 Rx d 4 2a 02 00 00 
0.065700 1 2d2 Rx d 8 6e 29 a8 4e c4 09 d5 14 
0.065800 1 2ec Rx d 3 7f c0 2d 
0.066100 1 2f1 Rx d 8 2b 67 00 83 00 00 00 00 
0.066200 1 2f2 Rx d 2 12 01 
0.066400 1 318 Rx d 8 1a 08 00 05 1b 3b 23 bb 
0.066700 1 379 Rx d 8 02 00 09 48 33 3f 22 00 
0.066900 1 381 Rx d 8 54 00 20 00 00 00 00 fe 
0.067100 1 243 Rx d 8 02 ac 91 12 00 4b 00 00 
0.067400 1 395 Rx d 8 01 0f 11 4a 0b 00 08 7d 
0.067600 1 3c2 Rx d 8 00 55 55 55 00 00 5a 45 
0.067900 1 397 Rx d 8 00 00 00 d8 1d 00 00 00 
0.068100 1 401 Rx d 8 16 2a 4a 80 46 80 44 80 
0.068300 1 40a Rx d 8 09 00 01 00 00 00 60 78 
0.068600 1 458 Rx d 7 00 00 00 00 40 00 00 
0.068800 1 22b Rx d 8 ff ff ff ff ff ff ff ff 
0.069000 1 45a Rx d 8 a0 d1 d1 d1 3f 36 00 68 
0.069300 1 54f Rx d 8 00 00 00 00 00 00 00 00 
0.069500 1 1f8 Rx d 4 00 00 00 00 
0.069700 1 201 Rx d 8 82 02 00 00 00 00 98 3b 
0.069900 1 712 Rx d 8 03 2a 09 0c 09 0c 09 0c 
0.070200 1 7a8 Rx d 8 b8 bc 71 63 00 00 82 00 
0.070300 1 7f4 Rx d 1 01 
0.070500 1 7ff Rx d 8 02 53 26 2c 8c 51 a3 90 
0.070800 1 118 Rx d 8 fb 68 32 00 00 48 00 00 
0.071000 1 2e1 Rx d 8 39 8d 55 af 1f 28 00 00 
0.071200 1 266 Rx d 8 00 00 01 22 00 00 9f 01 
0.071400 1 139 Rx d 1 00 
0.071600 1 1d8 Rx d 8 29 00 00 00 00 00 40 42 
0.071800 1 3f5 Rx d 8 00 00 c8 08 82 04 00 00 
0.072100 1 1e5 Rx d 8 02 ac 04 00 00 00 40 d8 
0.072300 1 4e3 Rx d 8 04 00 00 00 00 00 00 00 
0.072600 1 3a2 Rx d 8 52 29 00 00 22 00 00 00 
0.072800 1 7d5 Rx d 8 2b 00 00 00 00 00 00 00 
0.073100 1 7d5 Rx d 8 2c 00 3f 00 00 00 00 00 
0.073300 1 228 Rx d 8 03 11 00 40 80 00 91 8f 
0.073600 1 7d5 Rx d 8 32 00 00 00 00 00 00 00 
0.073800 1 7d7 Rx d 8 32 01 00 00 00 00 00 00 
0.074000 1 132 Rx d 6 e3 87 f5 ff 25 40 
0.074500 1 129 Rx d 8 4d 2b dc 5f 00 20 ff 3f 
0.074800 1 2c1 Rx d 8 2b 17 13 00 00 00 00 00 
0.076500 1 289 Rx d 8 a6 02 01 c0 94 00 3d 0f 
0.076700 1 3a1 Rx d 8 e9 8d 40 01 3e 00 b0 65 
0.076900 1 343 Rx d 8 00 92 5c 8e 97 00 00 00 
0.077200 1 263 Rx d 8 02 00 00 00 00 00 00 00 
0.078300 1 7aa Rx d 8 01 9b 0d 9d 0d 01 00 2e 
0.078500 1 37a Rx d 8 02 00 7d 0f 2e 00 00 00 
0.078700 1 261 Rx d 8 2a 29 4c 02 80 5c e2 55 
0.079400 1 7b8 Rx d 8 38 c2 08 7c 54 02 c0 ae 
0.080000 1 118 Rx d 8 fc 69 32 00 00 48 00 00 
0.080300 1 266 Rx d 8 00 00 01 22 00 00 9f 01 
0.080600 1 257 Rx d 8 6f 45 1f 00 02 a0 0f 01 
0.081100 1 1d8 Rx d 8 29 00 00 00 00 00 60 62 
0.081300 1 1e5 Rx d 8 02 ac 04 00 00 00 60 f8 
0.082500 1 2d1 Rx d 2 7f 01 
0.083000 1 3c3 Rx d 8 55 55 55 01 00 80 43 00 
0.083500 1 4e2 Rx d 8 04 20 20 02 0c c0 00 00 
0.083900 1 132 Rx d 6 d9 87 f5 ff 20 40 
0.084100 1 401 Rx d 8 17 2a 45 80 44 80 49 80 
0.084500 1 129 Rx d 8 2d 2c dc 5f 00 20 ff 3f 
0.085300 1 2e8 Rx d 8 02 11 00 00 06 80 30 b3 
0.085500 1 359 Rx d 8 40 00 00 00 00 00 00 00 
0.086200 1 285 Rx d 8 41 03 65 01 0d 00 08 00 
0.086400 1 286 Rx d 5 ff ff ff ff 71 
0.086600 1 353 Rx d 8 7b 0f 39 80 07 14 ff 02 
0.086800 1 2e1 Rx d 8 02 6c 7f 02 3e 61 00 00 
0.087100 1 243 Rx d 8 03 00 00 00 45 63 1f 00 
0.087200 1 3d8 Rx d 4 4a 00 56 00 
0.087500 1 373 Rx d 8 05 63 a6 00 00 de 0a 1f 
0.087700 1 545 Rx d 8 20 02 2c 30 97 67 f9 bf 
0.088500 1 142 Rx d 8 01 00 40 0a c0 1b 00 00 
0.089000 1 553 Rx d 8 00 00 00 00 00 00 d0 28 
0.090500 1 552 Rx d 8 00 00 00 00 00 00 d0 27 
0.090700 1 118 Rx d 8 fd 6a 32 00 00 48 00 00 
0.091000 1 266 Rx d 8 00 00 01 22 00 00 9f 01 
0.091200 1 1d8 Rx d 8 29 00 00 00 00 00 80 82 
0.091500 1 1e5 Rx d 8 02 ac 04 00 00 00 00 98 
0.091700 1 448 Rx d 7 00 00 10 10 00 00 00 
0.091900 1 234 Rx d 8 24 30 02 29 a5 04 c0 83 
0.092600 1 441 Rx d 8 24 00 b6 c3 58 00 2d 8b 
0.093600 1 421 Rx d 7 00 14 00 00 00 d0 48 
0.093900 1 132 Rx d 6 d9 87 f5 ff 20 40 
0.094500 1 129 Rx d 8 56 2d dc 5f ff 1f ff 3f 
0.094800 1 201 Rx d 8 83 02 00 00 00 00 b8 3b 
0.095000 1 261 Rx d 8 bb 4b 0a 00 00 40 f5 3b 
0.095200 1 2c1 Rx d 8 04 00 10 0e 0a 11 08 14 
0.095500 1 383 Rx d 8 b7 18 43 00 15 91 e3 56 
0.095700 1 443 Rx d 6 70 05 ff 03 00 00 
0.095900 1 677 Rx d 8 04 00 00 00 00 00 00 00 
0.096100 1 718 Rx d 7 04 00 00 00 00 00 00 
0.096900 1 263 Rx d 8 03 00 00 00 00 00 00 28 
0.097200 1 2b3 Rx d 8 08 fa fc 97 39 97 b5 b5 
0.097500 1 422 Rx d 6 70 00 10 00 00 00 
0.098000 1 39d Rx d 5 23 5a 01 28 00 
0.098700 1 381 Rx d 8 d5 f2 47 3e 39 00 00 01 
0.099400 1 39a Rx d 8 fc fd fd fd fd fd fd 01 
0.099700 1 3ae Rx d 8 e8 3f 00 08 00 00 11 41 
0.099900 1 23e Rx d 8 f4 01 3a bf fa fc 7f a3 
0.100200 1 118 Rx d 8 fe 6b 32 00 00 48 00 00 
0.100400 1 266 Rx d 8 00 00 01 22 00 00 9f 01 
0.100600 1 257 Rx d 8 70 46 1f 00 02 a0 0f 01 
0.100900 1 423 Rx d 7 00 00 00 00 08 00 00 
0.101200 1 1d8 Rx d 8 29 00 00 00 00 00 a0 a2 
0.101400 1 1e5 Rx d 8 02 ac 04 00 00 00 20 b8 
0.101500 1 409 Rx d 1 00 
0.102000 1 419 Rx d 1 00 
0.102600 1 2e1 Rx d 8 fb 19 77 99 94 66 09 00 
0.102900 1 3aa Rx d 8 00 00 00 00 00 00 00 00 
0.103300 1 77a Rx d 8 00 9b 1f 00 ee 0c 5f 61 
0.103600 1 78a Rx d 8 01 00 02 00 67 06 65 06 
0.103700 1 20e Rx d 3 16 06 00 
0.103900 1 132 Rx d 6 e6 87 f4 ff 22 40 
0.104200 1 372 Rx d 8 08 00 00 00 00 00 00 00 
0.104400 1 401 Rx d 8 18 2a 48 80 47 80 48 80 
0.104600 1 129 Rx d 8 e0 2e dc 5f 00 20 ff 3f 
0.104900 1 2c2 Rx d 8 55 63 a9 b6 02 00 1c a5 
0.105100 1 400 Rx d 7 00 e0 fb be ef fb 00 
0.105300 1 682 Rx d 8 00 00 00 40 05 02 e0 07 
0.105600 1 3a2 Rx d 8 60 85 72 bc 1c 80 c1 71 
0.105800 1 2a1 Rx d 6 00 00 98 3a 00 00 
0.106000 1 75d Rx d 8 04 00 00 00 00 00 00 00 
0.106300 1 21d Rx d 8 04 00 35 00 00 00 00 00 
0.106500 1 219 Rx d 7 02 80 4a 4a 97 9a 04 
0.106600 1 41d Rx d 1 00 
0.106900 1 25d Rx d 8 36 41 01 2a 04 f0 d7 03 
0.107100 1 243 Rx d 8 04 ac f1 ff fd 7f 68 69 
0.107300 1 2c3 Rx d 8 00 00 c0 4b 01 00 80 cb 
0.107600 1 262 Rx d 8 0b 00 d5 de 00 30 12 12 
0.107800 1 719 Rx d 8 13 50 05 54 01 00 00 00 
0.110600 1 261 Rx d 8 cc 02 48 4a 00 40 04 9a 
0.110800 1 118 Rx d 8 ff 6c 32 00 00 48 00 00 
0.111100 1 221 Rx d 8 61 05 55 55 01 02 a0 d6 
0.111300 1 266 Rx d 8 00 00 01 22 00 00 9f 01 
0.111600 1 1d8 Rx d 8 29 00 00 00 00 00 c0 c2 
0.111800 1 1e5 Rx d 8 02 ac 04 00 00 00 40 d8 
0.112400 1 789 Rx d 4 55 19 d0 40 
0.112800 1 743 Rx d 1 00 
0.113300 1 2f9 Rx d 8 b0 fb 07 10 00 00 00 00 
0.113600 1 2e2 Rx d 8 f8 2d 00 00 00 00 00 00 
0.113800 1 2c4 Rx d 8 47 07 b1 90 81 0c a9 06 
0.114000 1 132 Rx d 6 e4 87 f5 ff 23 40 
0.114200 1 204 Rx d 8 01 00 00 ff 00 00 00 10 
0.114500 1 264 Rx d 6 38 00 00 00 a0 00 
0.114700 1 129 Rx d 8 11 2f dc 5f 00 20 ff 3f 
0.114900 1 224 Rx d 8 04 08 00 48 19 01 10 08 
0.115100 1 249 Rx d 4 d3 03 00 00 
0.115300 1 2b4 Rx d 6 27 05 9c 0d 0e 01 
0.115500 1 2c1 Rx d 8 58 28 7e 00 00 8a 02 47 
0.115800 1 2e3 Rx d 7 18 06 1a 00 00 00 00 
0.116000 1 3c2 Rx d 8 29 55 00 00 00 00 00 80 
0.116200 1 3c4 Rx d 8 12 67 db 31 70 ee c3 47 
0.116500 1 405 Rx d 8 10 00 00 00 00 4c 52 57 
0.116700 1 414 Rx d 8 10 00 00 00 00 20 20 20 
0.117000 1 55a Rx d 8 05 00 00 00 00 00 00 00 
0.117200 1 263 Rx d 8 04 00 00 00 20 04 00 00 
0.117400 1 45a Rx d 8 fd 07 f8 ff 03 00 00 28 
0.117600 1 666 Rx d 4 00 00 a0 00 
0.118600 1 3c8 Rx d 8 00 00 00 00 00 00 00 00 
0.118800 1 22b Rx d 8 ff ff ff ff ff ff ff ff 
0.119100 1 2e1 Rx d 8 04 00 00 80 48 44 26 00 
0.119600 1 201 Rx d 8 f8 c9 01 80 22 87 f1 07 
0.119900 1 545 Rx d 8 01 00 00 00 00 10 00 5b 
0.120100 1 118 Rx d 8 00 6d 32 00 00 48 00 00 
0.120400 1 420 Rx d 8 28 01 40 4b 00 00 80 02 
0.120500 1 1fa Rx d 3 22 c0 01 
0.120700 1 266 Rx d 8 00 00 01 22 00 00 9f 01 
0.121000 1 257 Rx d 8 71 47 1f 00 02 a0 0f 01 
0.121200 1 1d8 Rx d 8 29 00 00 00 00 00 e0 e2 
0.121500 1 1e5 Rx d 8 02 ac 04 00 00 00 60 f8 
0.121700 1 3f9 Rx d 8 03 00 00 00 00 00 00 00 
0.122800 1 225 Rx d 4 45 55 fa 00 
0.123900 1 132 Rx d 6 e4 87 f5 ff 22 40 
0.124100 1 401 Rx d 8 19 2a 4f 80 4f 80 52 80 
0.124300 1 25b Rx d 8 d3 c0 02 05 6a 86 50 35 
0.124600 1 129 Rx d 8 f4 20 dc 5f 00 20 ff 3f 
0.124700 1 2aa Rx d 3 7f d0 fb 
0.126600 1 261 Rx d 8 05 22 01 c8 9a 42 10 d2 
0.126800 1 3a1 Rx d 8 e8 4e 0e ca 00 10 c2 a0 
0.127100 1 243 Rx d 8 00 fc 4f 8c c3 02 41 29 
0.127400 1 242 Rx d 4 55 15 86 05 
0.127700 1 339 Rx d 8 04 e1 02 00 00 00 40 0f 
0.128900 1 283 Rx d 6 00 00 00 00 00 00 
0.129200 1 3f1 Rx d 8 06 00 00 00 00 00 00 00 
0.130500 1 788 Rx d 8 01 00 00 00 ff a1 e8 12 
0.130700 1 118 Rx d 8 01 6e 32 00 00 48 00 00 
0.131000 1 2d3 Rx d 8 ec 00 9e 03 45 17 1e 62 
0.131200 1 266 Rx d 8 00 00 01 22 00 00 9f 01 
0.131500 1 1d8 Rx d 8 29 00 00 00 00 00 00 02 
0.131700 1 1e5 Rx d 8 02 ac 04 00 00 00 00 98 
0.133900 1 132 Rx d 6 d9 87 f5 ff 24 40 
0.134100 1 3ae Rx d 8 e8 3f 00 08 00 00 20 50 
0.134400 1 1f9 Rx d 8 00 00 00 00 00 00 00 00 
0.134600 1 129 Rx d 8 e3 21 dc 5f 00 20 ff 3f 
0.134800 1 2c1 Rx d 8 21 1b 0d 0a 02 00 00 00 
0.135100 1 2e1 Rx d 8 65 80 08 00 24 d2 8f 6a 
0.135300 1 360 Rx d 8 06 00 00 00 00 00 00 00 
0.135600 1 381 Rx d 8 16 10 00 00 00 64 64 00 
0.135800 1 3c0 Rx d 8 03 00 00 00 00 00 00 00 
0.136000 1 313 Rx d 8 02 64 64 05 00 00 80 65 
0.136300 1 285 Rx d 8 02 d5 00 00 00 00 de 00 
0.136500 1 288 Rx d 8 03 11 00 40 80 00 a1 ff 
0.136800 1 677 Rx d 8 00 00 00 00 00 00 00 00 
0.137000 1 263 Rx d 8 00 d0 e7 89 d4 07 55 1f 
0.137700 1 39d Rx d 5 24 5b 01 28 00 
0.138500 1 3a2 Rx d 8 01 10 20 00 0b f0 ff 00 
0.138700 1 142 Rx d 8 28 00 02 59 18 00 01 00 
0.139000 1 340 Rx d 8 04 00 00 00 00 00 00 00 
0.139200 1 211 Rx d 6 99 17 71 0d 00 f1 
0.139800 1 6a2 Rx d 5 00 00 00 00 00 
0.140000 1 118 Rx d 8 02 6f 32 00 00 48 00 00 
0.140300 1 266 Rx d 8 00 00 01 22 00 00 9f 01 
0.140600 1 23e Rx d 8 f4 01 3a bf fa fc 8f b3 
0.140800 1 257 Rx d 8 72 48 1f 00 02 a0 0f 01 
0.141000 1 103 Rx d 8 22 b3 88 04 92 2c 21 02 
0.141300 1 1d8 Rx d 8 29 00 00 00 00 00 20 22 
0.141400 1 119 Rx d 4 00 00 00 00 
0.141700 1 102 Rx d 8 22 b3 88 04 8a 0c 21 08 
0.141900 1 1e5 Rx d 8 02 ac 04 00 00 00 20 b8 
0.142200 1 234 Rx d 8 29 e1 03 80 43 00 d4 3f 
0.142500 1 798 Rx d 8 b1 d6 02 43 0c 01 d0 55 
0.142800 1 261 Rx d 8 00 10 0e 00 d2 4c 20 52 
0.143000 1 441 Rx d 8 28 85 89 00 32 00 30 01 
0.143900 1 132 Rx d 6 dc 87 f4 ff 1f 40 
0.144100 1 401 Rx d 8 1a 2a 50 80 50 80 4d 80 
0.144500 1 129 Rx d 8 aa 22 dc 5f 00 20 ff 3f 
0.144800 1 201 Rx d 8 01 04 18 01 00 00 80 c4 
0.146500 1 2c7 Rx d 8 00 00 00 00 00 00 4b ff 
0.146700 1 2a6 Rx d 8 00 00 6a 18 00 00 00 00 
0.147000 1 123 Rx d 8 00 00 12 92 d2 00 00 80 
0.147200 1 243 Rx d 8 01 fc 68 00 69 00 7c 7c 
0.147500 1 2a7 Rx d 8 00 00 00 00 00 70 05 84 
0.147800 1 22a Rx d 4 00 00 c9 15 
0.148100 1 7aa Rx d 8 02 08 32 fb cf 08 21 00 
0.148400 1 439 Rx d 8 02 00 40 00 00 14 00 00 
0.148600 1 122 Rx d 8 01 00 00 00 00 3f 00 00 
0.148900 1 2a8 Rx d 8 02 11 00 00 06 80 60 a3 
0.149300 1 797 Rx d 4 15 0d d0 8d 
0.149600 1 241 Rx d 7 28 28 14 0a 0a 45 00 
0.150600 1 2e1 Rx d 8 10 21 04 00 12 00 20 08 
0.150900 1 118 Rx d 8 f3 60 32 00 00 48 00 00 
0.151100 1 266 Rx d 8 00 00 01 22 00 00 9f 01 
0.151400 1 1d8 Rx d 8 29 00 00 00 00 00 40 42 
0.151600 1 1e5 Rx d 8 02 ac 04 00 00 00 40 d8 
0.152600 1 545 Rx d 8 02 00 02 00 00 00 10 5e 
0.152900 1 3a3 Rx d 8 00 e0 00 00 38 03 fc 01 
0.153900 1 132 Rx d 6 ea 87 f5 ff 22 40 
0.154500 1 428 Rx d 7 00 00 10 10 00 00 00 
0.154800 1 129 Rx d 8 bd 23 dc 5f 00 20 ff 3f 
0.155000 1 2c1 Rx d 8 02 0d 06 05 00 d0 92 c1 
0.155300 1 3e8 Rx d 8 00 00 00 00 00 00 00 00 
0.155600 1 272 Rx d 8 06 00 f1 88 07 48 06 08 
0.156900 1 263 Rx d 8 01 d0 bf b1 8c c7 54 1f 
0.157200 1 2b3 Rx d 8 69 2b 00 36 00 00 44 2e 
0.157400 1 719 Rx d 8 03 00 00 00 00 00 00 00 
0.158600 1 261 Rx d 8 31 00 04 00 76 49 38 22 
0.159000 1 393 Rx d 8 06 00 f1 88 07 48 06 08 
0.160000 1 118 Rx d 8 f4 61 32 00 00 48 00 00 
0.160300 1 266 Rx d 8 00 00 01 22 00 00 9f 01 
0.160500 1 257 Rx d 8 73 49 1f 00 02 a0 0f 01 
0.160700 1 221 Rx d 8 60 55 55 05 54 51 b1 88 
0.161000 1 108 Rx d 8 1e 08 00 02 00 ff ff 0d 
0.161200 1 1d8 Rx d 8 29 00 00 00 00 00 60 62 
0.161400 1 126 Rx d 5 01 b0 1d 40 35 
0.161600 1 1e5 Rx d 8 02 ac 04 00 00 00 60 f8 
0.161800 1 128 Rx d 5 80 02 e4 0a 02 
0.162000 1 2ec Rx d 3 7f d0 3d 
0.162200 1 1d6 Rx d 8 00 08 04 00 0a 0c 0e 05 
0.162500 1 212 Rx d 8 59 04 00 00 81 ff 77 31 
0.162700 1 252 Rx d 8 49 23 88 4a 00 fc 0f 00 
0.162900 1 268 Rx d 5 01 01 f8 00 c0 
0.163100 1 279 Rx d 8 4d 08 0d 01 74 05 62 02 
0.163400 1 282 Rx d 8 00 00 00 00 e8 23 0b 24 
0.163600 1 292 Rx d 8 c9 4d 47 de 72 01 00 00 
0.163700 1 2b6 Rx d 3 00 03 00 
0.164000 1 2d2 Rx d 8 6e 29 a8 4e c4 09 d5 14 
0.164200 1 132 Rx d 6 ea 87 f4 ff 22 40 
0.164400 1 2f1 Rx d 8 0c b9 01 10 1c 00 00 00 
0.164600 1 129 Rx d 8 3b 24 dc 5f 00 20 ff 3f 
0.164800 1 2f2 Rx d 2 12 01 
0.165000 1 20c Rx d 8 00 a0 56 1e 00 c0 08 00 
0.165200 1 229 Rx d 3 52 02 00 
0.165300 1 113 Rx d 3 01 97 01 
0.165500 1 249 Rx d 4 d3 04 00 00 
0.165700 1 372 Rx d 8 09 00 00 00 00 f8 3f 00 
0.166000 1 379 Rx d 8 03 c0 0c 48 33 be 25 00 
0.166200 1 395 Rx d 8 01 0f 12 4a 0c 00 09 7d 
0.166400 1 397 Rx d 8 00 00 00 d8 1d 00 00 00 
0.166700 1 3c2 Rx d 8 00 55 55 55 00 00 5a 45 
0.166900 1 2e1 Rx d 8 39 8d 55 af 1f 28 00 00 
0.167100 1 243 Rx d 8 02 ac 91 12 00 4b 00 00 
0.167400 1 3e2 Rx d 7 00 00 80 2a 00 c0 04 
0.167600 1 401 Rx d 8 1b 2a 48 80 4c 80 4c 80 
0.167800 1 45a Rx d 8 a0 d1 d1 d1 3f 36 00 68 
0.168100 1 54f Rx d 8 00 00 00 00 00 00 00 00 
0.168300 1 712 Rx d 8 04 00 00 00 00 00 00 00 
0.168600 1 7a8 Rx d 8 01 00 00 00 ff a1 e8 12 
0.168800 1 22b Rx d 8 ff ff ff ff ff ff ff ff 
0.168900 1 7f4 Rx d 1 01 
0.169200 1 7ff Rx d 8 03 33 08 00 e0 22 16 00 
0.169400 1 318 Rx d 8 1a 08 00 05 1b 3b 25 bd 
0.169600 1 1f8 Rx d 4 00 00 00 00 
0.169800 1 201 Rx d 8 82 02 00 00 00 00 98 3b 
0.170000 1 458 Rx d 7 00 00 00 00 40 00 00 
0.170700 1 381 Rx d 8 17 00 00 00 00 00 00 00 
0.170900 1 118 Rx d 8 f5 62 32 00 00 48 00 00 
0.171100 1 4e3 Rx d 8 cd 04 6b 51 00 0a 00 00 
0.171300 1 139 Rx d 1 00 
0.171500 1 1d8 Rx d 8 29 00 00 00 00 00 80 82 
0.171700 1 3a2 Rx d 8 62 29 00 00 22 00 00 00 
0.172000 1 266 Rx d 8 00 00 01 22 00 00 9f 01 
0.172200 1 3f5 Rx d 8 00 00 c8 08 82 04 00 00 
0.172500 1 1e5 Rx d 8 02 ac 04 00 00 00 00 98 
0.172700 1 7d5 Rx d 8 2b 00 00 00 00 00 00 00 
0.173000 1 7d5 Rx d 8 2c 00 3f 00 00 00 00 00 
0.173200 1 7d5 Rx d 8 32 00 00 00 00 00 00 00 
0.173500 1 228 Rx d 8 03 11 00 40 80 00 a1 9f 
0.173700 1 7d7 Rx d 8 32 01 00 00 00 00 00 00 
0.173900 1 132 Rx d 6 dc 87 f5 ff 20 40 
0.174100 1 3ae Rx d 8 e8 3f 00 08 00 00 30 60 
0.174500 1 129 Rx d 8 2c 25 dc 5f 00 20 ff 3f 
0.174800 1 261 Rx d 8 2a 29 4c 02 80 5c 42 b5 
0.175000 1 2c1 Rx d 8 2b 17 13 00 00 00 00 00 
0.175300 1 677 Rx d 8 01 00 00 00 00 00 00 00 
0.176500 1 289 Rx d 8 a6 02 01 00 90 00 3d 0f 
0.176700 1 3a1 Rx d 8 e9 8d 40 f1 3d 00 d0 74 
0.176900 1 343 Rx d 8 00 92 58 2e 98 00 00 00 
0.177200 1 263 Rx d 8 02 00 00 00 00 00 00 00 
0.178300 1 37a Rx d 8 03 00 00 00 00 00 00 00 
0.179200 1 39d Rx d 5 25 5c 01 28 00 
0.179400 1 7b8 Rx d 8 99 d6 02 8f 04 00 d0 ee 
0.180000 1 23e Rx d 8 f4 01 3a bf fa fc 9f c3 
0.180200 1 118 Rx d 8 f6 63 32 00 00 48 00 00 
0.180500 1 266 Rx d 8 00 00 01 22 00 00 9f 01 
0.180700 1 257 Rx d 8 74 4a 1f 00 02 a0 0f 01 
0.181100 1 1d8 Rx d 8 29 00 00 00 00 00 a0 a2 
0.181300 1 1e5 Rx d 8 02 ac 04 00 00 00 20 b8 
0.182500 1 2d1 Rx d 2 7f 01 
0.182800 1 2e1 Rx d 8 02 6c 7f 02 3e 61 00 00 
0.183000 1 3c3 Rx d 8 00 00 00 00 00 45 00 00 
0.183200 1 3e3 Rx d 4 00 00 00 00 
0.183500 1 4e2 Rx d 8 ad 03 66 41 02 00 00 00 
0.183900 1 132 Rx d 6 db 87 f5 ff 22 40 
0.184100 1 401 Rx d 8 1c 2a 4c 80 4c 80 4c 80 
0.184500 1 129 Rx d 8 f6 26 dc 5f 00 20 ff 3f 
0.185300 1 2e8 Rx d 8 02 11 00 00 06 80 40 c3 
0.185600 1 359 Rx d 8 c8 3f 00 00 0c 00 00 02 
0.185800 1 2d3 Rx d 8 ec 00 9e 03 45 17 1e 62 
0.186000 1 293 Rx d 8 01 0c 15 90 55 14 2f df 
0.186300 1 3df Rx d 8 00 00 80 00 01 d0 00 1b 
0.186500 1 545 Rx d 8 20 02 2c 00 97 67 29 bf 
0.186900 1 285 Rx d 8 03 47 86 48 95 00 00 00 
0.187100 1 243 Rx d 8 03 00 00 00 45 63 1f 00 
0.188500 1 142 Rx d 8 01 00 40 0a c0 1b 00 00 
0.189000 1 553 Rx d 8 00 00 00 00 00 00 e0 38 
0.189700 1 3e9 Rx d 8 f0 08 00 00 00 00 f0 d4 
0.190500 1 552 Rx d 8 00 00 00 00 00 00 e0 37 
0.190700 1 261 Rx d 8 bb 4b 0a 00 00 40 55 9b 
0.191000 1 118 Rx d 8 f7 64 32 00 00 48 00 00 
0.191200 1 1d8 Rx d 8 29 00 00 00 00 00 c0 c2 
0.191400 1 234 Rx d 8 23 30 02 29 a5 04 e0 a2 
0.191700 1 266 Rx d 8 00 00 01 22 00 00 9f 01 
0.191900 1 1e5 Rx d 8 02 ac 04 00 00 00 40 d8 
0.192200 1 448 Rx d 7 00 00 10 10 00 00 00 
0.192400 1 6e8 Rx d 8 78 62 00 12 04 00 00 00 
0.192700 1 441 Rx d 8 24 00 b6 c3 58 00 35 93 
0.193600 1 421 Rx d 7 00 14 00 00 00 d0 48 
0.193900 1 132 Rx d 6 de 87 f5 ff 1f 40 
0.194500 1 129 Rx d 8 e1 27 dc 5f 00 20 ff 3f 
0.194800 1 201 Rx d 8 83 02 00 00 00 00 b8 3b 
0.195000 1 2bf Rx d 7 0a 00 00 00 00 10 01 
0.195200 1 2c1 Rx d 8 04 00 10 0e 0a 11 08 14 
0.195400 1 361 Rx d 5 33 0e 1f 03 01 
0.195700 1 383 Rx d 8 b7 18 43 00 15 91 e3 56 
0.197000 1 263 Rx d 8 03 00 00 00 00 00 00 28 
0.197500 1 422 Rx d 6 70 00 10 00 00 00 
0.198700 1 2e1 Rx d 8 fb 19 74 99 94 65 09 00 
0.199400 1 39a Rx d 8 fd fd fd fd fd 01 00 00 
0.199600 1 3c9 Rx d 8 00 00 00 00 00 00 00 00 
0.200000 1 118 Rx d 8 f8 65 32 00 00 48 00 00 
0.200300 1 266 Rx d 8 00 00 01 22 00 00 9f 01 
0.200400 1 409 Rx d 1 00 
0.200600 1 257 Rx d 8 75 4b 1f 00 02 a0 0f 01 
0.200900 1 423 Rx d 7 00 00 00 00 08 00 00 
0.201200 1 1d8 Rx d 8 29 00 00 00 00 00 e0 e2 
0.201400 1 1e5 Rx d 8 02 ac 04 00 00 00 60 f8 
0.202100 1 419 Rx d 1 00 
0.202600 1 78a Rx d 8 01 00 03 00 a5 04 7b 02 
0.203600 1 682 Rx d 8 00 00 00 40 05 02 f0 17 
0.203800 1 400 Rx d 7 00 e0 fb be ef fb 00 
0.204000 1 132 Rx d 6 e5 87 f5 ff 23 40 
0.204200 1 20e Rx d 3 17 07 00 
0.204400 1 401 Rx d 8 1d 2a 4d 80 50 80 4f 80 
0.204700 1 129 Rx d 8 36 28 dc 5f 00 20 ff 3f 
0.204900 1 2c2 Rx d 8 20 40 80 20 01 00 80 cb 
0.205100 1 3a2 Rx d 8 60 85 72 bc 1c 80 c1 71 
0.205600 1 2a1 Rx d 6 00 00 98 3a 00 00 
0.205800 1 41d Rx d 1 00 
0.206100 1 21d Rx d 8 04 00 35 00 00 00 00 00 
0.206300 1 219 Rx d 7 03 80 4a 49 97 9b 04 
0.206600 1 25d Rx d 8 36 41 01 2a 04 f0 d8 03 
0.206800 1 261 Rx d 8 cc 02 48 4a 00 40 64 fa 
0.207000 1 243 Rx d 8 04 ac f1 ff fd 7f 68 69 
0.207300 1 2c3 Rx d 8 55 5b a9 b6 02 00 12 a5 
0.207500 1 381 Rx d 8 18 00 00 00 00 00 00 00 
0.207800 1 719 Rx d 8 14 00 00 00 00 00 00 00 
0.210600 1 221 Rx d 8 61 05 55 55 01 02 c0 f6 
0.210900 1 118 Rx d 8 f9 66 32 00 00 48 00 00 
0.211100 1 266 Rx d 8 00 00 01 22 00 00 9f 01 
0.211400 1 1d8 Rx d 8 29 00 00 00 00 00 00 02 
0.211600 1 1e5 Rx d 8 02 ac 04 00 00 00 00 98 
0.212400 1 789 Rx d 4 55 19 e0 50 
0.213300 1 2f9 Rx d 8 b0 fb 07 18 00 00 00 00 
0.213600 1 3a8 Rx d 8 00 ff 01 7f 00 00 00 00 
0.213800 1 2c4 Rx d 8 68 36 a0 84 a1 00 a3 a5 
0.214000 1 132 Rx d 6 da 87 f5 ff 22 40 
0.214300 1 204 Rx d 8 01 00 00 ff 00 00 00 10 
0.214500 1 264 Rx d 6 38 00 00 00 a0 00 
0.214700 1 129 Rx d 8 63 29 dc 5f 00 20 ff 3f 
0.214900 1 224 Rx d 8 04 08 00 48 19 01 10 08 
0.215100 1 249 Rx d 4 83 05 00 00 
0.215300 1 2b4 Rx d 6 25 05 9c 0d 0c 01 
0.215500 1 2a4 Rx d 8 aa 77 7d eb 6b 7f 7d 42 
0.215800 1 2c1 Rx d 8 58 28 7e 00 00 8a 02 47 
0.216000 1 2e1 Rx d 8 04 00 00 80 48 44 26 00 
0.216200 1 364 Rx d 4 00 82 5c 1f 
0.216400 1 3a4 Rx d 8 01 00 00 00 00 00 00 00 
0.216700 1 3ae Rx d 8 e8 3f 00 08 00 00 40 70 
0.216900 1 3c2 Rx d 8 29 55 00 00 00 00 00 80 
0.217200 1 263 Rx d 8 04 00 00 00 20 04 00 00 
0.217400 1 2b3 Rx d 8 0a 2e 20 00 00 00 00 00 
0.217600 1 45a Rx d 8 fd 07 f8 ff 03 00 00 28 
0.217800 1 39d Rx d 5 26 5d 01 28 00 
0.218100 1 677 Rx d 8 02 00 00 00 00 00 00 00 
0.218600 1 3c8 Rx d 8 01 00 00 00 00 00 00 00 
0.218800 1 22b Rx d 8 ff ff ff ff ff ff ff ff 
0.219100 1 545 Rx d 8 01 00 00 00 00 10 30 8b 
0.219600 1 201 Rx d 8 f8 d1 01 80 22 87 f1 07 
0.220000 1 118 Rx d 8 fa 67 32 00 00 48 00 00 
0.220300 1 266 Rx d 8 00 00 01 22 00 00 9f 01 
0.220500 1 3f9 Rx d 8 04 00 00 00 00 00 00 00 
0.220700 1 1fa Rx d 3 22 c0 01 
0.220900 1 23e Rx d 8 f4 01 3a bf fa fc af d3 
0.221100 1 257 Rx d 8 76 4c 1f 00 02 a0 0f 01 
0.221400 1 1d8 Rx d 8 29 00 00 00 00 00 20 22 
0.221600 1 1e5 Rx d 8 02 ac 04 00 00 00 20 b8 
0.221900 1 420 Rx d 8 28 01 40 4b 00 00 00 03 
0.222600 1 261 Rx d 8 05 22 01 c8 9a 42 70 32 
0.222900 1 225 Rx d 4 45 55 fa 00 
0.223900 1 25b Rx d 8 d3 c0 02 05 6a 86 60 45 
0.224100 1 132 Rx d 6 d9 87 f5 ff 23 40 
0.224400 1 320 Rx d 8 03 00 00 00 00 00 00 00 
0.224600 1 129 Rx d 8 11 2a dc 5f 01 20 ff 3f 
0.224800 1 2aa Rx d 3 7f e0 0b 
0.225000 1 372 Rx d 8 0a 01 40 06 00 00 00 82 
0.225200 1 401 Rx d 8 1e 2a 4d 80 4e 80 4d 80 
0.226600 1 3a1 Rx d 8 e8 4e 0e ca 00 10 e2 c0 
0.226900 1 243 Rx d 8 00 fc 4f 8c c3 02 41 29 
0.227400 1 242 Rx d 4 55 15 86 05 
0.227700 1 339 Rx d 8 04 e1 02 00 00 00 40 0f 
0.227900 1 20a Rx d 6 f6 15 09 82 18 01 
0.228800 1 7aa Rx d 8 23 2f fb cd 08 10 00 1c 
0.229000 1 283 Rx d 6 00 00 00 00 00 00 
0.230500 1 788 Rx d 8 02 40 cd b7 4c 03 00 00 
0.230700 1 118 Rx d 8 fb 68 32 00 00 48 00 00 
0.231000 1 266 Rx d 8 00 00 01 22 00 00 9f 01 
0.231200 1 1d8 Rx d 8 29 00 00 00 00 00 40 42 
0.231500 1 1e5 Rx d 8 02 ac 04 00 00 00 40 d8 
0.231700 1 2e1 Rx d 8 65 80 08 00 24 d2 8f 6a 
0.233900 1 132 Rx d 6 e8 87 f5 ff 22 40 
0.234400 1 1f9 Rx d 8 00 00 00 00 00 00 00 00 
0.234600 1 129 Rx d 8 4d 2b dc 5f 00 20 ff 3f 
0.234800 1 2c1 Rx d 8 21 1b 0d 0a 02 00 00 00 
0.235100 1 360 Rx d 8 07 00 00 00 20 00 00 00 
0.235300 1 3c0 Rx d 8 04 00 00 00 00 00 00 00 
0.235600 1 253 Rx d 8 00 64 34 85 64 62 00 15 
0.235700 1 4f3 Rx d 4 00 00 00 00 
0.235900 1 213 Rx d 2 38 4d 
0.236500 1 288 Rx d 8 03 11 00 40 80 00 b1 0f 
0.237000 1 263 Rx d 8 00 d0 e7 89 d4 07 55 1f 
0.237500 1 3a2 Rx d 8 01 10 20 00 0b f0 ff 00 
0.237700 1 285 Rx d 8 04 53 93 47 8b 00 00 00 
0.238500 1 142 Rx d 8 28 00 02 59 18 00 01 00 
0.238800 1 261 Rx d 8 00 10 0e 00 d2 4c 80 b2 
0.239000 1 340 Rx d 8 05 00 00 00 00 00 00 00 
0.239200 1 211 Rx d 6 9a 18 71 0d 00 f1 
0.239800 1 6a2 Rx d 5 00 00 00 00 00 
0.240000 1 3ae Rx d 8 e8 3f 00 08 00 00 51 81 
0.240200 1 118 Rx d 8 fc 69 32 00 00 48 00 00 
0.240500 1 266 Rx d 8 00 00 01 22 00 00 9f 01 
0.240700 1 257 Rx d 8 77 4d 1f 00 02 a0 0f 01 
0.241000 1 103 Rx d 8 22 b3 88 04 92 2c 21 02 
0.241200 1 1d8 Rx d 8 29 00 00 00 00 00 60 62 
0.241400 1 119 Rx d 4 00 00 00 00 
0.241600 1 102 Rx d 8 22 b3 88 04 8c 0c 21 08 
0.241800 1 1e5 Rx d 8 02 ac 04 00 00 00 60 f8 
0.242100 1 234 Rx d 8 29 e1 03 80 43 00 f4 5f 
0.242600 1 798 Rx d 8 5a c3 76 3f 10 01 e0 6f 
0.242800 1 381 Rx d 8 d9 12 00 3b 00 1e 00 00 
0.243000 1 441 Rx d 8 28 85 89 00 32 00 38 09 
0.243900 1 132 Rx d 6 e2 87 f5 ff 20 40 
0.244100 1 401 Rx d 8 1f 2a 4b 80 46 80 46 80 
0.244500 1 129 Rx d 8 d9 2c dd 5f 00 20 ff 3f 
0.244800 1 201 Rx d 8 01 04 18 01 00 00 80 c4 
0.246500 1 2c7 Rx d 8 00 00 00 00 00 00 4b ff 
0.246700 1 2a6 Rx d 8 00 00 6a 18 00 00 00 00 
0.247000 1 123 Rx d 8 01 00 00 00 00 3f 00 00 
0.247200 1 243 Rx d 8 01 fc 68 00 69 00 7c 7c 
0.247500 1 2a7 Rx d 8 00 00 00 00 00 70 05 84 
0.247700 1 2e1 Rx d 8 10 21 04 00 12 00 20 08 
0.247900 1 22a Rx d 4 00 00 c9 15 
0.248400 1 439 Rx d 8 02 00 40 00 00 14 00 00 
0.248600 1 122 Rx d 8 00 00 12 92 12 00 00 00 
0.248800 1 2a8 Rx d 8 02 11 00 00 06 80 70 b3 
0.249100 1 31a Rx d 8 60 fc ff 02 00 00 70 ea 
0.249300 1 797 Rx d 4 15 0d e0 9d 
0.249600 1 241 Rx d 7 29 28 54 0a 0a 45 00 
0.250700 1 118 Rx d 8 fd 6a 32 00 00 48 00 00 
0.251000 1 266 Rx d 8 00 00 01 22 00 00 9f 01 
0.251200 1 1d8 Rx d 8 29 00 00 00 00 00 80 82 
0.251500 1 1e5 Rx d 8 02 ac 04 00 00 00 00 98 
0.251700 1 545 Rx d 8 02 00 02 00 00 00 40 8e 
0.252900 1 3a3 Rx d 8 00 d0 00 00 38 03 fc 01 
0.253900 1 132 Rx d 6 e7 87 f5 ff 22 40 
0.254500 1 428 Rx d 7 00 00 10 10 00 00 00 
0.254800 1 129 Rx d 8 3f 2d dc 5f 00 20 ff 3f 
0.255000 1 261 Rx d 8 31 00 ff ff 76 49 98 7c 
0.255200 1 2c1 Rx d 8 02 0d 06 05 00 d0 92 c1 
0.255500 1 3e8 Rx d 8 01 00 00 00 00 00 00 00 
0.255700 1 272 Rx d 8 09 80 63 00 00 00 00 00 
0.255900 1 382 Rx d 5 46 1b 29 00 00 
0.256200 1 677 Rx d 8 03 00 00 00 00 00 00 00 
0.256900 1 263 Rx d 8 01 d0 bf b1 8c c7 54 1f 
0.257400 1 42a Rx d 8 53 d5 4c 35 56 4d 56 aa 
0.257600 1 719 Rx d 8 15 00 00 00 00 00 00 00 
0.258900 1 393 Rx d 8 09 80 63 00 00 00 00 00 
0.259600 1 39d Rx d 5 27 5e 01 28 00 
0.260000 1 118 Rx d 8 fe 6b 32 00 00 48 00 00 
0.260300 1 266 Rx d 8 00 00 01 22 00 00 9f 01 
0.260600 1 23e Rx d 8 f4 01 3a bf fa fc bf e3 
0.260800 1 221 Rx d 8 60 55 55 05 54 51 d1 a8 
0.261100 1 257 Rx d 8 78 4e 1f 00 02 a0 0f 01 
0.261300 1 108 Rx d 8 1f 09 00 02 00 ff ff 0d 
0.261500 1 1d8 Rx d 8 29 00 00 00 00 00 a0 a2 
0.261700 1 126 Rx d 5 01 b0 1d 48 3d 
0.262000 1 1e5 Rx d 8 02 ac 04 00 00 00 20 b8 
0.262200 1 128 Rx d 5 80 02 e4 0a 02 
0.262400 1 1d6 Rx d 8 00 08 04 00 0a 8c 16 05 
0.262600 1 212 Rx d 8 59 04 00 00 81 ff 77 31 
0.262900 1 252 Rx d 8 49 23 88 4a 00 fc 0f 00 
0.263100 1 268 Rx d 5 01 01 f8 00 c0 
0.263300 1 279 Rx d 8 4e 09 0d 01 74 05 62 02 
0.263500 1 282 Rx d 8 00 00 00 00 e8 23 0b 24 
0.263800 1 292 Rx d 8 c9 4d 47 de 72 01 00 00 
0.263900 1 2b6 Rx d 3 00 03 00 
0.264100 1 132 Rx d 6 dd 87 f5 ff 20 40 
0.264300 1 2d2 Rx d 8 6e 29 a8 4e c4 09 d5 14 
0.264600 1 129 Rx d 8 e0 2e dc 5f 00 20 ff 3f 
0.264800 1 2e1 Rx d 8 39 8d 55 af 1f 28 00 00 
0.265100 1 20c Rx d 8 00 a0 56 1e 00 c0 08 00 
0.265200 1 229 Rx d 3 6d 03 00 
0.265300 1 113 Rx d 3 01 97 01 
0.265500 1 249 Rx d 4 4c 06 00 00 
0.265700 1 2ec Rx d 3 7f e0 4d 
0.265900 1 2f1 Rx d 8 0d 00 00 00 00 00 00 00 
0.266000 1 2f2 Rx d 2 12 01 
0.266300 1 312 Rx d 8 f1 81 c7 14 1c 8d 00 00 
0.266500 1 318 Rx d 8 1a 08 00 05 1b 3b 27 bf 
0.266800 1 379 Rx d 8 04 00 06 c4 93 68 00 be 
0.267000 1 243 Rx d 8 02 ac 91 12 00 4b 00 00 
0.267200 1 392 Rx d 8 01 1c a9 67 10 27 02 00 
0.267500 1 395 Rx d 8 01 0f 11 4a 0b 00 08 7d 
0.267700 1 397 Rx d 8 00 00 00 d8 1d 00 00 00 
0.267900 1 3b2 Rx d 8 19 15 f4 41 15 c5 01 1a 
0.268200 1 3c2 Rx d 8 00 55 55 55 00 00 5a 45 
0.268400 1 401 Rx d 8 20 2a 44 80 48 80 49 80 
0.268600 1 40a Rx d 8 09 00 01 00 00 00 70 88 
0.268900 1 22b Rx d 8 ff ff ff ff ff ff ff ff 
0.269100 1 458 Rx d 7 00 00 00 00 40 00 00 
0.269300 1 45a Rx d 8 a0 d1 d1 d1 3f 36 00 68 
0.269500 1 1f8 Rx d 4 00 00 00 00 
0.269800 1 201 Rx d 8 82 02 00 00 00 00 98 3b 
0.270000 1 54f Rx d 8 00 00 00 00 00 00 00 00 
0.270300 1 712 Rx d 8 05 00 00 00 00 00 00 00 
0.270500 1 7a8 Rx d 8 02 40 d0 37 4d 07 00 00 
0.270700 1 118 Rx d 8 ff 6c 32 00 00 48 00 00 
0.271000 1 261 Rx d 8 2a 29 4c 02 80 5c a2 15 
0.271200 1 266 Rx d 8 00 00 01 22 00 00 9f 01 
0.271300 1 139 Rx d 1 00 
0.271600 1 1d8 Rx d 8 29 00 00 00 00 00 c0 c2 
0.271800 1 3a2 Rx d 8 62 29 00 00 22 00 00 00 
0.272000 1 1e5 Rx d 8 02 ac 04 00 00 00 40 d8 
0.272300 1 3f5 Rx d 8 00 00 c8 08 82 04 00 00 
0.272500 1 4e3 Rx d 8 06 00 00 00 00 00 00 00 
0.272800 1 7d5 Rx d 8 2b 00 00 00 00 00 00 00 
0.273000 1 7d5 Rx d 8 2c 00 3f 00 00 00 00 00 
0.273200 1 7f4 Rx d 1 01 
0.273400 1 228 Rx d 8 03 11 00 40 80 00 b1 af 
0.273600 1 7d5 Rx d 8 32 00 00 00 00 00 00 00 
0.273900 1 7d7 Rx d 8 32 01 00 00 00 00 00 00 
0.274100 1 132 Rx d 6 e3 87 f5 ff 23 40 
0.274300 1 7ff Rx d 8 04 21 fb a8 60 20 a4 20 
0.274600 1 129 Rx d 8 11 2f dc 5f 00 20 ff 3f 
0.274800 1 2c1 Rx d 8 2b 17 13 00 00 00 00 00 
0.276500 1 289 Rx d 8 a6 02 01 40 86 00 3d 0f 
0.276700 1 3a1 Rx d 8 e9 8d 40 0b 3e 00 f0 af 
0.276900 1 343 Rx d 8 00 92 64 ce 97 00 00 00 
0.277200 1 263 Rx d 8 02 00 00 00 00 00 00 00 
0.277400 1 2b3 Rx d 8 0b ff 9f f0 2f 20 16 00 
0.278300 1 37a Rx d 8 00 00 7c 5b 49 00 00 01 
0.278600 1 2e1 Rx d 8 02 6c 7f 02 3e 61 00 00 
0.278900 1 381 Rx d 8 1a 16 16 70 00 00 00 00 
0.279100 1 709 Rx d 8 18 00 00 00 00 00 d8 01 
0.279400 1 7b8 Rx d 8 8a fd 11 fc 24 05 e0 b7 
0.279800 1 3ae Rx d 8 e8 3f 00 08 00 00 61 91 
0.280100 1 118 Rx d 8 00 6d 32 00 00 48 00 00 
0.280300 1 266 Rx d 8 00 00 01 22 00 00 9f 01 
0.280500 1 257 Rx d 8 79 4f 1f 00 02 a0 0f 01 
0.281000 1 1d8 Rx d 8 29 00 00 00 00 00 e0 e2 
0.281300 1 1e5 Rx d 8 02 ac 04 00 00 00 60 f8 
0.282500 1 2d1 Rx d 2 7f 01 
0.283000 1 3c3 Rx d 8 55 55 55 01 00 80 43 00 
0.283200 1 323 Rx d 5 3d 15 21 02 02 
0.283500 1 4e2 Rx d 8 06 00 00 00 00 00 00 00 
0.283900 1 232 Rx d 8 8a 00 df 09 e0 04 00 00 
0.284100 1 132 Rx d 6 e9 87 f5 ff 22 40 
0.284300 1 372 Rx d 8 0b ec ff 3d 00 65 66 00 
0.284600 1 129 Rx d 8 f4 20 dc 5f 00 20 ff 3f 
0.284800 1 401 Rx d 8 21 2a 48 80 48 80 49 80 
0.285000 1 545 Rx d 8 20 02 2c 80 97 6b 59 73 
0.285300 1 359 Rx d 8 49 00 00 00 00 00 00 00 
0.285600 1 2e8 Rx d 8 02 11 00 00 06 80 50 d3 
0.286100 1 473 Rx d 8 00 00 03 00 00 00 00 00 
0.286300 1 324 Rx d 8 7c dc cc 41 a0 01 00 00 
0.286500 1 5f3 Rx d 3 e5 4d 09 
0.286700 1 253 Rx d 8 01 64 34 85 64 62 00 15 
0.287000 1 243 Rx d 8 03 00 00 00 45 63 1f 00 
0.287200 1 261 Rx d 8 bb 4b 0a 00 00 40 b5 fb 
0.287400 1 3b3 Rx d 8 8c 80 04 30 01 00 a8 80 
0.288500 1 142 Rx d 8 01 00 40 0a c0 1b 00 00 
0.289000 1 553 Rx d 8 00 00 00 00 00 00 f0 48 
0.290500 1 552 Rx d 8 00 00 00 00 00 00 f0 47 
0.290700 1 118 Rx d 8 01 6e 32 00 00 48 00 00 
0.291000 1 266 Rx d 8 00 00 01 22 00 00 9f 01 
0.291200 1 1d8 Rx d 8 29 00 00 00 00 00 00 02 
0.291500 1 1e5 Rx d 8 02 ac 04 00 00 00 00 98 
0.291700 1 234 Rx d 8 23 30 02 29 a5 04 00 c2 
0.291900 1 448 Rx d 7 00 00 10 10 00 00 00 
0.292700 1 441 Rx d 8 24 00 b6 c3 58 00 3d 9b 
0.293600 1 421 Rx d 7 00 14 00 00 00 d0 48 
0.293900 1 132 Rx d 6 d6 87 f4 ff 20 40 
0.294500 1 129 Rx d 8 e3 21 dc 5f 00 20 ff 3f 
0.294800 1 201 Rx d 8 83 02 00 00 00 00 b8 3b 
0.295000 1 2c1 Rx d 8 04 00 10 0e 0a 11 08 14 
0.295200 1 2e1 Rx d 8 fb 19 77 99 94 6a 09 00 
0.295500 1 383 Rx d 8 b7 18 43 00 15 91 e3 56 
0.295700 1 677 Rx d 8 04 00 00 00 00 00 00 00 
0.295900 1 718 Rx d 7 00 00 00 00 00 00 00 
0.296200 1 737 Rx d 7 03 00 00 00 e0 f0 80 
0.297000 1 263 Rx d 8 03 00 00 00 00 00 00 28 
0.297500 1 422 Rx d 6 70 00 10 00 00 00 
0.298000 1 39d Rx d 5 28 5f 01 28 00 
0.299400 1 39a Rx d 8 fc fd fd fd fd fd fd 01 
0.299700 1 23e Rx d 8 f4 01 3a bf fa fc cf f3 
0.300000 1 118 Rx d 8 02 6f 32 00 00 48 00 00 
0.300200 1 266 Rx d 8 00 00 01 22 00 00 9f 01 
0.300400 1 409 Rx d 1 00 
0.300600 1 257 Rx d 8 6a 40 1f 00 02 a0 0f 01 
0.300900 1 423 Rx d 7 00 00 00 00 08 00 00 
0.301200 1 1d8 Rx d 8 29 00 00 00 00 00 20 22 
0.301400 1 1e5 Rx d 8 02 ac 04 00 00 00 20 b8 
0.302000 1 419 Rx d 1 00 
0.302600 1 261 Rx d 8 cc 02 48 4a 00 40 c4 5a 
0.303400 1 78a Rx d 8 01 00 04 00 ac 04 91 00 
0.303700 1 3a2 Rx d 8 60 c5 72 bc 04 80 c1 71 
0.303800 1 20e Rx d 3 10 00 00 
0.304000 1 132 Rx d 6 e1 87 f4 ff 23 40 
0.304300 1 401 Rx d 8 22 2a 51 80 50 80 52 80 
0.304500 1 2c2 Rx d 8 55 63 a9 b6 02 00 1c a5 
0.304700 1 129 Rx d 8 aa 22 dc 5f 00 20 ff 3f 
0.305000 1 400 Rx d 7 00 e0 fb be ef fb 00 
0.305600 1 2a1 Rx d 6 00 00 98 3a 00 00 
0.306000 1 682 Rx d 8 00 00 00 40 05 02 00 27 
0.306200 1 75d Rx d 8 05 00 00 00 00 00 88 04 
0.306400 1 219 Rx d 7 04 74 74 00 00 00 00 
0.306700 1 21d Rx d 8 04 00 35 00 00 00 00 00 
0.306900 1 25d Rx d 8 36 41 01 2a 04 f0 d8 03 
0.307200 1 243 Rx d 8 04 ac f1 ff fd 7f 68 69 
0.307400 1 2c3 Rx d 8 00 00 c0 4b 01 00 80 cb 
0.307600 1 34a Rx d 8 02 07 00 00 00 00 00 90 
0.307800 1 41d Rx d 1 00 
0.308000 1 43b Rx d 8 00 7f 04 ff 00 00 00 00 
0.308200 1 719 Rx d 8 16 00 00 00 00 00 00 00 
0.308500 1 7aa Rx d 8 04 00 0f c0 00 1a 00 00 
0.310600 1 2e1 Rx d 8 04 00 00 80 48 44 26 00 
0.310900 1 118 Rx d 8 f3 60 32 00 00 48 00 00 
0.311100 1 221 Rx d 8 61 05 55 55 01 02 e0 16 
0.311300 1 266 Rx d 8 00 00 01 22 00 00 9f 01 
0.311600 1 1d8 Rx d 8 29 00 00 00 00 00 40 42 
0.311800 1 1e5 Rx d 8 02 ac 04 00 00 00 40 d8 
0.312500 1 789 Rx d 4 55 19 f0 60 
0.313300 1 2f9 Rx d 8 b0 fb 07 20 00 00 00 00 
0.313600 1 2e2 Rx d 8 00 00 00 78 02 0b 00 40 
0.313800 1 2c4 Rx d 8 49 d9 fd 2e a8 9c a5 89 
0.314000 1 132 Rx d 6 d6 87 f5 ff 23 40 
0.314200 1 204 Rx d 8 01 00 00 ff 00 00 00 10 
0.314500 1 264 Rx d 6 38 00 00 00 a0 00 
0.314700 1 129 Rx d 8 bd 23 dc 5f 00 20 ff 3f 
0.314900 1 224 Rx d 8 04 08 00 48 19 01 10 08 
0.315100 1 249 Rx d 4 5e 07 00 00 
0.315300 1 2b4 Rx d 6 26 05 9d 0d 05 01 
0.315500 1 2c1 Rx d 8 58 28 7e 00 00 8a 02 47 
0.315800 1 2e3 Rx d 7 20 00 00 84 02 0b 40 
0.316000 1 381 Rx d 8 a0 c2 e5 92 b9 5c b2 10 
0.316200 1 3c2 Rx d 8 29 55 00 00 00 00 00 80 
0.317000 1 263 Rx d 8 04 00 00 00 20 04 00 00 
0.317200 1 45a Rx d 8 fd 07 f8 ff 03 00 00 28 
0.317600 1 545 Rx d 8 01 00 00 00 00 10 60 bb 
0.318600 1 3c8 Rx d 8 02 00 00 00 00 00 00 00 
0.318900 1 22b Rx d 8 ff ff ff ff ff ff ff ff 
0.319100 1 261 Rx d 8 05 22 01 c8 9a 42 d0 92 
0.319300 1 3ae Rx d 8 e8 3f 00 08 00 00 71 a1 
0.319600 1 201 Rx d 8 f0 d1 01 80 22 87 f1 07 
0.320000 1 118 Rx d 8 f4 61 32 00 00 48 00 00 
0.320200 1 266 Rx d 8 00 00 01 22 00 00 9f 01 
0.320500 1 257 Rx d 8 6b 41 1f 00 02 a0 0f 01 
0.320600 1 1fa Rx d 3 22 c0 01 
0.320900 1 3f9 Rx d 8 05 00 00 00 00 00 00 00 
0.321100 1 1d8 Rx d 8 29 00 00 00 00 00 60 62 
0.321400 1 1e5 Rx d 8 02 ac 04 00 00 00 60 f8 
0.321600 1 420 Rx d 8 28 01 40 4b 00 00 80 03 
0.322900 1 225 Rx d 4 45 55 fa 00 
0.323900 1 132 Rx d 6 d8 87 f4 ff 20 40 
0.324100 1 401 Rx d 8 23 02 52 80 00 00 00 00 
0.324500 1 129 Rx d 8 3b 24 dc 5f 00 20 ff 3f 
0.324700 1 2aa Rx d 3 7f f0 1b 
0.325400 1 25b Rx d 8 d3 c0 02 05 6a 86 70 55 
0.326600 1 2e1 Rx d 8 65 80 08 00 24 d2 8f 6a 
0.326900 1 3a1 Rx d 8 e8 4e 0e ca 00 10 02 e0 
0.327100 1 243 Rx d 8 00 fc 4f 8c c3 02 41 29 
0.327400 1 242 Rx d 4 55 15 86 05 
0.327700 1 339 Rx d 8 04 e1 02 00 00 00 40 0f 
0.328900 1 283 Rx d 6 00 00 00 00 00 00 
0.330500 1 788 Rx d 8 bc c4 81 63 00 00 8a 00 
0.330700 1 118 Rx d 8 f5 62 32 00 00 48 00 00 
0.331000 1 266 Rx d 8 00 00 01 22 00 00 9f 01 
0.331200 1 1d8 Rx d 8 29 00 00 00 00 00 80 82 
0.331500 1 1e5 Rx d 8 02 ac 04 00 00 00 00 98 
0.333900 1 132 Rx d 6 dc 87 f5 ff 24 40 
0.334400 1 1f9 Rx d 8 00 00 00 00 00 00 00 00 
0.334600 1 129 Rx d 8 2c 25 dc 5f 00 20 ff 3f 
0.334800 1 261 Rx d 8 00 10 0e 00 d2 4c e0 12 
0.335100 1 2c1 Rx d 8 21 1b 0d 0a 02 00 00 00 
0.335300 1 360 Rx d 8 08 00 00 00 00 00 04 00 
0.335500 1 333 Rx d 5 04 10 e8 07 00 
0.335800 1 334 Rx d 8 bf 3f 0a 04 ff 01 52 95 
0.336000 1 3c0 Rx d 8 05 00 00 00 00 00 00 00 
0.336200 1 3fd Rx d 8 00 00 00 3c 20 00 01 80 
0.336500 1 677 Rx d 8 00 00 00 00 00 00 00 00 
0.336700 1 288 Rx d 8 03 11 00 40 80 00 c1 1f 
0.337000 1 263 Rx d 8 00 d0 e7 89 d4 07 55 1f 
0.337200 1 2b3 Rx d 8 0c 00 00 61 b0 49 53 00 
0.337400 1 3a2 Rx d 8 01 10 20 00 0b f0 ff 00 
0.337800 1 39d Rx d 5 19 50 01 28 00 
0.338500 1 142 Rx d 8 28 00 02 59 18 00 01 00 
0.338800 1 340 Rx d 8 06 00 00 00 00 00 00 00 
0.339200 1 211 Rx d 6 9b 19 71 0d 00 f1 
0.339800 1 6a2 Rx d 5 00 00 00 00 00 
0.340000 1 118 Rx d 8 f6 63 32 00 00 48 00 00 
0.340300 1 3ae Rx d 8 e8 3f 00 08 00 00 80 b0 
0.340500 1 23e Rx d 8 f4 01 3a bf fa fc df 03 
0.340800 1 266 Rx d 8 00 00 01 22 00 00 9f 01 
0.341000 1 103 Rx d 8 22 b3 88 04 92 2c 21 02 
0.341200 1 257 Rx d 8 6c 42 1f 00 02 a0 0f 01 
0.341400 1 119 Rx d 4 00 00 00 00 
0.341600 1 102 Rx d 8 22 b3 88 04 8c 0c 21 08 
0.341900 1 1d8 Rx d 8 29 00 00 00 00 00 a0 a2 
0.342100 1 1e5 Rx d 8 02 ac 04 00 00 00 20 b8 
0.342300 1 234 Rx d 8 28 e1 03 80 43 00 14 7e 
0.342500 1 739 Rx d 5 27 07 1d 01 00 
0.342800 1 2e1 Rx d 8 10 21 04 00 12 00 20 08 
0.343000 1 441 Rx d 8 28 85 89 00 32 00 00 d1 
0.343200 1 798 Rx d 8 bb 73 4e 74 ca 09 f0 5f 
0.343900 1 132 Rx d 6 e8 87 f5 ff 22 40 
0.344100 1 372 Rx d 8 0c ee 7f 85 0f 00 00 00 
0.344500 1 129 Rx d 8 f6 26 dc 5f 00 20 ff 3f 
0.344800 1 201 Rx d 8 01 04 18 01 00 00 80 c4 
0.346500 1 2c7 Rx d 8 00 00 00 00 00 00 4b ff 
0.346700 1 2a6 Rx d 8 00 00 6a 18 00 00 00 00 
0.347000 1 123 Rx d 8 00 00 12 92 d2 00 00 80 
0.347200 1 243 Rx d 8 01 fc 68 00 69 00 7c 7c 
0.347500 1 2a7 Rx d 8 00 00 00 00 00 70 05 84 
0.347800 1 22a Rx d 4 00 00 c9 15 
0.348400 1 439 Rx d 8 02 00 40 00 00 14 00 00 
0.348600 1 122 Rx d 8 01 00 00 00 00 3f 00 00 
0.348800 1 2a8 Rx d 8 02 11 00 00 06 80 80 c3 
0.349300 1 797 Rx d 4 15 0d f0 ad 
0.349600 1 241 Rx d 7 28 28 14 0a 0a 45 00 
0.350600 1 261 Rx d 8 31 00 ef ff 76 49 f8 cc 
0.350900 1 118 Rx d 8 f7 64 32 00 00 48 00 00 
0.351100 1 1d8 Rx d 8 29 00 00 00 00 00 c0 c2 
0.351300 1 266 Rx d 8 00 00 01 22 00 00 9f 01 
0.351600 1 381 Rx d 8 01 00 00 1e 99 98 98 00 
0.351800 1 1e5 Rx d 8 02 ac 04 00 00 00 40 d8 
0.352100 1 545 Rx d 8 02 00 02 00 00 00 70 be 
0.352900 1 3a3 Rx d 8 00 e0 00 00 38 03 fc 01 
0.353900 1 132 Rx d 6 da 87 f5 ff 22 40 
0.354500 1 129 Rx d 8 e1 27 dc 5f 00 20 ff 3f 
0.354800 1 2c1 Rx d 8 02 0d 06 05 00 d0 92 c1 
0.355000 1 428 Rx d 7 00 00 10 10 00 00 00 
0.355300 1 3e8 Rx d 8 02 00 00 00 00 00 00 00 
0.355600 1 272 Rx d 8 06 00 f1 88 07 48 06 08 
0.356900 1 263 Rx d 8 01 d0 bf b1 8c c7 54 1f 
0.357400 1 719 Rx d 8 17 00 00 00 00 00 00 00 
0.358700 1 2e1 Rx d 8 39 8d 55 af 1f 28 00 00 
0.359000 1 393 Rx d 8 06 00 f0 88 07 48 06 08 
0.360000 1 118 Rx d 8 f8 65 32 00 00 48 00 00 
0.360300 1 266 Rx d 8 00 00 01 22 00 00 9f 01 
0.360600 1 257 Rx d 8 6d 43 1f 00 02 a0 0f 01 
0.360800 1 221 Rx d 8 60 55 55 05 54 51 f1 c8 
0.361000 1 108 Rx d 8 22 0a 00 02 00 00 00 0d 
0.361300 1 1d8 Rx d 8 29 00 00 00 00 00 e0 e2 
0.361500 1 126 Rx d 5 01 b0 1d 50 45 
0.361700 1 1e5 Rx d 8 02 ac 04 00 00 00 60 f8 
0.361900 1 128 Rx d 5 80 02 e4 0a 02 
0.362100 1 1d6 Rx d 8 00 08 04 00 0a 0c 1d 05 
0.362400 1 212 Rx d 8 59 04 00 00 81 ff 77 31 
0.362600 1 252 Rx d 8 49 23 88 4a 00 fc 0f 00 
0.362800 1 268 Rx d 5 01 01 f8 00 c0 
0.363000 1 279 Rx d 8 4f 0a 0d 01 74 05 62 02 
0.363300 1 282 Rx d 8 00 00 00 00 e8 23 0b 24 
0.363500 1 292 Rx d 8 c9 4d 47 de 72 01 00 00 
0.363600 1 2b6 Rx d 3 00 03 00 
0.363900 1 2d2 Rx d 8 6e 29 a8 4e c4 09 d5 14 
0.364100 1 132 Rx d 6 ee 87 f5 ff 20 40 
0.364200 1 2ec Rx d 3 7f f0 5d 
0.364500 1 2f1 Rx d 8 2e 00 80 20 c4 00 20 04 
0.364700 1 129 Rx d 8 5f 28 dc 5f ff 1f ff 3f 
0.364800 1 2f2 Rx d 2 12 01 
0.365200 1 20c Rx d 8 00 a0 56 1e 00 c0 08 00 
0.365300 1 229 Rx d 3 43 04 00 
0.365400 1 113 Rx d 3 01 97 01 
0.365600 1 249 Rx d 4 3f 08 00 00 
0.365800 1 379 Rx d 8 05 00 65 69 91 6c 00 b8 
0.366000 1 395 Rx d 8 01 0f 11 4a 0c 00 08 7d 
0.366200 1 397 Rx d 8 00 00 00 d8 1d 00 00 00 
0.366500 1 3c2 Rx d 8 00 55 55 55 00 00 5a 45 
0.366700 1 261 Rx d 8 2a 29 4c 02 80 5c 02 75 
0.366900 1 3e2 Rx d 7 00 00 80 2a 00 c0 04 
0.367200 1 243 Rx d 8 02 ac 91 12 00 4b 00 00 
0.367400 1 45a Rx d 8 a0 d1 d1 d1 3f 36 00 68 
0.367600 1 54f Rx d 8 00 00 00 00 00 00 00 00 
0.367900 1 7a8 Rx d 8 b8 bc 71 63 00 00 82 00 
0.368000 1 7f4 Rx d 1 01 
0.368200 1 7ff Rx d 8 05 09 20 41 20 04 81 00 
0.368500 1 318 Rx d 8 1a 08 01 05 1b 3b 29 c2 
0.368700 1 348 Rx d 8 16 00 00 0c 0b 08 01 10 
0.369000 1 22b Rx d 8 ff ff ff ff ff ff ff ff 
0.369100 1 3ed Rx d 1 00 
0.369300 1 414 Rx d 8 11 20 20 20 20 20 20 20 
0.369500 1 1f8 Rx d 4 00 00 00 00 
0.369800 1 201 Rx d 8 82 02 00 00 00 00 98 3b 
0.370000 1 3a2 Rx d 8 52 29 00 00 22 00 00 00 
0.370200 1 458 Rx d 7 00 00 00 00 40 00 00 
0.370400 1 528 Rx d 4 6a 8f d2 25 
0.370600 1 52f Rx d 8 00 06 5a 01 08 4d 13 40 
0.370900 1 118 Rx d 8 f9 66 32 00 00 48 00 00 
0.371100 1 4e3 Rx d 8 07 00 00 00 00 00 00 00 
0.371300 1 266 Rx d 8 00 00 01 22 00 00 9f 01 
0.371500 1 139 Rx d 1 00 
0.371700 1 1d8 Rx d 8 29 00 00 00 00 00 00 02 
0.371900 1 3f5 Rx d 8 00 00 c8 08 82 04 00 00 
0.372200 1 1e5 Rx d 8 02 ac 04 00 00 00 00 98 
0.372400 1 666 Rx d 4 00 00 a0 00 
0.372600 1 55a Rx d 8 01 00 00 00 00 00 00 00 
0.372800 1 708 Rx d 5 35 25 0e 00 00 
0.373000 1 405 Rx d 8 11 33 45 37 46 41 35 4d 
0.373300 1 7d5 Rx d 8 2b 00 00 00 00 00 00 00 
0.373500 1 228 Rx d 8 03 11 00 40 80 00 c1 bf 
0.373800 1 7d5 Rx d 8 2c 00 3f 00 00 00 00 00 
0.374000 1 132 Rx d 6 d9 87 f5 ff 23 40 
0.374200 1 7d5 Rx d 8 32 00 00 00 00 00 00 00 
0.374500 1 7d7 Rx d 8 32 01 00 00 00 00 00 00 
0.374700 1 129 Rx d 8 0a 29 dc 5f ff 1f ff 3f 
0.374900 1 2c1 Rx d 8 2b 17 13 00 00 00 00 00 
0.375200 1 2e1 Rx d 8 02 6c 7f 02 3e 61 00 00 
0.375400 1 677 Rx d 8 01 00 00 00 00 00 00 00 
0.375700 1 7f1 Rx d 7 02 00 00 0f 00 00 00 
0.376500 1 289 Rx d 8 a6 02 01 80 a1 00 3d 0f 
0.376700 1 3a1 Rx d 8 e9 8d 40 13 3e 00 10 d7 
0.377000 1 343 Rx d 8 00 92 5c 8e 97 00 00 00 
0.377200 1 263 Rx d 8 02 00 00 00 00 00 00 00 
0.378300 1 7aa Rx d 8 e5 60 83 0d 30 08 13 00 
0.378500 1 37a Rx d 8 01 00 31 34 92 00 00 17 
0.379200 1 39d Rx d 5 1a 51 01 28 00 
0.379500 1 7b8 Rx d 8 d3 0d 37 c4 21 07 f0 0d 
0.379800 1 3f1 Rx d 8 07 00 00 00 00 00 00 00 
0.380000 1 23e Rx d 8 f4 01 3a bf fa fc ef 13 
0.380300 1 118 Rx d 8 fa 67 32 00 00 48 00 00 
0.380500 1 266 Rx d 8 00 00 01 22 00 00 9f 01 
0.380700 1 3ae Rx d 8 e8 3f 00 08 00 00 90 c0 
0.381000 1 257 Rx d 8 6e 44 1f 00 02 a0 0f 01 
0.381200 1 1d8 Rx d 8 29 00 00 00 00 00 20 22 
0.381500 1 1e5 Rx d 8 02 ac 04 00 00 00 20 b8 
0.382500 1 2d1 Rx d 2 7f 01 
0.382800 1 261 Rx d 8 bb 4b 0a 00 00 40 15 5b 
0.383000 1 3c3 Rx d 8 00 00 00 00 00 45 00 00 
0.383200 1 3e3 Rx d 4 00 00 00 00 
0.383600 1 4e2 Rx d 8 2f 20 00 00 00 00 00 00 
0.383800 1 545 Rx d 8 20 02 2c 20 97 66 89 3e 
0.384000 1 132 Rx d 6 e5 87 f5 ff 22 40 
0.384500 1 129 Rx d 8 bc 2a dc 5f 00 20 ff 3f 
0.385300 1 2e8 Rx d 8 02 11 00 00 06 80 60 e3 
0.385600 1 359 Rx d 8 4a 04 00 00 9f a0 6f b2 
0.385800 1 2f3 Rx d 8 0e 0e 0b 00 00 20 00 00 
0.386100 1 273 Rx d 8 81 e1 10 00 c8 00 10 01 
0.386300 1 3fd Rx d 8 01 00 02 00 00 08 12 80 
0.386700 1 381 Rx d 8 22 62 f6 f7 0d 10 01 00 
0.387000 1 243 Rx d 8 03 00 00 00 45 63 1f 00 
0.388500 1 142 Rx d 8 01 00 40 0a c0 1b 00 00 
0.389000 1 553 Rx d 8 00 00 00 00 00 00 00 58 
0.390500 1 552 Rx d 8 00 00 00 00 00 00 00 57 
0.390700 1 2e1 Rx d 8 fb 19 77 99 94 6a 09 00 
0.390900 1 118 Rx d 8 fb 68 32 00 00 48 00 00 
0.391200 1 1d8 Rx d 8 29 00 00 00 00 00 40 42 
0.391400 1 234 Rx d 8 24 30 02 29 a5 04 20 e3 
0.391700 1 266 Rx d 8 00 00 01 22 00 00 9f 01 
0.391900 1 1e5 Rx d 8 02 ac 04 00 00 00 40 d8 
0.392100 1 448 Rx d 7 00 00 10 10 00 00 00 
0.392700 1 441 Rx d 8 24 00 b6 c3 58 00 05 63 
0.393600 1 421 Rx d 7 00 14 00 00 00 d0 48 
0.393900 1 132 Rx d 6 d8 87 f5 ff 23 40 
0.394500 1 129 Rx d 8 4d 2b dc 5f 00 20 ff 3f 
0.394800 1 201 Rx d 8 83 02 00 00 00 00 b8 3b 
0.395000 1 2bf Rx d 7 0a 00 00 00 00 10 01 
0.395200 1 2c1 Rx d 8 04 00 10 0e 0a 11 08 14 
0.395500 1 383 Rx d 8 b7 18 43 00 15 91 e3 56 
0.397000 1 263 Rx d 8 03 00 00 00 00 00 00 28 
0.397200 1 2b3 Rx d 8 0d 05 a0 94 5e 42 31 a2 
0.397500 1 422 Rx d 6 70 00 10 00 00 00 
0.397700 1 362 Rx d 3 00 00 00 
0.398600 1 261 Rx d 8 cc 02 48 4a 00 40 24 ba 
0.399300 1 409 Rx d 1 00 
0.399500 1 39a Rx d 8 fd fd fd fd fd 01 00 00 
0.400000 1 118 Rx d 8 fc 69 32 00 00 48 00 00 
0.400200 1 266 Rx d 8 00 00 01 22 00 00 9f 01 
0.400500 1 257 Rx d 8 6f 45 1f 00 02 a0 0f 01 
0.400900 1 423 Rx d 7 00 00 00 00 08 00 00 
0.401200 1 1d8 Rx d 8 29 00 00 00 00 00 60 62 
0.401400 1 1e5 Rx d 8 02 ac 04 00 00 00 60 f8 
0.402100 1 419 Rx d 1 00 
0.402500 1 3a2 Rx d 8 60 85 72 be 1c 80 c1 71 
0.403700 1 78a Rx d 8 01 00 05 00 9d 0d 07 00 
0.403800 1 20e Rx d 3 11 01 00 
0.404000 1 132 Rx d 6 e2 87 f5 ff 24 40 
0.404100 1 24a Rx d 1 03 
0.404400 1 372 Rx d 8 0d 32 00 00 00 40 f5 87 
0.404600 1 129 Rx d 8 d9 2c dd 5f 00 20 ff 3f 
0.404800 1 2c2 Rx d 8 20 40 80 20 01 00 80 cb 
0.405100 1 400 Rx d 7 00 e0 fb be ef fb 00 
0.405600 1 2a1 Rx d 6 00 00 98 3a 00 00 
0.405800 1 41d Rx d 1 00 
0.406000 1 682 Rx d 8 00 00 00 40 05 02 10 37 
0.406300 1 21d Rx d 8 04 00 35 00 00 00 00 00 
0.406500 1 219 Rx d 7 05 00 6d 6d 6d 6d 00 
0.406700 1 25d Rx d 8 36 41 01 2a 04 f0 d8 03 
0.406900 1 2e1 Rx d 8 04 00 00 80 48 44 26 00 
0.407200 1 243 Rx d 8 04 ac f1 ff fd 7f 68 69 
0.407400 1 2c3 Rx d 8 55 5b a9 b6 02 00 12 a5 
0.407600 1 719 Rx d 8 00 03 14 14 14 00 05 00 
0.410600 1 221 Rx d 8 61 05 55 55 01 02 00 36 
0.410900 1 118 Rx d 8 fd 6a 32 00 00 48 00 00 
0.411100 1 1d8 Rx d 8 29 00 00 00 00 00 80 82 
0.411400 1 266 Rx d 8 00 00 01 22 00 00 9f 01 
0.411600 1 1e5 Rx d 8 02 ac 04 00 00 00 00 98 
0.412500 1 789 Rx d 4 55 19 00 70 
0.413300 1 2f9 Rx d 8 b0 fb 07 28 00 00 00 00 
0.413600 1 3a8 Rx d 8 01 02 00 07 00 09 ff 00 
0.413800 1 2c4 Rx d 8 0a 00 00 80 4c 68 02 00 
0.414000 1 132 Rx d 6 e3 87 f5 ff 23 40 
0.414300 1 204 Rx d 8 01 00 00 ff 00 00 00 10 
0.414500 1 264 Rx d 6 38 00 00 00 a0 00 
0.414700 1 129 Rx d 8 3f 2d dc 5f 00 20 ff 3f 
0.415000 1 224 Rx d 8 04 08 00 48 19 01 10 08 
0.415100 1 249 Rx d 4 5e 09 00 00 
0.415400 1 261 Rx d 8 05 22 01 c8 9a 42 30 f2 
0.415600 1 2b4 Rx d 6 27 05 9c 0d 0a 01 
0.415800 1 2c1 Rx d 8 58 28 7e 00 00 8a 02 47 
0.416000 1 3c2 Rx d 8 29 55 00 00 00 00 00 80 
0.416300 1 677 Rx d 8 02 00 00 00 00 00 00 00 
0.416700 1 545 Rx d 8 01 00 00 00 00 10 90 eb 
0.417000 1 263 Rx d 8 04 00 00 00 20 04 00 00 
0.417200 1 45a Rx d 8 fd 07 f8 ff 03 00 00 28 
0.418600 1 3c8 Rx d 8 03 00 00 00 00 00 00 00 
0.418900 1 22b Rx d 8 ff ff ff ff ff ff ff ff 
0.419300 1 39d Rx d 5 1b 52 01 28 00 
0.419600 1 201 Rx d 8 f8 d1 01 80 22 87 f1 07 
0.420000 1 118 Rx d 8 fe 6b 32 00 00 48 00 00 
0.420200 1 23e Rx d 8 f4 01 3a bf fa fc ff 23 
0.420500 1 266 Rx d 8 00 00 01 22 00 00 9f 01 
0.420600 1 1fa Rx d 3 22 c0 01 
0.420900 1 257 Rx d 8 70 46 1f 00 02 a0 0f 01 
0.421100 1 3ae Rx d 8 e8 3f 00 08 00 00 a0 d0 
0.421400 1 1d8 Rx d 8 29 00 00 00 00 00 a0 a2 
0.421600 1 1e5 Rx d 8 02 ac 04 00 00 00 20 b8 
0.421800 1 3f9 Rx d 8 06 00 00 00 00 00 00 00 
0.422100 1 420 Rx d 8 28 01 40 4b 00 00 00 04 
0.422700 1 2e1 Rx d 8 65 80 08 00 25 d2 8f 6a 
0.422900 1 381 Rx d 8 03 fc 3d 08 00 b8 04 00 
0.423100 1 225 Rx d 4 45 55 fa 00 
0.423900 1 132 Rx d 6 e5 87 f5 ff 22 40 
0.424100 1 320 Rx d 8 04 00 00 00 00 00 00 00 
0.424500 1 129 Rx d 8 e0 2e dc 5f 00 20 ff 3f 
0.424700 1 2aa Rx d 3 7f 00 2b 
0.424900 1 25b Rx d 8 d3 c0 02 05 6a 86 80 65 
0.426700 1 3a1 Rx d 8 e8 4e 0e ca 00 10 22 00 
0.427000 1 243 Rx d 8 00 fc 4f 8c c3 02 41 29 
0.427400 1 242 Rx d 4 55 15 86 05 
0.427700 1 339 Rx d 8 04 e1 02 00 00 00 40 0f 
0.428900 1 283 Rx d 6 00 00 00 00 00 00 
0.430500 1 788 Rx d 8 01 00 00 00 ff a1 e8 12 
0.430800 1 118 Rx d 8 ff 6c 32 00 00 48 00 00 
0.431000 1 261 Rx d 8 00 10 0e 00 d2 4c 40 72 
0.431200 1 266 Rx d 8 00 00 01 22 00 00 9f 01 
0.431500 1 1d8 Rx d 8 29 00 00 00 00 00 c0 c2 
0.431700 1 1e5 Rx d 8 02 ac 04 00 00 00 40 d8 
0.433900 1 132 Rx d 6 e6 87 f5 ff 23 40 
0.434400 1 1f9 Rx d 8 00 00 00 00 00 00 00 00 
0.434600 1 129 Rx d 8 11 2f dc 5f 00 20 ff 3f 
0.434900 1 2c1 Rx d 8 21 1b 0d 0a 02 00 00 00 
0.435100 1 360 Rx d 8 09 00 00 00 00 00 00 00 
0.435400 1 3c0 Rx d 8 06 00 00 00 00 00 00 00 
0.435600 1 3a2 Rx d 8 01 10 20 00 0b f0 ff 00 
0.435900 1 294 Rx d 8 14 c1 40 00 00 00 00 00 
0.436200 1 3fd Rx d 8 02 00 00 00 00 00 00 90 
0.436600 1 288 Rx d 8 03 11 00 40 80 00 d1 2f 
0.437000 1 263 Rx d 8 00 d0 e7 89 d4 07 55 1f 
0.438500 1 142 Rx d 8 28 00 02 59 18 00 01 00 
0.438800 1 2e1 Rx d 8 10 21 04 00 12 00 20 08 
0.439000 1 340 Rx d 8 07 00 00 00 00 00 00 00 
0.439200 1 211 Rx d 6 9c 1a 71 0d 00 f1 
0.439800 1 6a2 Rx d 5 00 00 00 00 00 
0.440000 1 3ae Rx d 8 e8 3f 00 08 00 00 b1 e1 
0.440200 1 118 Rx d 8 00 6d 32 00 00 48 00 00 
0.440500 1 266 Rx d 8 00 00 01 22 00 00 9f 01 
0.440700 1 257 Rx d 8 71 47 1f 00 02 a0 0f 01 
0.441000 1 103 Rx d 8 22 b3 88 04 92 2c 21 02 
0.441200 1 1d8 Rx d 8 29 00 00 00 00 00 e0 e2 
0.441400 1 119 Rx d 4 00 00 00 00 
0.441600 1 102 Rx d 8 22 b3 88 04 8c 0c 21 08 
0.441900 1 1e5 Rx d 8 02 ac 04 00 00 00 60 f8 
0.442100 1 234 Rx d 8 29 e1 03 80 43 00 34 9f 
0.442500 1 798 Rx d 8 cc 8a 5d ec b2 0b 00 08 
0.442800 1 441 Rx d 8 28 85 89 00 32 00 08 d9 
0.443900 1 132 Rx d 6 e6 87 f5 ff 20 40 
0.444500 1 129 Rx d 8 f4 20 dc 5f 00 20 ff 3f 
0.444800 1 201 Rx d 8 01 04 18 01 00 00 80 c4 
0.446500 1 2c7 Rx d 8 00 00 00 00 00 00 4b ff 
0.446700 1 261 Rx d 8 31 00 e8 ff 76 49 58 25 
0.447000 1 123 Rx d 8 01 00 00 00 00 3f 00 00 
0.447200 1 243 Rx d 8 01 fc 68 00 69 00 7c 7c 
0.447500 1 2a6 Rx d 8 00 00 6a 18 00 00 00 00 
0.447700 1 2a7 Rx d 8 00 00 00 00 00 70 05 84 
0.447900 1 22a Rx d 4 00 00 c9 15 
0.448400 1 439 Rx d 8 02 00 40 00 00 14 00 00 
0.448600 1 122 Rx d 8 00 00 12 92 12 00 00 00 
0.448800 1 2a8 Rx d 8 02 11 00 00 06 80 90 d3 
0.449100 1 31a Rx d 8 60 fc ff 02 00 00 80 fa 
0.449200 1 3d3 Rx d 3 00 00 00 
0.449400 1 797 Rx d 4 15 0d 00 bd 
0.449600 1 241 Rx d 7 29 28 54 0a 0a 45 00 
0.449900 1 545 Rx d 8 02 00 02 00 00 00 a0 ee 
0.450700 1 118 Rx d 8 01 6e 32 00 00 48 00 00 
0.451000 1 266 Rx d 8 00 00 01 22 00 00 9f 01 
0.451200 1 1d8 Rx d 8 29 00 00 00 00 00 00 02 
0.451500 1 1e5 Rx d 8 02 ac 04 00 00 00 00 98 
0.452900 1 3a3 Rx d 8 00 e0 00 00 38 03 fc 01 
0.453900 1 132 Rx d 6 dc 87 f5 ff 22 40 
0.454200 1 3cc Rx d 8 03 11 83 1a 00 0e 09 00 
0.454500 1 129 Rx d 8 e3 21 dc 5f 00 20 ff 3f 
0.454800 1 2c1 Rx d 8 02 0d 06 05 00 d0 92 c1 
0.455000 1 2e1 Rx d 8 39 8d 55 af 1f 28 00 00 
0.455200 1 428 Rx d 7 00 00 10 10 00 00 00 
0.455500 1 3e8 Rx d 8 03 00 00 00 00 00 00 00 
0.455700 1 272 Rx d 8 09 80 63 00 00 00 00 00 
0.456000 1 677 Rx d 8 03 00 00 00 00 00 00 00 
0.457000 1 263 Rx d 8 01 d0 bf b1 8c c7 54 1f 
0.457200 1 2b3 Rx d 8 ae 55 00 fc bf 3f 19 00 
0.457400 1 42a Rx d 8 53 d5 4c 35 56 4d 56 aa 
0.457700 1 719 Rx d 8 01 00 00 00 00 00 00 00 
0.457900 1 7aa Rx d 8 e6 04 e0 bb 80 ac a0 29 
0.458600 1 381 Rx d 8 04 8d 97 8c 97 94 8e 69 
0.459000 1 393 Rx d 8 09 80 63 00 00 00 00 00 
0.460000 1 118 Rx d 8 02 6f 32 00 00 48 00 00 
0.460300 1 39b Rx d 8 01 0a df e0 b0 44 01 5d 
0.460500 1 23e Rx d 8 f4 01 3a bf fa fc 0f 33 
0.460700 1 221 Rx d 8 60 55 55 05 54 51 11 e8 
0.461000 1 266 Rx d 8 00 00 01 22 00 00 9f 01 
0.461200 1 108 Rx d 8 24 0b 00 02 00 01 00 0d 
0.461500 1 1d8 Rx d 8 29 00 00 00 00 00 20 22 
0.461600 1 126 Rx d 5 01 b0 1d 58 4d 
0.461900 1 257 Rx d 8 72 48 1f 00 02 a0 0f 01 
0.462100 1 128 Rx d 5 80 02 e4 0a 02 
0.462300 1 1e5 Rx d 8 02 ac 04 00 00 00 20 b8 
0.462500 1 1d6 Rx d 8 00 08 04 00 0a 4c 0e 05 
0.462800 1 212 Rx d 8 59 04 00 00 81 ff 77 31 
0.463000 1 252 Rx d 8 49 23 88 4a 00 fc 0f 00 
0.463200 1 261 Rx d 8 2a 29 4c 02 80 5c 62 d5 
0.463400 1 268 Rx d 5 01 01 f8 00 c0 
0.463700 1 279 Rx d 8 50 0b 0d 01 74 05 62 02 
0.463900 1 282 Rx d 8 00 00 00 00 e8 23 0b 24 
0.464100 1 132 Rx d 6 df 87 f6 ff 24 40 
0.464300 1 292 Rx d 8 c9 4d 47 de 72 01 00 00 
0.464600 1 129 Rx d 8 5e 22 dd 5f 00 20 ff 3f 
0.464700 1 2b6 Rx d 3 00 03 00 
0.465000 1 20c Rx d 8 00 a0 56 1e 00 c0 08 00 
0.465100 1 229 Rx d 3 41 05 00 
0.465300 1 113 Rx d 3 01 97 01 
0.465400 1 249 Rx d 4 e2 0a 00 00 
0.465700 1 2d2 Rx d 8 6e 29 a8 4e c4 09 d5 14 
0.465800 1 2ec Rx d 3 7f 00 6d 
0.466000 1 2f1 Rx d 8 0f 2e 29 94 98 63 39 00 
0.466200 1 2f2 Rx d 2 12 01 
0.466400 1 372 Rx d 8 0e 00 00 0c 06 7d 00 00 
0.466600 1 379 Rx d 8 06 00 f8 eb 90 4c 00 25 
0.466900 1 395 Rx d 8 01 0f 11 4a 0b 00 08 7d 
0.467100 1 243 Rx d 8 02 ac 91 12 00 4b 00 00 
0.467400 1 397 Rx d 8 00 00 00 d8 1d 00 00 00 
0.467500 1 39d Rx d 5 1c 53 01 28 00 
0.467800 1 3c2 Rx d 8 00 55 55 55 00 00 5a 45 
0.468000 1 40a Rx d 8 09 00 01 00 00 00 80 98 
0.468200 1 45a Rx d 8 a0 d1 d1 d1 3f 36 00 68 
0.468500 1 54f Rx d 8 00 00 00 00 00 00 00 00 
0.468700 1 3a2 Rx d 8 52 29 00 00 22 00 00 00 
0.469000 1 22b Rx d 8 ff ff ff ff ff ff ff ff 
0.469200 1 7a8 Rx d 8 01 00 00 00 ff a1 e8 12 
0.469300 1 7f4 Rx d 1 01 
0.469500 1 1f8 Rx d 4 00 00 00 00 
0.469800 1 201 Rx d 8 82 02 00 00 00 00 98 3b 
0.470000 1 318 Rx d 8 1a 08 01 05 1b 3b 2b c4 
0.470200 1 458 Rx d 7 00 00 00 00 40 00 00 
0.470500 1 7ff Rx d 8 06 84 32 00 00 00 08 c0 
0.470700 1 2e1 Rx d 8 02 6c 7f 02 3e 61 00 00 
0.470900 1 118 Rx d 8 f3 60 32 00 00 48 00 00 
0.471200 1 4e3 Rx d 8 20 06 03 00 00 00 a8 1f 
0.471300 1 139 Rx d 1 00 
0.471500 1 1d8 Rx d 8 29 00 00 00 00 00 40 42 
0.471800 1 3f5 Rx d 8 00 00 c8 08 82 04 00 00 
0.472000 1 266 Rx d 8 00 00 01 22 00 00 9f 01 
0.472300 1 7d5 Rx d 8 2b 00 00 00 00 00 00 00 
0.472500 1 1e5 Rx d 8 02 ac 04 00 00 00 40 d8 
0.472800 1 7d5 Rx d 8 2c 00 3f 00 00 00 00 00 
0.473000 1 7d5 Rx d 8 32 00 00 00 00 00 00 00 
0.473300 1 7d7 Rx d 8 32 01 00 00 00 00 00 00 
0.473500 1 228 Rx d 8 03 11 00 40 80 00 d1 cf 
0.473900 1 132 Rx d 6 d2 87 f5 ff 22 40 
0.474500 1 129 Rx d 8 bd 23 dc 5f 00 20 ff 3f 
0.474800 1 2c1 Rx d 8 2b 17 13 00 00 00 00 00 
0.476500 1 289 Rx d 8 a6 02 01 c0 94 00 3d 0f 
0.476700 1 3a1 Rx d 8 e9 8d 40 f9 3d 00 30 dc 
0.477000 1 343 Rx d 8 00 92 5c 5e 97 00 00 00 
0.477200 1 263 Rx d 8 02 00 00 00 00 00 00 00 
0.478400 1 37a Rx d 8 02 00 7d 0f 2e 00 00 00 
0.478600 1 261 Rx d 8 bb 4b 0a 00 00 40 75 bb 
0.479400 1 7b8 Rx d 8 7c 17 5d 00 00 00 00 0a 
0.479900 1 3ae Rx d 8 e8 3f 00 08 00 00 c1 f1 
0.480100 1 118 Rx d 8 f4 61 32 00 00 48 00 00 
0.480300 1 266 Rx d 8 00 00 01 22 00 00 9f 01 
0.480600 1 257 Rx d 8 73 49 1f 00 02 a0 0f 01 
0.481000 1 1d8 Rx d 8 29 00 00 00 00 00 60 62 
0.481300 1 1e5 Rx d 8 02 ac 04 00 00 00 60 f8 
0.481500 1 717 Rx d 7 01 fd ff 54 00 6f ff 
0.482500 1 2d1 Rx d 2 7f 01 
0.482800 1 545 Rx d 8 20 02 2c 30 97 6b b9 83 
0.483000 1 3c3 Rx d 8 55 55 55 01 00 80 43 00 
0.483400 1 25a Rx d 6 6d 6d 6d 6d 00 00 
0.483600 1 4e2 Rx d 8 20 50 02 00 00 00 28 18 
0.483900 1 132 Rx d 6 ef 87 f5 ff 25 40 
0.484500 1 129 Rx d 8 3b 24 dc 5f 00 20 ff 3f 
0.485300 1 2e8 Rx d 8 02 11 00 00 06 80 70 f3 
0.485600 1 359 Rx d 8 4b 00 00 00 00 00 00 00 
0.485800 1 295 Rx d 8 1d 2c 00 00 00 00 00 00 
0.486100 1 238 Rx d 8 b0 2b 9c d0 1f 00 36 d6 
0.486300 1 61d Rx d 8 06 14 8a 34 ac 36 16 08 
0.486700 1 2e1 Rx d 8 fb 19 77 a9 94 69 09 00 
0.487000 1 243 Rx d 8 03 00 00 00 45 63 1f 00 
0.488500 1 142 Rx d 8 01 00 40 0a c0 1b 00 00 
0.489000 1 553 Rx d 8 00 00 00 00 00 00 10 68 
0.490500 1 552 Rx d 8 00 00 00 00 00 00 10 67 
0.490700 1 118 Rx d 8 f5 62 32 00 00 48 00 00 
0.491000 1 266 Rx d 8 00 00 01 22 00 00 9f 01 
0.491200 1 1d8 Rx d 8 29 00 00 00 00 00 80 82 
0.491500 1 1e5 Rx d 8 02 ac 04 00 00 00 00 98 
0.491700 1 234 Rx d 8 24 30 02 29 a5 04 40 03 
0.491900 1 448 Rx d 7 00 00 10 10 00 00 00 
0.492700 1 441 Rx d 8 24 00 b6 c3 58 00 0d 6b 
0.493600 1 421 Rx d 7 00 14 00 00 00 d0 48 
0.493900 1 132 Rx d 6 df 87 f4 ff 20 40 
0.494500 1 129 Rx d 8 2c 25 dc 5f 00 20 ff 3f 
0.494800 1 201 Rx d 8 83 02 00 00 00 00 b8 3b 
0.495000 1 261 Rx d 8 cc 02 50 4a 00 40 84 22 
0.495300 1 2c1 Rx d 8 04 00 10 0e 0a 11 08 14 
0.495500 1 301 Rx d 8 0d 33 ec 80 fd 00 00 00 
0.495700 1 381 Rx d 8 05 56 85 ff 00 6b c8 28 
0.496000 1 383 Rx d 8 b7 18 43 00 15 91 e3 56 
0.496200 1 677 Rx d 8 04 00 00 00 00 00 00 00 
0.496400 1 718 Rx d 7 01 00 00 00 00 00 00 
0.497000 1 263 Rx d 8 03 00 00 00 00 00 00 28 
0.497500 1 422 Rx d 6 70 00 10 00 00 00 
0.499200 1 39d Rx d 5 1d 54 01 28 00 
0.499400 1 39a Rx d 8 fc fd fd fd fd fd fd 01 
0.499700 1 23e Rx d 8 f4 01 3a bf fa fc 1f 43 
0.500000 1 118 Rx d 8 f6 63 32 00 00 48 00 00 
0.500300 1 266 Rx d 8 00 00 01 22 00 00 9f 01 
0.500500 1 257 Rx d 8 74 4a 1f 00 02 a0 0f 01 
0.500900 1 423 Rx d 7 00 00 00 00 08 00 00 
0.501200 1 1d8 Rx d 8 29 00 00 00 00 00 a0 a2 
0.501400 1 1e5 Rx d 8 02 ac 04 00 00 00 20 b8 
0.501700 1 3a2 Rx d 8 60 85 72 be 1c 80 c1 71 
0.501800 1 409 Rx d 1 00 
0.502700 1 2e1 Rx d 8 04 00 00 80 48 44 26 00 
0.503700 1 78a Rx d 8 01 00 06 00 02 00 00 00 
0.503900 1 400 Rx d 7 00 e0 fb be ef fb 00 
0.504100 1 132 Rx d 6 dc 87 f4 ff 1f 40 
0.504300 1 38d Rx d 8 56 82 aa aa aa 24 49 02 
0.504600 1 129 Rx d 8 f6 26 dc 5f 00 20 ff 3f 
0.504700 1 20e Rx d 3 12 02 00 
0.505000 1 2c2 Rx d 8 55 63 a9 b6 02 00 1c a5 
0.505200 1 682 Rx d 8 00 00 00 40 05 02 20 47 
0.505300 1 419 Rx d 1 00 
0.505600 1 2a1 Rx d 6 00 00 98 3a 00 00 
0.506100 1 75d Rx d 8 06 00 00 00 00 00 00 00 
0.506300 1 21d Rx d 8 04 00 35 00 00 00 00 00 
0.506500 1 219 Rx d 7 00 80 4a 4a 97 98 04 
0.506600 1 41d Rx d 1 00 
0.506900 1 25d Rx d 8 36 41 01 2a 04 f0 d8 03 
0.507100 1 243 Rx d 8 04 ac f1 ff fd 7f 68 69 
0.507300 1 2c3 Rx d 8 00 00 c0 4b 01 00 80 cb 
0.507600 1 407 Rx d 8 11 06 00 00 00 00 00 00 
0.507800 1 719 Rx d 8 0e 00 00 00 00 00 00 14 
0.510600 1 261 Rx d 8 05 22 01 c8 9a 42 90 52 
0.510900 1 118 Rx d 8 f7 64 32 00 00 48 00 00 
0.511100 1 1d8 Rx d 8 29 00 00 00 00 00 c0 c2 
0.511300 1 221 Rx d 8 61 05 55 55 01 02 20 56 
0.511600 1 266 Rx d 8 00 00 01 22 00 00 9f 01 
0.511800 1 1e5 Rx d 8 02 ac 04 00 00 00 40 d8 
0.512500 1 789 Rx d 4 55 19 10 80 
0.513300 1 2f9 Rx d 8 b0 fb 07 01 9f a0 6f b2 
0.513600 1 2e2 Rx d 8 e2 11 29 5c 49 59 29 0c 
0.513800 1 2c4 Rx d 8 0b 40 00 00 3b 47 01 00 
0.514000 1 132 Rx d 6 d3 87 f4 ff 22 40 
0.514300 1 204 Rx d 8 01 00 00 ff 00 00 00 10 
0.514500 1 264 Rx d 6 38 00 00 00 a0 00 
0.514700 1 129 Rx d 8 e1 27 dc 5f 00 20 ff 3f 
0.514900 1 224 Rx d 8 04 08 00 48 19 01 10 08 
0.515100 1 249 Rx d 4 28 0b 00 00 
0.515300 1 2b4 Rx d 6 28 05 9c 0d 05 01 
0.515500 1 2c1 Rx d 8 58 28 7e 00 00 8a 02 47 
0.515800 1 2e3 Rx d 7 03 00 00 7e 02 0b 00 
0.516000 1 3c2 Rx d 8 29 55 00 00 00 00 00 80 
0.516300 1 545 Rx d 8 01 00 00 00 00 10 c0 1b 
0.517000 1 263 Rx d 8 04 00 00 00 20 04 00 00 
0.517300 1 2b3 Rx d 8 af 06 80 7e ee 0e 00 00 
0.517500 1 45a Rx d 8 fd 07 f8 ff 03 00 00 28 
0.518600 1 3c8 Rx d 8 04 00 00 00 00 00 00 00 
0.518800 1 22b Rx d 8 ff ff ff ff ff ff ff ff 
0.519100 1 2e1 Rx d 8 65 80 08 00 25 d2 8f 6a 
0.519300 1 3ae Rx d 8 e8 3f 00 08 00 00 d1 01 
0.519600 1 201 Rx d 8 f8 d1 01 80 22 87 f1 07 
0.520000 1 118 Rx d 8 f8 65 32 00 00 48 00 00 
0.520200 1 266 Rx d 8 00 00 01 22 00 00 9f 01 
0.520500 1 257 Rx d 8 75 4b 1f 00 02 a0 0f 01 
0.520600 1 1fa Rx d 3 22 c0 01 
0.520900 1 3f9 Rx d 8 07 00 00 00 00 00 00 00 
0.521100 1 1d8 Rx d 8 29 00 00 00 00 00 e0 e2 
0.521400 1 420 Rx d 8 28 01 40 4b 00 00 80 04 
0.521600 1 1e5 Rx d 8 02 ac 04 00 00 00 60 f8 
0.522900 1 225 Rx d 4 45 55 fa 00 
0.523900 1 132 Rx d 6 df 87 f5 ff 20 40 
0.524200 1 25b Rx d 8 d3 c0 02 05 6a 86 90 75 
0.524500 1 129 Rx d 8 5f 28 dc 5f ff 1f ff 3f 
0.524700 1 2aa Rx d 3 7f 10 3b 
0.526600 1 261 Rx d 8 00 10 0d 00 d2 4c a0 d1 
0.526900 1 3a1 Rx d 8 e8 4e 0e ca 00 10 42 20 
0.527100 1 243 Rx d 8 00 fc 4f 8c c3 02 41 29 
0.527500 1 242 Rx d 4 55 15 86 05 
0.527700 1 339 Rx d 8 04 e1 02 00 00 00 40 0f 
0.528900 1 283 Rx d 6 00 00 00 00 00 00 
0.530500 1 788 Rx d 8 02 40 ce b7 4c 03 00 00 
0.530800 1 118 Rx d 8 f9 66 32 00 00 48 00 00 
0.531000 1 266 Rx d 8 00 00 01 22 00 00 9f 01 
0.531200 1 1d8 Rx d 8 29 00 00 00 00 00 00 02 
0.531500 1 1e5 Rx d 8 02 ac 04 00 00 00 00 98 
0.531700 1 381 Rx d 8 46 00 00 00 08 01 00 03 
0.533900 1 132 Rx d 6 e7 87 f5 ff 23 40 
0.534400 1 1f9 Rx d 8 00 00 00 00 00 00 00 00 
0.534600 1 129 Rx d 8 63 29 dc 5f 00 20 ff 3f 
0.534900 1 2c1 Rx d 8 21 1b 0d 0a 02 00 00 00 
0.535000 1 1bb Rx d 1 02 
0.535200 1 284 Rx d 8 30 00 00 00 40 08 e0 de 
0.535500 1 2e1 Rx d 8 10 21 04 00 12 00 20 08 
0.535700 1 360 Rx d 8 0a 00 00 00 00 00 00 00 
0.535900 1 3a2 Rx d 8 01 10 20 00 0b f0 ff 00 
0.536200 1 295 Rx d 8 3c 00 a1 ff 00 00 00 01 
0.536400 1 3c0 Rx d 8 07 00 00 00 00 00 00 00 
0.536700 1 288 Rx d 8 03 11 00 40 80 00 e1 3f 
0.536900 1 677 Rx d 8 00 00 00 00 00 00 00 00 
0.537200 1 263 Rx d 8 00 d0 e7 89 d4 07 55 1f 
0.537600 1 7aa Rx d 8 07 f4 ff f4 ff ec ff 48 
0.538600 1 142 Rx d 8 28 00 02 59 18 00 01 00 
0.538800 1 340 Rx d 8 08 00 00 00 00 00 00 00 
0.539100 1 7c8 Rx d 8 11 00 00 00 00 00 00 00 
0.539300 1 211 Rx d 6 9d 1b 71 0d 00 f1 
0.539600 1 302 Rx d 8 0d b2 c0 40 81 00 00 00 
0.539800 1 6a2 Rx d 5 00 00 00 00 00 
0.539900 1 39d Rx d 5 1e 55 01 28 00 
0.540200 1 118 Rx d 8 fa 67 32 00 00 48 00 00 
0.540400 1 23e Rx d 8 f4 01 3a bf fa fc 2f 53 
0.540700 1 266 Rx d 8 00 00 01 22 00 00 9f 01 
0.540900 1 257 Rx d 8 76 4c 1f 00 02 a0 0f 01 
0.541100 1 103 Rx d 8 22 b3 88 04 92 2c 21 02 
0.541400 1 1d8 Rx d 8 29 00 00 00 00 00 20 22 
0.541600 1 102 Rx d 8 22 b3 88 04 8a 0c 21 08 
0.541800 1 119 Rx d 4 00 00 00 00 
0.542000 1 1e5 Rx d 8 02 ac 04 00 00 00 20 b8 
0.542200 1 234 Rx d 8 29 e1 03 80 43 00 54 bf 
0.542500 1 3ae Rx d 8 e8 3f 00 08 00 00 e0 10 
0.542700 1 261 Rx d 8 31 00 e4 ff 77 49 b8 82 
0.543000 1 441 Rx d 8 28 85 89 00 32 00 10 e1 
0.543200 1 798 Rx d 8 05 00 00 00 00 00 10 c1 
0.543900 1 132 Rx d 6 e1 87 f5 ff 22 40 
0.544500 1 129 Rx d 8 bc 2a dc 5f 00 20 ff 3f 
0.544800 1 201 Rx d 8 01 04 18 01 00 00 80 c4 
0.546500 1 2c7 Rx d 8 00 00 00 00 00 00 4b ff 
0.546700 1 2a6 Rx d 8 00 00 6a 18 00 00 00 00 
0.547000 1 123 Rx d 8 00 00 12 92 d2 00 00 80 
0.547200 1 243 Rx d 8 01 fc 68 00 69 00 7c 7c 
0.547500 1 2a7 Rx d 8 00 00 00 00 00 70 05 84 
0.547800 1 22a Rx d 4 00 00 c9 15 
0.548400 1 439 Rx d 8 02 00 40 00 00 14 00 00 
0.548600 1 122 Rx d 8 01 00 00 00 00 3f 00 00 
0.548900 1 2a8 Rx d 8 02 11 00 00 06 80 a0 e3 
0.549100 1 545 Rx d 8 02 00 02 00 00 00 d0 1e 
0.549300 1 797 Rx d 4 15 0d 10 cd 
0.549600 1 241 Rx d 7 29 28 54 0a 0a 45 00 
0.550700 1 2e1 Rx d 8 39 8d 55 af 1f 28 00 00 
0.550900 1 118 Rx d 8 fb 68 32 00 00 48 00 00 
0.551200 1 1d8 Rx d 8 29 00 00 00 00 00 40 42 
0.551400 1 266 Rx d 8 00 00 01 22 00 00 9f 01 
0.551600 1 1e5 Rx d 8 02 ac 04 00 00 00 40 d8 
0.552900 1 3a3 Rx d 8 00 d0 00 00 38 03 fc 01 
0.553900 1 132 Rx d 6 e8 87 f5 ff 20 40 
0.554500 1 129 Rx d 8 4d 2b dc 5f 00 20 ff 3f 
0.554800 1 2c1 Rx d 8 02 0d 06 05 00 d0 92 c1 
0.555000 1 428 Rx d 7 00 00 10 10 00 00 00 
0.555400 1 3e8 Rx d 8 04 00 00 00 00 00 00 00 
0.555600 1 272 Rx d 8 06 00 f1 88 07 48 06 08 
0.557000 1 263 Rx d 8 01 d0 bf b1 8c c7 54 1f 
0.557400 1 43b Rx d 8 01 7f 04 ff 00 00 00 00 
0.557700 1 3db Rx d 8 03 06 00 00 00 80 00 00 
0.557900 1 719 Rx d 8 0c e0 0f 00 50 00 00 00 
0.558600 1 261 Rx d 8 2a 29 4c 02 80 5c c2 35 
0.559000 1 393 Rx d 8 06 00 f1 88 07 48 06 08 
0.560000 1 118 Rx d 8 fc 69 32 00 00 48 00 00 
0.560300 1 266 Rx d 8 00 00 01 22 00 00 9f 01 
0.560600 1 257 Rx d 8 77 4d 1f 00 02 a0 0f 01 
0.560800 1 221 Rx d 8 60 55 55 05 54 51 31 08 
0.561000 1 108 Rx d 8 24 0c 00 02 00 00 00 0d 
0.561300 1 1d8 Rx d 8 29 00 00 00 00 00 60 62 
0.561500 1 126 Rx d 5 01 b0 1d 60 55 
0.561700 1 1e5 Rx d 8 02 ac 04 00 00 00 60 f8 
0.561900 1 128 Rx d 5 80 02 e4 0a 02 
0.562100 1 1d6 Rx d 8 00 08 04 00 0a 4c 1d 05 
0.562400 1 212 Rx d 8 59 04 00 00 81 ff 77 31 
0.562600 1 252 Rx d 8 49 23 88 4a 00 fc 0f 00 
0.562800 1 268 Rx d 5 01 01 f8 00 c0 
0.563000 1 279 Rx d 8 51 0c 0d 01 74 05 62 02 
0.563300 1 282 Rx d 8 00 00 00 00 e8 23 0b 24 
0.563500 1 292 Rx d 8 c9 4d 47 de 72 01 00 00 
0.563600 1 2b6 Rx d 3 00 03 00 
0.563900 1 2d2 Rx d 8 6e 29 a8 4e c4 09 d5 14 
0.564000 1 2ec Rx d 3 7f 10 7d 
0.564200 1 132 Rx d 6 e5 87 f5 ff 22 40 
0.564500 1 2f1 Rx d 8 10 8f 03 00 00 00 00 00 
0.564700 1 129 Rx d 8 2d 2c dc 5f 00 20 ff 3f 
0.564800 1 2f2 Rx d 2 12 01 
0.565100 1 20c Rx d 8 00 a0 56 1e 00 c0 08 00 
0.565200 1 229 Rx d 3 dd 06 00 
0.565400 1 113 Rx d 3 01 97 01 
0.565500 1 249 Rx d 4 3a 0c 00 00 
0.565800 1 318 Rx d 8 1a 08 01 05 1b 3b 2d c6 
0.566000 1 379 Rx d 8 07 80 e4 07 00 00 19 06 
0.566200 1 395 Rx d 8 01 0f 11 4a 0b 00 08 7d 
0.566500 1 397 Rx d 8 00 00 00 d8 1d 00 00 00 
0.566700 1 2e1 Rx d 8 02 6c 7f 02 3e 61 00 00 
0.567000 1 381 Rx d 8 07 00 00 54 7d 27 00 00 
0.567200 1 243 Rx d 8 02 ac 91 12 00 4b 00 00 
0.567400 1 3b2 Rx d 8 1a 1b f2 b0 51 06 85 10 
0.567700 1 3a2 Rx d 8 42 29 00 00 22 00 00 00 
0.567900 1 3c2 Rx d 8 00 55 55 55 00 00 5a 45 
0.568100 1 3e2 Rx d 7 00 00 80 2a 00 c0 04 
0.568400 1 458 Rx d 7 00 00 00 00 40 00 00 
0.568600 1 45a Rx d 8 a0 d1 d1 d1 3f 36 00 68 
0.568800 1 22b Rx d 8 ff ff ff ff ff ff ff ff 
0.569100 1 54f Rx d 8 00 00 00 00 00 00 00 00 
0.569300 1 7a8 Rx d 8 02 40 d0 37 4d 07 00 00 
0.569500 1 1f8 Rx d 4 00 00 00 00 
0.569700 1 201 Rx d 8 82 02 00 00 00 00 98 3b 
0.569900 1 7f4 Rx d 1 01 
0.570100 1 7ff Rx d 8 07 20 80 44 40 00 02 20 
0.570700 1 118 Rx d 8 fd 6a 32 00 00 48 00 00 
0.571000 1 7d5 Rx d 8 2b 00 00 00 00 00 00 00 
0.571200 1 266 Rx d 8 00 00 01 22 00 00 9f 01 
0.571300 1 139 Rx d 1 00 
0.571600 1 1d8 Rx d 8 29 00 00 00 00 00 80 82 
0.571800 1 3f5 Rx d 8 00 00 c8 08 82 04 00 00 
0.572100 1 1e5 Rx d 8 02 ac 04 00 00 00 00 98 
0.572300 1 4e3 Rx d 8 01 e3 06 ff 0f 00 28 29 
0.572500 1 7d5 Rx d 8 2c 00 3f 00 00 00 00 00 
0.572800 1 7d5 Rx d 8 32 00 00 00 00 00 00 00 
0.573000 1 7d7 Rx d 8 32 01 00 00 00 00 00 00 
0.573300 1 228 Rx d 8 03 11 00 40 80 00 e1 df 
0.573900 1 132 Rx d 6 d8 87 f5 ff 24 40 
0.574500 1 129 Rx d 8 56 2d dc 5f ff 1f ff 3f 
0.574800 1 261 Rx d 8 bb 4b 0a 00 00 40 d5 1b 
0.575000 1 2c1 Rx d 8 2b 17 13 00 00 00 00 00 
0.575300 1 677 Rx d 8 01 00 00 00 00 00 00 00 
0.576500 1 289 Rx d 8 a6 02 01 00 88 00 3d 0f 
0.576700 1 3a1 Rx d 8 e9 8d 40 ef 3d 00 50 f2 
0.577000 1 343 Rx d 8 00 92 5c 5e 97 00 00 00 
0.577200 1 263 Rx d 8 02 00 00 00 00 00 00 00 
0.577500 1 2b3 Rx d 8 10 00 00 7c 7c 00 00 00 
0.578000 1 39d Rx d 5 1f 56 01 28 00 
0.578400 1 37a Rx d 8 03 00 00 00 00 00 00 00 
0.579400 1 7b8 Rx d 8 05 40 4e a6 c1 02 10 26 
0.579700 1 3ae Rx d 8 e8 3f 00 08 00 00 f0 20 
0.580000 1 23e Rx d 8 f4 01 3a bf fa fc 3f 63 
0.580200 1 118 Rx d 8 fe 6b 32 00 00 48 00 00 
0.580500 1 266 Rx d 8 00 00 01 22 00 00 9f 01 
0.580700 1 257 Rx d 8 78 4e 1f 00 02 a0 0f 01 
0.581100 1 1d8 Rx d 8 29 00 00 00 00 00 a0 a2 
0.581300 1 1e5 Rx d 8 02 ac 04 00 00 00 20 b8 
0.581700 1 545 Rx d 8 20 02 31 30 97 67 e9 b4 
0.582500 1 2d1 Rx d 2 7f 01 
0.582800 1 2e1 Rx d 8 fb 19 7a a9 94 68 09 00 
0.583000 1 3c3 Rx d 8 00 00 00 00 00 45 00 00 
0.583200 1 3e3 Rx d 4 00 00 00 00 
0.583500 1 4e2 Rx d 8 01 c9 06 ff 0f 00 a8 28 
0.583900 1 132 Rx d 6 d7 87 f4 ff 20 40 
0.584500 1 129 Rx d 8 e0 2e dc 5f 00 20 ff 3f 
0.585400 1 359 Rx d 8 4c 00 00 00 00 00 00 00 
0.585600 1 2e8 Rx d 8 02 11 00 00 06 80 80 03 
0.585800 1 285 Rx d 8 41 03 65 01 0d 00 08 00 
0.586000 1 286 Rx d 5 ff ff ff ff 71 
0.587000 1 243 Rx d 8 03 00 00 00 45 63 1f 00 
0.587200 1 295 Rx d 8 50 00 bf ff 00 00 00 02 
0.588500 1 142 Rx d 8 01 00 40 0a c0 1b 00 00 
0.589000 1 553 Rx d 8 00 00 00 00 00 00 20 78 
0.590500 1 552 Rx d 8 00 00 00 00 00 00 20 77 
0.590700 1 118 Rx d 8 ff 6c 32 00 00 48 00 00 
0.591000 1 261 Rx d 8 cc 02 50 4a 00 40 e4 82 
0.591200 1 266 Rx d 8 00 00 01 22 00 00 9f 01 
0.591400 1 448 Rx d 7 00 00 10 10 00 00 00 
0.591700 1 1d8 Rx d 8 29 00 00 00 00 00 c0 c2 
0.591900 1 234 Rx d 8 24 30 02 29 a5 04 60 23 
0.592200 1 1e5 Rx d 8 02 ac 04 00 00 00 40 d8 
0.592400 1 709 Rx d 8 19 12 12 12 1a 02 00 00 
0.592700 1 441 Rx d 8 24 00 b6 c3 58 00 15 73 
0.593600 1 421 Rx d 7 00 14 00 00 00 d0 48 
0.593900 1 132 Rx d 6 e5 87 f5 ff 22 40 
0.594500 1 129 Rx d 8 11 2f dc 5f 00 20 ff 3f 
0.594800 1 201 Rx d 8 83 02 00 00 00 00 b8 3b 
0.595000 1 2bf Rx d 7 0a 00 00 00 00 10 01 
0.595300 1 2c1 Rx d 8 04 00 10 0e 0a 11 08 14 
0.595500 1 383 Rx d 8 b7 18 43 00 15 91 e3 56 
0.595700 1 3f6 Rx d 8 00 05 00 00 b6 14 00 00 
0.595900 1 443 Rx d 6 71 06 ff 03 00 00 
0.597000 1 263 Rx d 8 03 00 00 00 00 00 00 28 
0.597500 1 422 Rx d 6 70 00 10 00 00 00 
0.598700 1 2e1 Rx d 8 04 00 00 80 48 44 26 00 
0.599400 1 39a Rx d 8 fd fd fd fd fd 01 00 00 
0.599500 1 409 Rx d 1 00 
0.600000 1 118 Rx d 8 00 6d 32 00 00 48 00 00 
0.600300 1 266 Rx d 8 00 00 01 22 00 00 9f 01 
0.600500 1 257 Rx d 8 79 4f 1f 00 02 a0 0f 01 
0.600700 1 3a2 Rx d 8 60 85 72 bc 04 80 c1 71 
0.601000 1 423 Rx d 7 00 00 00 00 08 00 00 
0.601200 1 1d8 Rx d 8 29 00 00 00 00 00 e0 e2 
0.601400 1 1e5 Rx d 8 02 ac 04 00 00 00 60 f8 
0.602100 1 419 Rx d 1 00 
0.602700 1 381 Rx d 8 68 13 3d 02 07 00 00 00 
0.602900 1 3aa Rx d 8 01 00 00 00 00 00 00 00 
0.603300 1 77a Rx d 8 a1 16 d8 5d f0 5d e4 5d 
0.603500 1 78a Rx d 8 01 00 00 00 1e 13 12 0d 
0.603900 1 400 Rx d 7 00 e0 fb be ef fb 00 
0.604100 1 132 Rx d 6 e4 87 f5 ff 1f 40 
0.604200 1 20e Rx d 3 13 03 00 
0.604500 1 129 Rx d 8 9d 20 dc 5f ff 1f ff 3f 
0.604800 1 2c2 Rx d 8 20 40 80 20 01 00 80 cb 
0.605700 1 682 Rx d 8 00 00 00 40 05 02 30 57 
0.605900 1 2a1 Rx d 6 00 00 98 3a 00 00 
0.606100 1 53e Rx d 8 0d 01 00 00 70 44 a9 31 
0.606300 1 37d Rx d 8 d6 fe d7 d6 02 f8 ff 7f 
0.606600 1 219 Rx d 7 01 80 4a 49 97 99 04 
0.606800 1 261 Rx d 8 05 22 01 c8 9a 42 f0 b2 
0.607000 1 2c3 Rx d 8 55 5b a9 b6 02 00 12 a5 
0.607300 1 21d Rx d 8 04 00 35 00 00 00 00 00 
0.607500 1 243 Rx d 8 04 ac f1 ff fd 7f 68 69 
0.607700 1 3dd Rx d 8 64 ab 04 00 00 00 00 00 
0.607800 1 41d Rx d 1 00 
0.608100 1 25d Rx d 8 36 41 01 2a 04 f0 d8 03 
0.608300 1 719 Rx d 8 0d 00 00 00 00 00 00 00 
0.610600 1 221 Rx d 8 61 05 55 55 01 02 40 76 
0.610900 1 118 Rx d 8 01 6e 32 00 00 48 00 00 
0.611100 1 1d8 Rx d 8 29 00 00 00 00 00 00 02 
0.611400 1 266 Rx d 8 00 00 01 22 00 00 9f 01 
0.611600 1 1e5 Rx d 8 02 ac 04 00 00 00 00 98 
0.612500 1 789 Rx d 4 55 19 20 90 
0.613400 1 2f9 Rx d 8 b0 fb 07 08 00 00 00 00 
0.613600 1 3a8 Rx d 8 02 00 18 01 00 00 00 80 
0.613800 1 2c4 Rx d 8 0c 00 00 00 d8 48 01 00 
0.614000 1 132 Rx d 6 de 87 f5 ff 23 40 
0.614300 1 204 Rx d 8 01 00 00 ff 00 00 00 10 
0.614500 1 264 Rx d 6 38 00 00 00 a0 00 
0.614700 1 129 Rx d 8 e3 21 dc 5f 00 20 ff 3f 
0.615000 1 224 Rx d 8 04 08 00 48 19 01 10 08 
0.615100 1 249 Rx d 4 13 0d 00 00 
0.615300 1 2b4 Rx d 6 27 05 9c 0d 06 01 
0.615600 1 2c1 Rx d 8 58 28 7e 00 00 8a 02 47 
0.615800 1 2e1 Rx d 8 65 80 08 00 25 d2 8f 6a 
0.616100 1 300 Rx d 8 0b 00 04 02 05 00 02 00 
0.616300 1 303 Rx d 8 0d 63 62 c8 40 00 00 00 
0.616400 1 311 Rx d 2 ff 03 
0.616600 1 332 Rx d 6 0c 01 8e 8d 8d 00 
0.616900 1 3c2 Rx d 8 29 55 00 00 00 00 00 80 
0.617100 1 263 Rx d 8 04 00 00 00 20 04 00 00 
0.617300 1 3c4 Rx d 8 14 06 00 00 dc 15 c0 53 
0.617600 1 3d2 Rx d 8 22 dd d5 00 6a 08 df 00 
0.617800 1 3f2 Rx d 8 07 ec ba 18 b0 50 f2 00 
0.618100 1 414 Rx d 8 12 20 20 20 20 20 20 20 
0.618200 1 452 Rx d 3 2b 71 00 
0.618400 1 405 Rx d 8 12 43 32 35 36 38 32 33 
0.618700 1 3c8 Rx d 8 05 00 00 00 00 00 00 00 
0.618900 1 22b Rx d 8 ff ff ff ff ff ff ff ff 
0.619200 1 45a Rx d 8 fd 07 f8 ff 03 00 00 28 
0.619400 1 472 Rx d 8 ff 00 80 02 00 7f ff 07 
0.619600 1 492 Rx d 7 7d 03 ff 0f 28 00 00 
0.619900 1 201 Rx d 8 f0 d1 01 80 22 87 f1 07 
0.620100 1 118 Rx d 8 02 6f 32 00 00 48 00 00 
0.620300 1 23e Rx d 8 f4 01 3a bf fa fc 4f 73 
0.620500 1 1fa Rx d 3 22 c0 01 
0.620700 1 266 Rx d 8 00 00 01 22 00 00 9f 01 
0.620900 1 39d Rx d 5 20 57 01 28 00 
0.621200 1 257 Rx d 8 6a 40 1f 00 02 a0 0f 01 
0.621400 1 3f9 Rx d 8 08 00 00 00 00 00 00 00 
0.621700 1 1d8 Rx d 8 29 00 00 00 00 00 20 22 
0.621900 1 1e5 Rx d 8 02 ac 04 00 00 00 20 b8 
0.622100 1 3ae Rx d 8 e8 3f 00 08 00 00 00 30 
0.622400 1 420 Rx d 8 28 01 40 4b 00 00 00 05 
0.622600 1 545 Rx d 8 01 00 00 00 00 10 f0 4b 
0.622900 1 261 Rx d 8 00 10 0d 00 d2 4c 00 31 
0.623000 1 225 Rx d 4 45 55 fa 00 
0.623300 1 55a Rx d 8 02 00 00 00 00 00 00 00 
0.623400 1 666 Rx d 4 00 00 a0 00 
0.623700 1 677 Rx d 8 02 00 00 00 00 00 00 00 
0.623900 1 7aa Rx d 8 08 00 00 00 1c 01 1b 0e 
0.624100 1 132 Rx d 6 e0 87 f5 ff 20 40 
0.624400 1 25b Rx d 8 d3 c0 02 05 6a 86 a0 85 
0.624600 1 129 Rx d 8 07 22 dc 5f 01 20 ff 3f 
0.624700 1 2aa Rx d 3 7f 20 4b 
0.625000 1 320 Rx d 8 80 00 00 00 00 00 00 00 
0.625200 1 372 Rx d 8 00 08 40 99 92 11 7c 23 
0.625500 1 401 Rx d 8 00 2a 4a 80 4a 80 4c 80 
0.625700 1 43a Rx d 6 07 00 00 00 00 00 
0.626700 1 3a1 Rx d 8 e8 4e 0e ca 00 10 62 40 
0.627000 1 243 Rx d 8 00 fc 4f 8c c3 02 41 29 
0.627500 1 242 Rx d 4 55 15 86 05 
0.627700 1 339 Rx d 8 04 e1 02 00 00 00 40 0f 
0.628900 1 3f1 Rx d 8 08 00 00 00 00 00 00 00 
0.629100 1 283 Rx d 6 00 00 00 00 00 00 
0.630500 1 788 Rx d 8 bc c4 81 63 00 00 8a 00 
0.630800 1 118 Rx d 8 f3 60 32 00 00 48 00 00 
0.631000 1 266 Rx d 8 00 00 01 22 00 00 9f 01 
0.631300 1 1d8 Rx d 8 29 00 00 00 00 00 40 42 
0.631500 1 2e1 Rx d 8 10 21 04 00 12 00 20 08 
0.631700 1 1e5 Rx d 8 02 ac 04 00 00 00 40 d8 
0.633500 1 3a2 Rx d 8 01 10 20 00 09 f0 ff 00 
0.633900 1 132 Rx d 6 df 87 f5 ff 22 40 
0.634400 1 1f9 Rx d 8 00 00 00 00 00 00 00 00 
0.634600 1 129 Rx d 8 d4 23 dc 5f ff 1f ff 3f 
0.634900 1 2c1 Rx d 8 21 1b 0d 0a 02 00 00 00 
0.635100 1 360 Rx d 8 00 00 00 00 02 00 00 00 
0.635400 1 3c0 Rx d 8 08 00 00 00 00 00 00 00 
0.635800 1 355 Rx d 7 80 ec 00 bc 94 00 00 
0.636000 1 285 Rx d 8 02 d5 00 00 00 00 de 00 
0.636200 1 313 Rx d 8 02 64 64 05 00 00 90 75 
0.636600 1 288 Rx d 8 03 11 00 40 80 00 f1 4f 
0.637000 1 263 Rx d 8 00 d0 e7 89 d4 07 55 1f 
0.637200 1 2b3 Rx d 8 00 97 93 86 97 8b 76 86 
0.638000 1 295 Rx d 8 1d 2c 00 00 00 00 00 03 
0.638500 1 142 Rx d 8 28 00 02 59 18 00 01 00 
0.638800 1 261 Rx d 8 31 00 f1 ff 77 49 18 ef 
0.639000 1 340 Rx d 8 09 00 00 00 00 00 00 00 
0.639200 1 211 Rx d 6 9e 1c 71 0d 00 f1 
0.639500 1 381 Rx d 8 09 00 01 82 00 00 00 6c 
0.639700 1 3ae Rx d 8 e8 3f 00 08 00 00 11 41 
0.639900 1 6a2 Rx d 5 00 00 00 00 00 
0.640100 1 118 Rx d 8 f4 61 32 00 00 48 00 00 
0.640400 1 266 Rx d 8 00 00 01 22 00 00 9f 01 
0.640600 1 257 Rx d 8 6b 41 1f 00 02 a0 0f 01 
0.641000 1 103 Rx d 8 22 b3 88 04 92 2c 21 02 
0.641200 1 1d8 Rx d 8 29 00 00 00 00 00 60 62 
0.641400 1 119 Rx d 4 00 00 00 00 
0.641600 1 102 Rx d 8 22 b3 88 04 8a 0c 21 08 
0.641900 1 1e5 Rx d 8 02 ac 04 00 00 00 60 f8 
0.642100 1 234 Rx d 8 29 e1 03 80 43 00 74 df 
0.642600 1 798 Rx d 8 f6 04 00 00 00 00 20 c6 
0.642800 1 441 Rx d 8 28 85 89 00 32 00 18 e9 
0.643900 1 132 Rx d 6 e4 87 f5 ff 23 40 
0.644100 1 401 Rx d 8 01 2a 4c 80 51 80 4b 80 
0.644500 1 129 Rx d 8 3b 24 dc 5f 00 20 ff 3f 
0.644800 1 201 Rx d 8 01 04 18 01 00 00 80 c4 
0.646500 1 2c7 Rx d 8 00 00 00 00 00 00 4b ff 
0.646700 1 2a6 Rx d 8 00 00 6a 18 00 00 00 00 
0.647000 1 123 Rx d 8 01 00 00 00 00 3f 00 00 
0.647200 1 243 Rx d 8 01 fc 68 00 69 00 7c 7c 
0.647500 1 2a7 Rx d 8 00 00 00 00 00 70 05 84 
0.647600 1 22a Rx d 4 00 00 c9 15 
0.647900 1 2e1 Rx d 8 39 8d 55 af 1f 28 00 00 
0.648100 1 545 Rx d 8 02 00 02 00 00 00 00 4e 
0.648400 1 439 Rx d 8 02 00 40 00 00 14 00 00 
0.648600 1 122 Rx d 8 00 00 12 92 12 00 00 00 
0.648900 1 2a8 Rx d 8 02 11 00 00 06 80 b0 f3 
0.649100 1 31a Rx d 8 60 fc ff 02 00 00 90 0a 
0.649300 1 797 Rx d 4 15 0d 20 dd 
0.649700 1 241 Rx d 7 28 28 14 0a 0a 45 00 
0.650700 1 118 Rx d 8 f5 62 32 00 00 48 00 00 
0.651000 1 266 Rx d 8 00 00 01 22 00 00 9f 01 
0.651200 1 1d8 Rx d 8 29 00 00 00 00 00 80 82 
0.651500 1 1e5 Rx d 8 02 ac 04 00 00 00 00 98 
0.652900 1 3a3 Rx d 8 00 e0 00 00 38 03 fc 01 
0.653900 1 132 Rx d 6 e7 87 f5 ff 23 40 
0.654500 1 129 Rx d 8 2c 25 dc 5f 00 20 ff 3f 
0.654800 1 261 Rx d 8 2a 29 4c 02 80 5c 22 95 
0.655000 1 2c1 Rx d 8 02 0d 06 05 00 d0 92 c1 
0.655200 1 428 Rx d 7 00 00 10 10 00 00 00 
0.655500 1 3e8 Rx d 8 05 00 00 00 00 00 00 00 
0.655700 1 272 Rx d 8 09 80 63 00 00 00 00 00 
0.656000 1 677 Rx d 8 03 00 00 00 00 00 00 00 
0.657000 1 263 Rx d 8 01 d0 bf b1 8c c7 54 1f 
0.657400 1 42a Rx d 8 3b d5 4c 35 56 4d 56 aa 
0.657600 1 719 Rx d 8 13 50 05 54 01 00 00 00 
0.659000 1 393 Rx d 8 09 80 63 00 00 00 00 00 
0.659700 1 39d Rx d 5 21 58 01 28 00 
0.660000 1 118 Rx d 8 f6 63 32 00 00 48 00 00 
0.660300 1 266 Rx d 8 00 00 01 22 00 00 9f 01 
0.660600 1 23e Rx d 8 f4 01 3a bf fa fc 5f 83 
0.660800 1 221 Rx d 8 60 55 55 05 54 51 51 28 
0.661000 1 257 Rx d 8 6c 42 1f 00 02 a0 0f 01 
0.661300 1 108 Rx d 8 25 0d 00 02 00 00 00 0d 
0.661500 1 1d8 Rx d 8 29 00 00 00 00 00 a0 a2 
0.661700 1 126 Rx d 5 01 b0 1d 68 5d 
0.661900 1 1e5 Rx d 8 02 ac 04 00 00 00 20 b8 
0.662100 1 128 Rx d 5 80 02 e4 0a 02 
0.662400 1 1d6 Rx d 8 00 08 04 00 0a 8c 17 05 
0.662600 1 212 Rx d 8 59 04 00 00 81 ff 77 31 
0.662800 1 252 Rx d 8 49 23 88 4a 00 fc 0f 00 
0.663000 1 268 Rx d 5 01 01 f8 00 c0 
0.663200 1 279 Rx d 8 52 0d 0d 01 74 05 62 02 
0.663500 1 282 Rx d 8 00 00 00 00 e8 23 0b 24 
0.663700 1 292 Rx d 8 c9 4d 47 de 72 01 00 00 
0.663900 1 2b6 Rx d 3 00 03 00 
0.664100 1 2d2 Rx d 8 6e 29 a8 4e c4 09 d5 14 
0.664300 1 132 Rx d 6 dd 87 f5 ff 22 40 
0.664500 1 2e1 Rx d 8 02 6c 7f 02 3e 61 00 00 
0.664800 1 129 Rx d 8 f6 26 dc 5f 00 20 ff 3f 
0.665000 1 20c Rx d 8 00 a0 56 1e 00 c0 08 00 
0.665200 1 229 Rx d 3 f9 07 00 
0.665300 1 113 Rx d 3 01 97 01 
0.665500 1 249 Rx d 4 af 0e 00 00 
0.665600 1 2ec Rx d 3 7f 20 8d 
0.665900 1 2f1 Rx d 8 11 4c 00 44 00 98 0d 00 
0.666000 1 2f2 Rx d 2 12 01 
0.666100 1 35f Rx d 1 00 
0.666300 1 379 Rx d 8 08 00 00 00 00 00 0d 03 
0.666600 1 395 Rx d 8 01 0f 12 4a 0b 00 09 7d 
0.666800 1 397 Rx d 8 00 00 00 d8 1d 00 00 00 
0.667100 1 243 Rx d 8 02 ac 91 12 00 4b 00 00 
0.667300 1 3a2 Rx d 8 42 29 00 00 22 00 00 00 
0.667500 1 3c2 Rx d 8 00 55 55 55 00 00 5a 45 
0.667800 1 401 Rx d 8 02 2a 4d 80 4b 80 51 80 
0.668000 1 40a Rx d 8 09 00 01 00 00 00 90 a8 
0.668300 1 42e Rx d 8 00 e0 bf ff fe ef bf ff 
0.668500 1 42f Rx d 7 56 40 c9 02 fa 00 ff 
0.668700 1 45a Rx d 8 a0 d1 d1 d1 3f 36 00 68 
0.669000 1 22b Rx d 8 ff ff ff ff ff ff ff ff 
0.669200 1 54f Rx d 8 00 00 00 00 00 00 00 00 
0.669400 1 7a8 Rx d 8 b8 bc 71 63 00 00 82 00 
0.669600 1 1f8 Rx d 4 00 00 00 00 
0.669900 1 201 Rx d 8 82 02 00 00 00 00 98 3b 
0.670000 1 7f4 Rx d 1 01 
0.670200 1 7ff Rx d 8 08 00 00 01 00 00 00 00 
0.670500 1 318 Rx d 8 1a 08 01 05 1b 3b 2f c8 
0.670700 1 261 Rx d 8 bb 4b 0a 00 00 40 35 7b 
0.670900 1 118 Rx d 8 f7 64 32 00 00 48 00 00 
0.671200 1 458 Rx d 7 00 00 00 00 40 00 00 
0.671400 1 1d8 Rx d 8 29 00 00 00 00 00 c0 c2 
0.671500 1 139 Rx d 1 00 
0.671800 1 266 Rx d 8 00 00 01 22 00 00 9f 01 
0.672000 1 3f5 Rx d 8 00 00 c8 08 82 04 00 00 
0.672300 1 1e5 Rx d 8 02 ac 04 00 00 00 40 d8 
0.672500 1 4e3 Rx d 8 02 7e 00 00 00 00 a8 03 
0.672700 1 7d5 Rx d 8 2b 00 00 00 00 00 00 00 
0.673000 1 7d5 Rx d 8 2c 00 3f 00 00 00 00 00 
0.673300 1 7d5 Rx d 8 32 00 00 00 00 00 00 00 
0.673500 1 228 Rx d 8 03 11 00 40 80 00 f1 ef 
0.673700 1 7d7 Rx d 8 32 01 00 00 00 00 00 00 
0.673900 1 132 Rx d 6 e1 87 f5 ff 22 40 
0.674500 1 129 Rx d 8 e1 27 dc 5f 00 20 ff 3f 
0.674800 1 2c1 Rx d 8 2b 17 13 00 00 00 00 00 
0.675000 1 381 Rx d 8 0a 00 02 02 00 20 91 00 
0.676500 1 289 Rx d 8 a6 02 01 c0 a5 00 3d 0f 
0.676700 1 3a1 Rx d 8 e9 8d 40 ff 3d 00 70 22 
0.677000 1 343 Rx d 8 00 92 60 8e 97 00 00 00 
0.677200 1 263 Rx d 8 02 00 00 00 00 00 00 00 
0.678400 1 37a Rx d 8 00 00 7c 5b 49 00 00 01 
0.678600 1 2e1 Rx d 8 fb 19 76 a9 94 69 09 00 
0.679400 1 7b8 Rx d 8 06 00 00 00 00 00 20 40 
0.679800 1 3ae Rx d 8 e8 3f 00 08 00 00 21 51 
0.680100 1 118 Rx d 8 f8 65 32 00 00 48 00 00 
0.680300 1 266 Rx d 8 00 00 01 22 00 00 9f 01 
0.680600 1 257 Rx d 8 6d 43 1f 00 02 a0 0f 01 
0.680800 1 545 Rx d 8 20 02 27 20 97 6a 19 cd 
0.681000 1 1d8 Rx d 8 29 00 00 00 00 00 e0 e2 
0.681300 1 1e5 Rx d 8 02 ac 04 00 00 00 60 f8 
0.681500 1 726 Rx d 3 08 00 00 
0.682600 1 2d1 Rx d 2 7f 01 
0.683000 1 3c3 Rx d 8 55 55 55 01 00 80 43 00 
0.683500 1 4e2 Rx d 8 02 a6 03 00 00 00 28 1a 
0.683900 1 132 Rx d 6 d4 87 f5 ff 22 40 
0.684100 1 372 Rx d 8 01 df 55 03 50 00 40 01 
0.684300 1 401 Rx d 8 03 2a 4f 80 50 80 4c 80 
0.684600 1 129 Rx d 8 36 28 dc 5f 00 20 ff 3f 
0.684800 1 3e9 Rx d 8 f0 08 00 00 00 00 00 e4 
0.685400 1 2e8 Rx d 8 02 11 00 00 06 80 90 13 
0.685600 1 359 Rx d 8 80 3f 00 00 00 00 00 00 
0.685800 1 293 Rx d 8 01 0c 15 90 55 14 3f ef 
0.686100 1 3df Rx d 8 00 00 80 00 01 d0 00 1b 
0.686700 1 261 Rx d 8 cc 02 50 4a 00 40 44 e2 
0.686900 1 285 Rx d 8 03 47 86 48 95 00 00 00 
0.687100 1 243 Rx d 8 03 00 00 00 45 63 1f 00 
0.687400 1 7aa Rx d 8 09 f9 06 f9 06 01 00 00 
0.688500 1 142 Rx d 8 01 00 40 0a c0 1b 00 00 
0.689000 1 553 Rx d 8 00 00 00 00 00 00 30 88 
0.689200 1 295 Rx d 8 3c 00 a1 ff 00 00 00 04 
0.690500 1 552 Rx d 8 00 00 00 00 00 00 30 87 
0.690700 1 118 Rx d 8 f9 66 32 00 00 48 00 00 
0.691000 1 266 Rx d 8 00 00 01 22 00 00 9f 01 
0.691200 1 1d8 Rx d 8 29 00 00 00 00 00 00 02 
0.691500 1 1e5 Rx d 8 02 ac 04 00 00 00 00 98 
0.691700 1 234 Rx d 8 23 30 02 29 a5 04 80 42 
0.691900 1 448 Rx d 7 00 00 10 10 00 00 00 
0.692700 1 441 Rx d 8 24 00 b6 c3 58 00 1d 7b 
0.693700 1 421 Rx d 7 00 14 00 00 00 d0 48 
0.693900 1 132 Rx d 6 d1 87 f5 ff 23 40 
0.694500 1 129 Rx d 8 63 29 dc 5f 00 20 ff 3f 
0.694800 1 201 Rx d 8 83 02 00 00 00 00 b8 3b 
0.695000 1 2c1 Rx d 8 04 00 10 0e 0a 11 08 14 
0.695300 1 2e1 Rx d 8 04 00 00 80 48 44 26 00 
0.695500 1 383 Rx d 8 b7 18 43 00 15 91 e3 56 
0.695700 1 677 Rx d 8 04 00 00 00 00 00 00 00 
0.696000 1 718 Rx d 7 02 00 00 00 00 00 00 
0.696100 1 724 Rx d 3 03 00 64 
0.697000 1 263 Rx d 8 03 00 00 00 00 00 00 28 
0.697200 1 2b3 Rx d 8 01 b4 a3 97 8f a3 a3 a1 
0.697500 1 422 Rx d 6 70 00 10 00 00 00 
0.699400 1 39a Rx d 8 fc fd fd fd fd fd fd 01 
0.699600 1 3a2 Rx d 8 60 85 72 be 04 80 c1 71 
0.699800 1 39d Rx d 5 22 59 01 28 00 
0.700100 1 118 Rx d 8 fa 67 32 00 00 48 00 00 
0.700300 1 23e Rx d 8 f4 01 3a bf fa fc 6f 93 
0.700500 1 266 Rx d 8 00 00 01 22 00 00 9f 01 
0.700800 1 257 Rx d 8 6e 44 1f 00 02 a0 0f 01 
0.700900 1 409 Rx d 1 00 
0.701100 1 1d8 Rx d 8 29 00 00 00 00 00 20 22 
0.701400 1 1e5 Rx d 8 02 ac 04 00 00 00 20 b8 
0.701600 1 423 Rx d 7 00 00 00 00 08 00 00 
0.702100 1 419 Rx d 1 00 
0.702700 1 261 Rx d 8 05 22 01 c8 9a 42 50 12 
0.703800 1 78a Rx d 8 01 00 01 00 e4 5d 9c 5d 
0.704000 1 132 Rx d 6 db 87 f5 ff 24 40 
0.704100 1 20e Rx d 3 14 04 00 
0.704400 1 401 Rx d 8 04 2a 51 80 4e 80 45 80 
0.704600 1 129 Rx d 8 bc 2a dc 5f 00 20 ff 3f 
0.704800 1 2c2 Rx d 8 55 63 a9 b6 02 00 1c a5 
0.705100 1 400 Rx d 7 00 e0 fb be ef fb 00 
0.705300 1 682 Rx d 8 00 00 00 40 05 02 40 67 
0.705600 1 6c8 Rx d 8 01 00 00 00 00 00 00 00 
0.705800 1 2a1 Rx d 6 00 00 98 3a 00 00 
0.706100 1 75d Rx d 8 80 00 00 00 00 00 00 00 
0.706300 1 31e Rx d 8 00 00 00 00 00 00 00 00 
0.706500 1 219 Rx d 7 02 80 4a 4a 97 9a 04 
0.706700 1 41d Rx d 1 00 
0.706900 1 21d Rx d 8 04 00 35 00 00 00 00 00 
0.707100 1 243 Rx d 8 04 ac f1 ff fd 7f 68 69 
0.707400 1 25d Rx d 8 36 41 01 2a 04 f0 d9 03 
0.707600 1 2c3 Rx d 8 00 00 c0 4b 01 00 80 cb 
0.707900 1 719 Rx d 8 03 00 00 00 00 00 00 00 
0.710600 1 2e1 Rx d 8 65 80 08 00 25 d2 8f 6a 
0.710900 1 118 Rx d 8 fb 68 32 00 00 48 00 00 
0.711100 1 1d8 Rx d 8 29 00 00 00 00 00 40 42 
0.711400 1 221 Rx d 8 61 05 55 55 01 02 60 96 
0.711600 1 266 Rx d 8 00 00 01 22 00 00 9f 01 
0.711800 1 1e5 Rx d 8 02 ac 04 00 00 00 40 d8 
0.712100 1 381 Rx d 8 0b 00 00 c8 00 00 3c 06 
0.712500 1 789 Rx d 4 55 19 30 a0 
0.713400 1 2f9 Rx d 8 b0 fb 07 10 00 00 00 00 
0.713600 1 2e2 Rx d 8 03 00 00 80 02 1b 00 80 
0.713800 1 2c4 Rx d 8 4d 80 00 02 00 00 00 00 
0.714000 1 132 Rx d 6 d9 87 f5 ff 22 40 
0.714300 1 204 Rx d 8 01 00 00 ff 00 00 00 10 
0.714500 1 264 Rx d 6 38 00 00 00 a0 00 
0.714700 1 129 Rx d 8 4d 2b dc 5f 00 20 ff 3f 
0.715000 1 224 Rx d 8 04 08 00 48 19 01 10 08 
0.715100 1 249 Rx d 4 ce 0f 00 00 
0.715300 1 2b4 Rx d 6 26 05 9c 0d 06 01 
0.715600 1 2c1 Rx d 8 58 28 7e 00 00 8a 02 47 
0.715800 1 2e3 Rx d 7 94 12 62 00 1c 06 00 
0.716000 1 3c2 Rx d 8 29 55 00 00 00 00 00 80 
0.716300 1 545 Rx d 8 01 00 00 00 00 10 20 7b 
0.717000 1 263 Rx d 8 04 00 00 00 20 04 00 00 
0.717300 1 45a Rx d 8 fd 07 f8 ff 03 00 00 28 
0.718600 1 3c8 Rx d 8 06 00 00 00 00 00 00 00 
0.718900 1 22b Rx d 8 ff ff ff ff ff ff ff ff 
0.719100 1 261 Rx d 8 00 10 0d 00 d2 4c 60 91 
0.719400 1 3ae Rx d 8 e8 3f 00 08 00 00 31 61 
0.719700 1 201 Rx d 8 f8 d1 01 80 22 87 f1 07 
0.720000 1 118 Rx d 8 fc 69 32 00 00 48 00 00 
0.720200 1 266 Rx d 8 00 00 01 22 00 00 9f 01 
0.720500 1 257 Rx d 8 6f 45 1f 00 02 a0 0f 01 
0.720600 1 1fa Rx d 3 22 c0 01 
0.720900 1 3f9 Rx d 8 00 00 00 00 00 00 00 00 
0.721100 1 1d8 Rx d 8 29 00 00 00 00 00 60 62 
0.721300 1 1e5 Rx d 8 02 ac 04 00 00 00 60 f8 
0.721600 1 420 Rx d 8 28 01 40 4b 00 00 80 05 
0.722900 1 225 Rx d 4 45 55 fa 00 
0.723900 1 132 Rx d 6 e4 87 f5 ff 22 40 
0.724100 1 401 Rx d 8 05 2a 47 80 49 80 4a 80 
0.724400 1 25b Rx d 8 d3 c0 02 05 6a 86 b0 95 
0.724600 1 129 Rx d 8 44 2c dc 5f ff 1f ff 3f 
0.724700 1 2aa Rx d 3 7f 30 5b 
0.726700 1 2e1 Rx d 8 10 21 04 00 12 00 20 08 
0.726900 1 3a1 Rx d 8 e8 4e 0e ca 00 10 82 60 
0.727100 1 243 Rx d 8 00 fc 4f 8c c3 02 41 29 
0.727500 1 242 Rx d 4 55 15 86 05 
0.727700 1 339 Rx d 8 04 e1 02 00 00 00 40 0f 
0.728900 1 283 Rx d 6 00 00 00 00 00 00 
0.730500 1 788 Rx d 8 01 00 00 00 ff a1 e8 12 
0.730800 1 118 Rx d 8 fd 6a 32 00 00 48 00 00 
0.731000 1 266 Rx d 8 00 00 01 22 00 00 9f 01 
0.731300 1 1d8 Rx d 8 29 00 00 00 00 00 80 82 
0.731500 1 1e5 Rx d 8 02 ac 04 00 00 00 00 98 
0.732500 1 3a2 Rx d 8 01 10 20 00 0b f0 ff 00 
0.733900 1 132 Rx d 6 dd 87 f5 ff 22 40 
0.734400 1 1f9 Rx d 8 00 00 00 00 00 00 00 00 
0.734600 1 129 Rx d 8 92 2d dc 5f 01 20 ff 3f 
0.734900 1 261 Rx d 8 31 00 06 00 77 49 78 65 
0.735100 1 2c1 Rx d 8 21 1b 0d 0a 02 00 00 00 
0.735400 1 360 Rx d 8 01 00 00 00 00 00 00 00 
0.735600 1 253 Rx d 8 00 64 34 85 64 62 00 15 
0.735800 1 3c0 Rx d 8 09 00 00 00 00 00 00 00 
0.736000 1 4f3 Rx d 4 00 00 00 00 
0.736300 1 677 Rx d 8 00 00 00 00 00 00 00 00 
0.736500 1 82 Rx d 8 00 7f ff 80 ff 03 00 80 
0.736600 1 213 Rx d 2 48 5d 
0.736900 1 288 Rx d 8 03 11 00 40 80 00 01 5f 
0.737100 1 263 Rx d 8 00 d0 e7 89 d4 07 55 1f 
0.737700 1 285 Rx d 8 04 53 93 47 8b 00 00 00 
0.738600 1 142 Rx d 8 28 00 02 59 18 00 01 00 
0.738800 1 340 Rx d 8 0a 04 00 00 00 00 00 00 
0.739000 1 211 Rx d 6 9f 1d 71 0d 00 f1 
0.739700 1 6a2 Rx d 5 00 00 00 00 00 
0.740000 1 295 Rx d 8 50 00 bf ff 00 00 00 05 
0.740200 1 118 Rx d 8 fe 6b 32 00 00 48 00 00 
0.740500 1 23e Rx d 8 f4 01 3a bf fa fc 7f a3 
0.740700 1 266 Rx d 8 00 00 01 22 00 00 9f 01 
0.740900 1 257 Rx d 8 70 46 1f 00 02 a0 0f 01 
0.741200 1 103 Rx d 8 22 b3 88 04 92 2c 21 02 
0.741300 1 119 Rx d 4 00 00 00 00 
0.741600 1 1d8 Rx d 8 29 00 00 00 00 00 a0 a2 
0.741800 1 102 Rx d 8 22 b3 88 04 8c 0c 21 08 
0.742100 1 1e5 Rx d 8 02 ac 04 00 00 00 20 b8 
0.742300 1 234 Rx d 8 29 e1 03 80 43 00 94 ff 
0.742500 1 39d Rx d 5 23 5a 01 28 00 
0.742700 1 3ae Rx d 8 e8 3f 00 08 00 00 40 70 
0.742900 1 2e1 Rx d 8 39 8d 55 af 1f 28 00 00 
0.743200 1 441 Rx d 8 28 85 89 00 32 00 20 f1 
0.743400 1 798 Rx d 8 20 42 08 5b cc 01 30 6e 
0.743900 1 132 Rx d 6 e3 87 f6 ff 23 40 
0.744100 1 372 Rx d 8 02 88 40 40 90 01 00 5a 
0.744300 1 401 Rx d 8 06 2a 4a 80 4a 80 4d 80 
0.744600 1 129 Rx d 8 e0 2e dc 5f 00 20 ff 3f 
0.744800 1 201 Rx d 8 01 04 18 01 00 00 80 c4 
0.746500 1 2c7 Rx d 8 00 00 00 00 00 00 4b ff 
0.746700 1 2a6 Rx d 8 00 00 6a 18 00 00 00 00 
0.747000 1 123 Rx d 8 00 00 12 92 d2 00 00 80 
0.747200 1 243 Rx d 8 01 fc 68 00 69 00 7c 7c 
0.747500 1 2a7 Rx d 8 00 00 00 00 00 70 05 84 
0.747700 1 381 Rx d 8 0c 20 00 19 99 c2 00 06 
0.747900 1 22a Rx d 4 00 00 c9 15 
0.748100 1 545 Rx d 8 02 00 02 00 00 00 30 7e 
0.748400 1 439 Rx d 8 02 00 40 00 00 14 00 00 
0.748600 1 122 Rx d 8 01 00 00 00 00 3f 00 00 
0.748900 1 2a8 Rx d 8 02 11 00 00 06 80 c0 03 
0.749300 1 797 Rx d 4 15 0d 30 ed 
0.749600 1 241 Rx d 7 29 28 54 0a 0a 45 00 
0.750600 1 261 Rx d 8 2a 29 4c 02 80 5c 82 f5 
0.750900 1 118 Rx d 8 ff 6c 32 00 00 48 00 00 
0.751100 1 1d8 Rx d 8 29 00 00 00 00 00 c0 c2 
0.751400 1 266 Rx d 8 00 00 01 22 00 00 9f 01 
0.751600 1 1e5 Rx d 8 02 ac 04 00 00 00 40 d8 
0.753000 1 3a3 Rx d 8 00 e0 00 00 38 03 fc 01 
0.753900 1 132 Rx d 6 e5 87 f6 ff 22 40 
0.754600 1 129 Rx d 8 11 2f dc 5f 00 20 ff 3f 
0.754800 1 2c1 Rx d 8 02 0d 06 05 00 d0 92 c1 
0.755000 1 428 Rx d 7 00 00 10 10 00 00 00 
0.755400 1 3e8 Rx d 8 06 00 00 00 00 00 00 00 
0.755600 1 272 Rx d 8 06 00 f1 88 07 48 06 08 
0.757000 1 263 Rx d 8 01 d0 bf b1 8c c7 54 1f 
0.757200 1 2b3 Rx d 8 42 50 00 00 00 00 00 0e 
0.757500 1 719 Rx d 8 14 00 00 00 00 00 00 00 
0.758700 1 2e1 Rx d 8 02 6c 7f 02 3e 61 00 00 
0.759000 1 393 Rx d 8 06 00 f0 88 07 48 06 08 
0.760000 1 118 Rx d 8 00 6d 32 00 00 48 00 00 
0.760300 1 266 Rx d 8 00 00 01 22 00 00 9f 01 
0.760600 1 257 Rx d 8 71 47 1f 00 02 a0 0f 01 
0.760800 1 221 Rx d 8 60 55 55 05 54 51 71 48 
0.761000 1 108 Rx d 8 27 0e 00 02 00 01 00 0d 
0.761300 1 1d8 Rx d 8 29 00 00 00 00 00 e0 e2 
0.761500 1 126 Rx d 5 01 b0 1d 70 65 
0.761700 1 1e5 Rx d 8 02 ac 04 00 00 00 60 f8 
0.761900 1 128 Rx d 5 80 02 e4 0a 02 
0.762100 1 212 Rx d 8 59 04 00 00 81 ff 77 31 
0.762400 1 1d6 Rx d 8 00 08 04 00 0a 0c 1f 05 
0.762600 1 252 Rx d 8 49 23 88 4a 00 fc 0f 00 
0.762800 1 268 Rx d 5 01 01 f8 00 c0 
0.763000 1 282 Rx d 8 00 00 00 00 e8 23 0b 24 
0.763300 1 279 Rx d 8 53 0e 0d 01 74 05 62 02 
0.763500 1 292 Rx d 8 c9 4d 47 de 72 01 00 00 
0.763600 1 2b6 Rx d 3 00 03 00 
0.763900 1 2d2 Rx d 8 6e 29 a8 4e c4 09 d5 14 
0.764000 1 2ec Rx d 3 7f 30 9d 
0.764200 1 132 Rx d 6 d8 87 f4 ff 1f 40 
0.764500 1 2f1 Rx d 8 32 18 00 83 00 01 00 00 
0.764700 1 129 Rx d 8 f4 20 dc 5f 00 20 ff 3f 
0.764800 1 2f2 Rx d 2 12 01 
0.765100 1 20c Rx d 8 00 a0 56 1e 00 c0 08 00 
0.765200 1 229 Rx d 3 4c 08 00 
0.765400 1 113 Rx d 3 01 97 01 
0.765500 1 249 Rx d 4 9b 00 00 00 
0.765800 1 312 Rx d 8 70 e4 66 44 5b 21 16 14 
0.766000 1 318 Rx d 8 1a 08 01 05 1b 3b 31 ca 
0.766200 1 352 Rx d 8 00 00 fc 09 84 04 84 04 
0.766500 1 379 Rx d 8 09 00 00 00 00 00 0d 03 
0.766700 1 261 Rx d 8 bb 4b 0a 00 00 40 95 db 
0.767000 1 392 Rx d 8 00 10 00 00 00 00 00 00 
0.767200 1 243 Rx d 8 02 ac 91 12 00 4b 00 00 
0.767400 1 23a Rx d 8 45 58 00 00 00 00 00 00 
0.767700 1 395 Rx d 8 01 0f 12 4a 0b 00 09 7d 
0.767900 1 397 Rx d 8 00 00 00 d8 1d 00 00 00 
0.768200 1 3a2 Rx d 8 52 29 00 00 22 00 00 00 
0.768400 1 3c2 Rx d 8 00 55 55 55 00 00 5a 45 
0.768600 1 3e2 Rx d 7 00 00 80 2a 00 c0 04 
0.768800 1 401 Rx d 8 07 2a 48 80 4d 80 4d 80 
0.769100 1 45a Rx d 8 a0 d1 d1 d1 3f 36 00 68 
0.769300 1 54f Rx d 8 00 00 00 00 00 00 00 00 
0.769500 1 1f8 Rx d 4 00 00 00 00 
0.769700 1 201 Rx d 8 82 02 00 00 00 00 98 3b 
0.770000 1 22b Rx d 8 ff ff ff ff ff ff ff ff 
0.770200 1 712 Rx d 8 00 2a ff 0b 05 0c f6 0b 
0.770500 1 7a8 Rx d 8 01 00 00 00 ff a1 e8 12 
0.770700 1 7aa Rx d 8 0a 74 06 74 06 00 5a 00 
0.770900 1 118 Rx d 8 01 6e 32 00 00 48 00 00 
0.771200 1 4e3 Rx d 8 03 59 00 00 00 00 a8 0c 
0.771300 1 139 Rx d 1 00 
0.771500 1 1d8 Rx d 8 29 00 00 00 00 00 00 02 
0.771800 1 3f5 Rx d 8 00 00 c8 08 82 04 00 00 
0.772000 1 266 Rx d 8 00 00 01 22 00 00 9f 01 
0.772300 1 7d5 Rx d 8 2b 00 00 00 00 00 00 00 
0.772500 1 1e5 Rx d 8 02 ac 04 00 00 00 00 98 
0.772800 1 7d5 Rx d 8 2c 00 3f 00 00 00 00 00 
0.773000 1 7d5 Rx d 8 32 00 00 00 00 00 00 00 
0.773100 1 7f4 Rx d 1 01 
0.773400 1 228 Rx d 8 03 11 00 40 80 00 01 ff 
0.773600 1 7d7 Rx d 8 32 01 00 00 00 00 00 00 
0.773900 1 7ff Rx d 8 09 ef 00 00 08 00 00 00 
0.774100 1 132 Rx d 6 df 87 f5 ff 23 40 
0.774300 1 458 Rx d 7 00 00 00 00 40 00 00 
0.774500 1 129 Rx d 8 e3 21 dc 5f 00 20 ff 3f 
0.774800 1 2c1 Rx d 8 2b 17 13 00 00 00 00 00 
0.775000 1 2e1 Rx d 8 fb 19 74 a9 94 6a 09 00 
0.775300 1 677 Rx d 8 01 00 00 00 00 00 00 00 
0.776500 1 289 Rx d 8 a6 02 01 00 99 00 3d 0f 
0.776700 1 3a1 Rx d 8 e9 8d 40 e7 3d 00 90 2a 
0.777000 1 343 Rx d 8 00 92 60 8e 97 00 00 00 
0.777200 1 263 Rx d 8 02 00 00 00 00 00 00 00 
0.778400 1 37a Rx d 8 01 00 31 34 92 00 00 17 
0.779200 1 39d Rx d 5 24 5b 01 28 00 
0.779500 1 7b8 Rx d 8 38 c2 08 7c 54 02 30 1e 
0.779700 1 545 Rx d 8 20 02 27 00 97 67 49 da 
0.779900 1 3ae Rx d 8 e8 3f 00 08 00 00 50 80 
0.780200 1 118 Rx d 8 02 6f 32 00 00 48 00 00 
0.780400 1 23e Rx d 8 f4 01 3a bf fa fc 8f b3 
0.780700 1 266 Rx d 8 00 00 01 22 00 00 9f 01 
0.780900 1 257 Rx d 8 72 48 1f 00 02 a0 0f 01 
0.781100 1 1d8 Rx d 8 29 00 00 00 00 00 20 22 
0.781300 1 727 Rx d 2 0b 00 
0.781500 1 1e5 Rx d 8 02 ac 04 00 00 00 20 b8 
0.782600 1 2d1 Rx d 2 7f 01 
0.782800 1 261 Rx d 8 cc 02 50 4a 00 40 a4 42 
0.783000 1 381 Rx d 8 4d 83 01 e7 00 20 6b 05 
0.783300 1 3c3 Rx d 8 00 00 00 00 00 45 00 00 
0.783500 1 3e3 Rx d 4 00 00 00 00 
0.783700 1 4e2 Rx d 8 03 00 00 00 00 00 a8 0c 
0.783900 1 132 Rx d 6 d8 87 f4 ff 22 40 
0.784100 1 401 Rx d 8 08 2a 4e 80 49 80 48 80 
0.784500 1 129 Rx d 8 aa 22 dc 5f 00 20 ff 3f 
0.785400 1 2e8 Rx d 8 02 11 00 00 06 80 a0 23 
0.785600 1 359 Rx d 8 01 00 00 00 00 00 00 00 
0.785800 1 3b3 Rx d 8 8c 80 04 30 01 00 a8 80 
0.786100 1 253 Rx d 8 01 64 34 85 64 62 00 15 
0.786300 1 473 Rx d 8 00 00 03 00 00 00 00 00 
0.787000 1 243 Rx d 8 03 00 00 00 45 63 1f 00 
0.788500 1 142 Rx d 8 01 00 40 0a c0 1b 00 00 
0.789000 1 553 Rx d 8 00 00 00 00 00 00 40 98 
0.790500 1 552 Rx d 8 00 00 00 00 00 00 40 97 
0.790700 1 118 Rx d 8 f3 60 32 00 00 48 00 00 
0.791000 1 266 Rx d 8 00 00 01 22 00 00 9f 01 
0.791200 1 295 Rx d 8 2b 48 00 00 00 00 00 06 
