date Mon Aug 24 03:46:45 PM 2026
base hex timestamps absolute
// version 7.0.0
0.000000 1 1e5 Rx d 8 02 ac 04 00 00 00 60 f8 
0.000200 1 132 Rx d 6 2a 88 f4 ff 1f 40 
0.000500 1 3a1 Rx d 8 29 fa 40 ed 3d 00 70 bd 
0.001400 1 23e Rx d 8 f4 01 3a bf fa fc cf f3 
0.001700 1 142 Rx d 8 01 00 40 0a c0 1b 00 00 
0.001900 1 623 Rx d 8 25 01 1f 01 1f 01 1f 01 
0.002300 1 2e1 Rx d 8 fb 19 ad 29 98 a2 09 00 
0.003600 1 552 Rx d 8 00 00 00 00 00 00 b0 07 
0.004000 1 234 Rx d 8 30 e1 03 80 43 00 34 a6 
0.004300 1 238 Rx d 8 f0 27 9c d0 1f 00 d6 b2 
0.004500 1 383 Rx d 8 b9 18 31 00 21 b1 23 5a 
0.004700 1 61d Rx d 8 1d 28 86 38 ab 36 1b 15 
0.004900 1 789 Rx d 4 55 19 b0 20 
0.005800 1 420 Rx d 8 28 01 40 4b 00 00 00 01 
0.006200 1 2d1 Rx d 2 7f 01 
0.006400 1 263 Rx d 8 03 00 00 00 00 00 00 31 
0.006700 1 2b3 Rx d 8 af 02 89 3c 0f 0e 00 00 
0.007400 1 39a Rx d 8 20 23 ef 8e ff fd fd 11 
0.007800 1 129 Rx d 8 54 23 cf 5f 00 20 ff 3f 
0.008500 1 3e9 Rx d 8 f0 88 02 00 00 00 e0 46 
0.009300 1 118 Rx d 8 f9 66 32 00 00 48 00 00 
0.009600 1 266 Rx d 8 00 00 01 24 00 00 9f 01 
0.009800 1 1d8 Rx d 8 29 00 00 00 00 00 00 02 
0.010000 1 1e5 Rx d 8 02 ac 04 00 00 00 00 98 
0.010200 1 132 Rx d 6 2a 88 f5 ff 22 40 
0.010500 1 261 Rx d 8 64 fd 17 4c 00 40 e4 de 
0.010700 1 3c8 Rx d 8 06 00 00 00 00 00 00 00 
0.010900 1 422 Rx d 6 f0 00 10 00 00 00 
0.011200 1 423 Rx d 7 00 00 00 00 08 00 00 
0.011400 1 545 Rx d 8 80 01 2c e0 9a a5 79 8f 
0.013000 1 623 Rx d 8 26 1e 01 1e 01 1d 01 1d 
0.014300 1 219 Rx d 7 02 80 4b 4d 97 aa 04 
0.015400 1 719 Rx d 8 53 50 15 54 01 00 00 00 
0.016100 1 2aa Rx d 3 7f b0 db 
0.016300 1 441 Rx d 8 27 00 b6 c3 58 00 1d 7e 
0.016600 1 243 Rx d 8 04 e0 f0 ff fd 7f 43 50 
0.016800 1 2c3 Rx d 8 55 5b a9 b6 02 00 12 a5 
0.017300 1 421 Rx d 7 00 14 00 00 00 d0 48 
0.017600 1 2c2 Rx d 8 55 a3 a8 b6 02 00 12 a5 
0.017800 1 129 Rx d 8 d2 24 cf 5f 00 20 ff 3f 
0.018300 1 301 Rx d 8 0b 2d 00 00 00 00 00 00 
0.018600 1 118 Rx d 8 fa 67 32 00 00 48 00 00 
0.018800 1 201 Rx d 8 03 28 01 40 06 00 98 3b 
0.019100 1 266 Rx d 8 00 00 01 24 00 00 9f 01 
0.019300 1 257 Rx d 8 6e 44 1f 00 02 a0 0f 01 
0.019500 1 2c1 Rx d 8 04 00 0d 00 0d 11 08 0f 
0.019800 1 1d8 Rx d 8 29 00 00 00 00 00 20 22 
0.020000 1 2e1 Rx d 8 04 00 00 80 48 44 26 00 
0.020200 1 132 Rx d 6 35 88 f5 ff 1f 40 
0.020500 1 1e5 Rx d 8 02 ac 04 00 00 00 20 b8 
0.020700 1 3a2 Rx d 8 a0 85 72 d8 04 00 43 72 
0.020900 1 677 Rx d 8 04 00 00 00 00 00 00 00 
0.021200 1 718 Rx d 7 01 00 00 00 00 00 00 
0.021400 1 2f9 Rx d 8 b0 fb 07 10 00 00 00 00 
0.022300 1 788 Rx d 8 01 00 00 00 ff a1 58 13 
0.022500 1 381 Rx d 8 1a 16 16 70 00 00 00 00 
0.024100 1 3ae Rx d 8 d6 3f 00 08 00 00 50 6e 
0.024300 1 2e3 Rx d 7 94 12 62 00 1c 06 00 
0.026300 1 261 Rx d 8 05 22 cc c8 9a 42 f0 7d 
0.026500 1 263 Rx d 8 04 00 00 00 60 14 00 00 
0.026800 1 2e2 Rx d 8 03 00 00 bb 02 1b 00 80 
0.027000 1 3c2 Rx d 8 29 55 00 00 00 00 00 80 
0.027200 1 39d Rx d 5 1e 55 01 28 00 
0.027400 1 45a Rx d 8 fd 07 f8 ff 03 00 00 2d 
0.027800 1 129 Rx d 8 c5 25 cf 5f 00 20 ff 3f 
0.028300 1 288 Rx d 8 03 11 00 40 80 00 01 5f 
0.028500 1 3f9 Rx d 8 05 00 00 00 00 00 00 00 
0.029300 1 2a1 Rx d 6 00 00 98 3a 00 00 
0.029500 1 118 Rx d 8 fb 68 32 00 00 48 00 00 
0.029800 1 1d8 Rx d 8 29 00 00 00 00 00 40 42 
0.030000 1 266 Rx d 8 00 00 01 24 00 00 9f 01 
0.030200 1 132 Rx d 6 30 88 f5 ff 22 40 
0.030400 1 1e5 Rx d 8 02 ac 04 00 00 00 40 d8 
0.030700 1 623 Rx d 8 27 01 1c 01 1c 01 1b 01 
0.030900 1 7c8 Rx d 8 14 05 00 d4 45 02 73 00 
0.032300 1 225 Rx d 4 45 55 fa 00 
0.032600 1 53e Rx d 8 14 05 00 00 75 65 02 81 
0.032900 1 37d Rx d 8 01 70 6f 6f 00 00 00 00 
0.033000 1 41d Rx d 1 00 
0.033200 1 3dd Rx d 8 50 d1 5a c2 7a e8 ec 3f 
0.033500 1 1fa Rx d 3 02 c0 01 
0.033700 1 21d Rx d 8 04 00 35 00 00 00 00 00 
0.033900 1 25b Rx d 8 d3 c0 02 05 6a 86 c0 a5 
0.034200 1 25d Rx d 8 36 41 01 2a 04 f0 d8 03 
0.034400 1 221 Rx d 8 61 05 55 55 01 02 60 96 
0.034600 1 2e1 Rx d 8 65 80 08 00 e4 f6 8b 6a 
0.034900 1 798 Rx d 8 28 62 08 5f e4 01 b0 32 
0.035500 1 339 Rx d 8 05 e1 02 00 00 02 40 02 
0.036400 1 243 Rx d 8 00 fc cf 0c a8 04 41 49 
0.037700 1 129 Rx d 8 76 26 cf 5f ff 1f ff 3f 
0.037900 1 229 Rx d 3 31 0e 00 
0.038100 1 249 Rx d 4 4c 06 00 00 
0.038300 1 22a Rx d 4 00 00 c9 15 
0.038500 1 283 Rx d 6 00 00 00 00 00 00 
0.038700 1 118 Rx d 8 fc 69 32 00 00 48 00 00 
0.038900 1 2c1 Rx d 8 48 3c 7e 00 3c fe 02 07 
0.039200 1 266 Rx d 8 00 00 01 24 00 00 9f 01 
0.039400 1 54f Rx d 8 00 00 00 00 00 00 00 00 
0.039700 1 257 Rx d 8 6f 45 1f 00 02 a0 0f 01 
0.039900 1 6a2 Rx d 5 00 00 00 00 00 
0.040100 1 1d8 Rx d 8 29 00 00 00 00 00 60 62 
0.040300 1 132 Rx d 6 2e 88 f5 ff 23 40 
0.040600 1 1e5 Rx d 8 02 ac 04 00 00 00 60 f8 
0.040700 1 242 Rx d 4 55 15 06 05 
0.041000 1 2a8 Rx d 8 02 11 00 00 06 80 60 a3 
0.041400 1 332 Rx d 6 b5 19 6b 06 69 35 
0.041600 1 23e Rx d 8 f4 01 3a bf fa fc df 03 
0.041900 1 300 Rx d 8 0a 01 6d 10 04 00 88 00 
0.042000 1 311 Rx d 2 ff 03 
0.042200 1 3d2 Rx d 8 3c c0 d5 00 f2 00 df 00 
0.042500 1 1f9 Rx d 8 00 00 00 00 00 00 00 00 
0.042700 1 261 Rx d 8 00 10 27 00 ed 4c 00 66 
0.043000 1 3f2 Rx d 8 06 13 79 38 30 1c ad 03 
0.043100 1 452 Rx d 3 12 89 00 
0.043400 1 201 Rx d 8 a8 c1 9a 00 20 83 f1 07 
0.043600 1 472 Rx d 8 ff 00 80 02 00 7f ff 07 
0.043800 1 492 Rx d 7 7d 03 ff 0f 28 00 00 
0.044100 1 3aa Rx d 8 01 00 00 00 00 00 00 00 
0.044300 1 545 Rx d 8 01 00 00 00 00 10 80 db 
0.044600 1 3c0 Rx d 8 04 00 00 00 00 00 00 00 
0.044800 1 623 Rx d 8 28 1b 01 1b 01 1a 01 1a 
0.045000 1 77a Rx d 8 a1 16 d8 5d f0 5d d8 5d 
0.045300 1 78a Rx d 8 01 00 01 00 e4 5d 9c 5d 
0.045400 1 797 Rx d 4 15 0d b0 6d 
0.046100 1 682 Rx d 8 00 00 00 40 05 02 b0 d7 
0.046300 1 428 Rx d 7 00 00 10 10 00 00 00 
0.046600 1 263 Rx d 8 18 7b 4d 07 a0 4f 5f 1f 
0.047600 1 360 Rx d 8 07 00 00 00 20 00 00 00 
0.047800 1 129 Rx d 8 61 27 cf 5f ff 1f ff 3f 
0.048500 1 22b Rx d 8 ff ff ff ff ff ff ff ff 
0.048800 1 3ae Rx d 8 d6 3f 00 08 00 00 61 7f 
0.049300 1 118 Rx d 8 fd 6a 32 00 00 48 00 00 
0.049500 1 119 Rx d 4 00 00 00 00 
0.049700 1 266 Rx d 8 00 00 01 24 00 00 9f 01 
0.050000 1 1d8 Rx d 8 29 00 00 00 00 00 80 82 
0.050200 1 1e5 Rx d 8 02 ac 04 00 00 00 00 98 
0.050400 1 103 Rx d 8 22 b3 88 04 92 2c 21 02 
0.050600 1 132 Rx d 6 30 88 f5 ff 1f 40 
0.050900 1 2a6 Rx d 8 00 00 6a 18 00 00 00 00 
0.051100 1 2a7 Rx d 8 00 00 00 00 00 74 05 84 
0.051400 1 2c7 Rx d 8 00 00 00 00 00 00 48 ff 
0.051600 1 2e1 Rx d 8 10 21 04 00 12 00 20 08 
0.051900 1 142 Rx d 8 28 00 02 5d 00 00 01 00 
0.052100 1 320 Rx d 8 80 00 00 00 00 00 00 00 
0.052300 1 372 Rx d 8 00 07 c0 97 92 11 54 23 
0.052600 1 3a1 Rx d 8 e8 4e 0d 8a 01 1c 82 2c 
0.052800 1 302 Rx d 8 0b 2f 00 00 00 00 00 00 
0.053100 1 3a2 Rx d 8 01 20 20 00 0b f0 ff 00 
0.053300 1 3e8 Rx d 8 06 00 00 00 00 00 00 00 
0.053500 1 401 Rx d 8 00 2a 69 80 65 80 6e 80 
0.053800 1 453 Rx d 4 00 00 00 00 
0.053900 1 1bb Rx d 1 02 
0.054100 1 234 Rx d 8 25 50 02 30 c1 04 40 47 
0.054400 1 284 Rx d 8 30 00 00 00 40 08 10 0e 
0.054600 1 102 Rx d 8 22 b3 88 04 8a 0c 21 08 
0.054700 1 390 Rx d 2 17 06 
0.056300 1 439 Rx d 8 02 00 40 00 00 14 00 00 
0.056600 1 123 Rx d 8 00 00 12 92 d2 00 00 80 
0.056800 1 243 Rx d 8 01 fc 38 00 45 00 7c 7c 
0.057300 1 2ec Rx d 3 7f b0 1d 
0.057800 1 129 Rx d 8 df 28 cf 5f 00 20 ff 3f 
0.058200 1 7aa Rx d 8 08 00 00 00 18 01 1b 0e 
0.058400 1 261 Rx d 8 31 00 4e 00 b3 49 1a 8b 
0.058700 1 118 Rx d 8 fe 6b 32 00 00 48 00 00 
0.058900 1 2c1 Rx d 8 21 23 2b fa 02 00 00 00 
0.059100 1 266 Rx d 8 00 00 01 24 00 00 9f 01 
0.059400 1 108 Rx d 8 19 01 00 02 00 00 00 0d 
0.059600 1 257 Rx d 8 70 46 1f 00 02 a0 0f 01 
0.059800 1 126 Rx d 5 01 b0 1d 08 fd 
0.060100 1 1d8 Rx d 8 29 00 00 00 00 00 a0 a2 
0.060200 1 128 Rx d 5 80 02 e4 0a 02 
0.060400 1 132 Rx d 6 3b 88 f4 ff 20 40 
0.060700 1 1e5 Rx d 8 02 ac 04 00 00 00 20 b8 
0.060900 1 1d6 Rx d 8 02 08 04 00 0a 48 08 05 
0.061100 1 211 Rx d 6 a1 1f 71 0d 00 f1 
0.061300 1 268 Rx d 5 01 01 fa 00 bf 
0.061500 1 279 Rx d 8 46 01 0d 01 74 05 62 02 
0.061800 1 122 Rx d 8 00 00 12 92 12 00 00 00 
0.061900 1 2b6 Rx d 3 00 03 00 
0.062200 1 381 Rx d 8 00 2d c8 e3 b9 5c b2 10 
0.062400 1 395 Rx d 8 09 0f 12 52 09 01 07 7d 
0.062600 1 340 Rx d 8 02 00 00 00 00 00 00 00 
0.062900 1 397 Rx d 8 00 00 00 d8 1d 00 00 00 
0.063100 1 3a3 Rx d 8 00 d0 00 00 38 03 fc 01 
0.063400 1 623 Rx d 8 29 01 19 01 19 01 19 01 
0.063600 1 677 Rx d 8 00 00 00 00 00 00 00 00 
0.063800 1 7a8 Rx d 8 01 00 00 00 ff a1 58 13 
0.064200 1 3f1 Rx d 8 05 00 00 00 00 00 00 00 
0.065400 1 43b Rx d 8 01 7f 04 ff 00 00 00 00 
0.065600 1 3db Rx d 8 0a 20 27 27 20 00 00 00 
0.065900 1 719 Rx d 8 03 00 00 00 00 00 00 00 
0.066300 1 2e1 Rx d 8 39 0d 10 c9 1f 28 10 00 
0.066600 1 263 Rx d 8 e9 6a 5d 07 c0 2f 5f 1f 
0.066800 1 2b3 Rx d 8 10 00 00 7c 7c 00 00 00 
0.067100 1 441 Rx d 8 47 85 89 00 32 00 20 10 
0.067400 1 39d Rx d 5 1f 56 01 28 00 
0.067500 1 113 Rx d 3 01 97 01 
0.067800 1 129 Rx d 8 8a 29 cf 5f 00 20 ff 3f 
0.068000 1 318 Rx d 8 1a 08 2c 07 18 2e 21 d7 
0.068300 1 458 Rx d 7 00 00 00 00 40 00 00 
0.068500 1 201 Rx d 8 09 04 b8 00 11 00 80 c4 
0.068700 1 272 Rx d 8 06 00 f6 b0 07 48 06 08 
0.069000 1 393 Rx d 8 06 00 f6 b0 07 48 06 08 
0.069200 1 623 Rx d 8 2a 18 01 18 01 17 01 17 
0.069400 1 118 Rx d 8 ff 6c 32 00 00 48 00 00 
0.069700 1 228 Rx d 8 03 11 00 40 80 00 01 ff 
0.069900 1 1d8 Rx d 8 29 00 00 00 00 00 c0 c2 
0.070200 1 7d5 Rx d 8 2b 00 e0 fe 00 00 00 00 
0.070400 1 132 Rx d 6 31 88 f5 ff 22 40 
0.070600 1 266 Rx d 8 00 00 01 24 00 00 9f 01 
0.070800 1 401 Rx d 8 01 2a 6f 80 7a 80 66 80 
0.071100 1 1e5 Rx d 8 02 ac 04 00 00 00 40 d8 
0.071300 1 7d5 Rx d 8 2c 00 3f 00 00 00 00 00 
0.071600 1 7d5 Rx d 8 32 00 00 00 00 00 00 00 
0.071800 1 7d7 Rx d 8 32 01 00 00 00 00 00 00 
0.071900 1 7f4 Rx d 1 01 
0.072200 1 7ff Rx d 8 03 33 08 00 e0 22 16 00 
0.072400 1 379 Rx d 8 09 00 00 00 00 00 0d 03 
0.073300 1 241 Rx d 7 32 32 4c 0f 8f 45 00 
0.074300 1 261 Rx d 8 32 2a 80 02 80 5c 22 d2 
0.074500 1 20c Rx d 8 00 c0 35 18 00 30 09 00 
0.075400 1 7b8 Rx d 8 48 e2 08 83 74 02 b0 f5 
0.075700 1 282 Rx d 8 00 00 00 00 ec 33 0b 24 
0.076300 1 545 Rx d 8 02 00 06 00 00 00 90 e2 
0.076500 1 243 Rx d 8 02 14 31 11 00 4c 00 00 
0.076900 1 3c2 Rx d 8 00 55 55 55 00 00 59 45 
0.077000 1 3e2 Rx d 7 00 00 80 0a d0 cf 04 
0.077200 1 45a Rx d 8 c0 4e ca cd 5f 39 00 38 
0.077800 1 129 Rx d 8 55 2a cf 5f 00 20 ff 3f 
0.078300 1 2c1 Rx d 8 02 0d 06 00 00 d0 92 81 
0.078600 1 118 Rx d 8 00 6d 32 00 00 48 00 00 
0.078800 1 266 Rx d 8 00 00 01 24 00 00 9f 01 
0.079000 1 257 Rx d 8 71 47 1f 00 02 a0 0f 01 
0.079300 1 139 Rx d 1 00 
0.079600 1 1d8 Rx d 8 29 00 00 00 00 00 e0 e2 
0.079800 1 1e5 Rx d 8 02 ac 04 00 00 00 60 f8 
0.080000 1 623 Rx d 8 2b 01 16 01 16 01 16 01 
0.080200 1 132 Rx d 6 22 88 f5 ff 20 40 
0.080500 1 4e3 Rx d 8 03 59 00 00 00 00 a8 0c 
0.081400 1 23e Rx d 8 f4 01 3a bf fa fc ef 13 
0.081600 1 2e8 Rx d 8 02 11 00 00 06 80 60 e3 
0.082300 1 2e1 Rx d 8 02 6c 7f 02 21 60 00 00 
0.082500 1 1f8 Rx d 4 00 00 00 00 
0.084300 1 2f1 Rx d 8 08 02 00 28 04 40 04 00 
0.084500 1 221 Rx d 8 60 55 55 05 54 51 71 48 
0.084800 1 3a2 Rx d 8 f2 29 00 00 22 00 00 00 
0.085200 1 409 Rx d 1 00 
0.086400 1 37a Rx d 8 b1 00 00 00 00 00 00 00 
0.086600 1 263 Rx d 8 02 00 00 00 00 00 00 00 
0.086800 1 343 Rx d 8 00 92 5c 3e 9b 00 00 00 
0.087400 1 448 Rx d 7 00 00 10 10 00 00 00 
0.087800 1 129 Rx d 8 a4 2b cf 5f 00 20 ff 3f 
0.087900 1 249 Rx d 4 5e 07 00 00 
0.088700 1 400 Rx d 7 00 e0 fb be ef fb 00 
0.088900 1 38d Rx d 8 56 a9 aa aa aa 24 49 02 
0.089300 1 118 Rx d 8 01 6e 32 00 00 48 00 00 
0.089600 1 212 Rx d 8 59 04 00 00 81 ff 77 31 
0.089800 1 252 Rx d 8 3f 23 3a 4b 00 fc 0f 00 
0.090000 1 266 Rx d 8 00 00 01 24 00 00 9f 01 
0.090300 1 1d8 Rx d 8 29 00 00 00 00 00 00 02 
0.090500 1 132 Rx d 6 2c 88 f4 ff 1f 40 
0.090700 1 1e5 Rx d 8 02 ac 04 00 00 00 00 98 
0.090900 1 20e Rx d 3 14 04 00 
0.091100 1 261 Rx d 8 ab 4d 0a 00 00 40 35 6d 
0.091300 1 289 Rx d 8 a6 02 01 80 a1 00 3d 0f 
0.091600 1 292 Rx d 8 34 0a f9 a4 8d 01 00 00 
0.091800 1 2d2 Rx d 8 71 29 a4 4e c4 09 d5 14 
0.091900 1 2f2 Rx d 2 12 01 
0.092100 1 35f Rx d 1 00 
0.092300 1 3ae Rx d 8 d6 3f 00 08 00 00 71 8f 
0.092500 1 3b2 Rx d 8 17 00 42 35 6f b6 66 7f 
0.092800 1 3c3 Rx d 8 00 00 00 00 00 45 00 00 
0.092900 1 3e3 Rx d 4 00 00 00 00 
0.093200 1 401 Rx d 8 02 2a 71 80 70 80 7e 80 
0.093400 1 201 Rx d 8 02 28 01 40 06 00 b8 39 
0.093700 1 359 Rx d 8 40 00 00 00 00 00 00 00 
0.093900 1 407 Rx d 8 13 08 00 00 00 00 00 00 
0.094000 1 419 Rx d 1 00 
0.094300 1 42e Rx d 8 00 e0 bf ff fe ef bf ff 
0.094500 1 381 Rx d 8 01 00 04 dc 9e a0 a0 44 
0.094700 1 42f Rx d 7 7a 5e c9 02 fa 00 ff 
0.095000 1 623 Rx d 8 2c 15 01 15 01 14 01 14 
0.095300 1 3f5 Rx d 8 00 00 b3 08 82 04 00 00 
0.096300 1 2c4 Rx d 8 0c 00 00 00 d8 48 01 00 
0.096500 1 243 Rx d 8 03 00 20 00 2e 58 14 00 
0.096800 1 204 Rx d 8 01 00 00 ff 00 00 00 10 
0.097000 1 264 Rx d 6 39 00 00 00 a0 00 
0.097200 1 224 Rx d 8 04 08 00 48 19 01 10 08 
0.097400 1 2b4 Rx d 6 47 05 a0 0d 13 01 
0.097700 1 4e2 Rx d 8 03 49 00 00 00 00 a8 0c 
0.097900 1 129 Rx d 8 c4 2c cf 5f 00 20 ff 3f 
0.098300 1 2e1 Rx d 8 fb 19 ad 29 98 a5 09 00 
0.098600 1 118 Rx d 8 02 6f 32 00 00 48 00 00 
0.098800 1 22b Rx d 8 ff ff ff ff ff ff ff ff 
0.099100 1 266 Rx d 8 00 00 01 24 00 00 9f 01 
0.099300 1 257 Rx d 8 72 48 1f 00 02 a0 0f 01 
0.099500 1 2c1 Rx d 8 23 17 13 00 00 00 00 00 
0.099800 1 1d8 Rx d 8 29 00 00 00 00 00 20 22 
0.100000 1 1e5 Rx d 8 02 ac 04 00 00 00 20 b8 
0.100200 1 132 Rx d 6 2f 88 f4 ff 1f 40 
0.100500 1 3a1 Rx d 8 29 fa 40 f9 3d 00 90 e9 
0.100700 1 553 Rx d 8 00 00 00 00 00 00 c0 18 
0.101000 1 677 Rx d 8 01 00 00 00 00 00 00 00 
0.101600 1 142 Rx d 8 01 00 40 0a c0 1b 00 00 
0.103600 1 552 Rx d 8 00 00 00 00 00 00 c0 17 
0.103900 1 285 Rx d 8 41 03 65 01 0d 00 08 00 
0.104100 1 234 Rx d 8 30 e1 03 80 43 00 54 c6 
0.104300 1 286 Rx d 5 ff ff ff ff 31 
0.104600 1 383 Rx d 8 b9 18 31 00 21 b1 23 5a 
0.104700 1 789 Rx d 4 55 19 c0 30 
0.105800 1 420 Rx d 8 28 01 40 4b 00 00 80 01 
0.106200 1 2d1 Rx d 2 7f 01 
0.106400 1 261 Rx d 8 64 fd 17 4c 00 40 44 3e 
0.106700 1 263 Rx d 8 03 00 00 00 00 00 00 31 
0.107000 1 39d Rx d 5 20 57 01 28 00 
0.107400 1 39a Rx d 8 fd fd fd fd fd 01 00 02 
0.107800 1 129 Rx d 8 d6 2d cf 5f 00 20 ff 3f 
0.108800 1 623 Rx d 8 2d 01 13 01 13 01 13 01 
0.109300 1 545 Rx d 8 d0 01 31 f0 9a a2 a9 21 
0.109500 1 118 Rx d 8 f3 60 32 00 00 48 00 00 
0.109800 1 1d8 Rx d 8 29 00 00 00 00 00 40 42 
0.110000 1 266 Rx d 8 00 00 01 24 00 00 9f 01 
0.110200 1 132 Rx d 6 38 88 f4 ff 22 40 
0.110500 1 1e5 Rx d 8 02 ac 04 00 00 00 40 d8 
0.110700 1 372 Rx d 8 01 bf 15 03 50 00 38 01 
0.111000 1 3c8 Rx d 8 00 00 00 00 00 00 00 00 
0.111200 1 401 Rx d 8 03 2a 72 80 6f 80 66 80 
0.111400 1 422 Rx d 6 f0 00 10 00 00 00 
0.111600 1 423 Rx d 7 00 00 00 00 08 00 00 
0.114300 1 2e1 Rx d 8 04 00 00 80 48 44 26 00 
0.114500 1 219 Rx d 7 03 00 4c 4d 97 b3 04 
0.115400 1 719 Rx d 8 14 00 00 00 00 8d 00 00 
0.116100 1 2aa Rx d 3 7f c0 eb 
0.116300 1 441 Rx d 8 27 00 b6 c3 58 00 25 86 
0.116600 1 243 Rx d 8 04 e0 f0 ff fd 7f 43 50 
0.116800 1 2c3 Rx d 8 00 00 c0 4b 01 00 80 cb 
0.117300 1 421 Rx d 7 00 14 00 00 00 d0 48 
0.117600 1 2c2 Rx d 8 20 40 00 4b 01 00 80 cb 
0.117800 1 129 Rx d 8 09 2e cf 5f 00 20 ff 3f 
0.118000 1 3a2 Rx d 8 60 85 72 d8 1c 00 43 72 
0.118400 1 3f6 Rx d 8 00 05 00 00 b6 14 00 00 
0.118600 1 118 Rx d 8 f4 61 32 00 00 48 00 00 
0.118900 1 201 Rx d 8 03 28 01 40 06 00 98 3b 
0.119100 1 266 Rx d 8 00 00 01 24 00 00 9f 01 
0.119400 1 257 Rx d 8 73 49 1f 00 02 a0 0f 01 
0.119600 1 1d8 Rx d 8 29 00 00 00 00 00 60 62 
0.119800 1 2bf Rx d 7 0a 00 00 00 4c 00 01 
0.120100 1 1e5 Rx d 8 02 ac 04 00 00 00 60 f8 
0.120300 1 132 Rx d 6 39 88 f4 ff 1f 40 
0.120500 1 2c1 Rx d 8 04 00 0d 00 0d 11 08 0f 
0.120700 1 414 Rx d 8 11 20 20 20 20 20 20 20 
0.120900 1 443 Rx d 6 73 08 ff 03 00 00 
0.121200 1 623 Rx d 8 2e 12 01 12 01 11 01 11 
0.121400 1 2f9 Rx d 8 b0 fb 07 18 00 00 00 00 
0.121700 1 23e Rx d 8 f4 01 3a bf fa fc ff 23 
0.121800 1 666 Rx d 4 00 00 a0 00 
0.122100 1 55a Rx d 8 02 00 00 00 00 00 00 00 
0.122300 1 405 Rx d 8 11 33 45 37 46 41 35 4d 
0.122500 1 261 Rx d 8 05 22 cc c8 9a 42 50 dd 
0.122800 1 788 Rx d 8 02 40 cd e7 4d 03 00 00 
0.124400 1 303 Rx d 8 0b 2d 00 00 00 00 00 00 
0.126400 1 263 Rx d 8 04 00 00 00 60 14 00 00 
0.126600 1 2b3 Rx d 8 00 91 91 81 91 91 7a 89 
0.126900 1 3a8 Rx d 8 02 00 18 01 00 00 00 80 
0.127100 1 3c2 Rx d 8 29 55 00 00 00 00 00 80 
0.127400 1 45a Rx d 8 fd 07 f8 ff 03 00 00 2d 
0.127600 1 7aa Rx d 8 09 ff 06 ff 06 01 00 00 
0.127800 1 129 Rx d 8 f8 2f cf 5f 00 20 ff 3f 
0.128300 1 288 Rx d 8 03 11 00 40 80 00 11 6f 
0.128500 1 3f9 Rx d 8 06 00 00 00 00 00 00 00 
0.129000 1 3ae Rx d 8 d6 3f 00 08 00 00 81 9f 
0.129300 1 2a1 Rx d 6 00 00 98 3a 00 00 
0.129500 1 118 Rx d 8 f5 62 32 00 00 48 00 00 
0.129800 1 1d8 Rx d 8 29 00 00 00 00 00 80 82 
0.130000 1 266 Rx d 8 00 00 01 24 00 00 9f 01 
0.130200 1 132 Rx d 6 24 88 f4 ff 20 40 
0.130500 1 1e5 Rx d 8 02 ac 04 00 00 00 00 98 
0.130700 1 2e1 Rx d 8 65 80 08 00 e4 f6 8b 6a 
0.130900 1 381 Rx d 8 22 62 f6 f7 0d 10 01 00 
0.131200 1 401 Rx d 8 04 2a 79 80 6f 80 61 80 
0.131800 1 623 Rx d 8 2f 01 10 01 10 01 10 01 
0.132300 1 225 Rx d 4 45 55 fa 00 
0.132600 1 75d Rx d 8 01 00 00 00 00 00 20 a2 
0.132900 1 31e Rx d 8 00 00 00 00 00 00 00 00 
0.133000 1 41d Rx d 1 00 
0.133300 1 43a Rx d 6 04 6e 00 00 20 00 
0.133500 1 1fa Rx d 3 02 c0 01 
0.133700 1 21d Rx d 8 04 00 35 00 00 00 00 00 
0.133900 1 25b Rx d 8 d3 c0 02 05 6a 86 d0 b5 
0.134200 1 25d Rx d 8 36 41 01 2a 04 f0 d8 03 
0.134400 1 221 Rx d 8 61 05 55 55 01 02 80 b6 
0.134600 1 798 Rx d 8 39 d7 02 44 10 01 c0 d3 
0.135500 1 339 Rx d 8 05 e1 02 00 00 02 40 02 
0.136400 1 243 Rx d 8 00 fc cf 0c a8 04 41 49 
0.137800 1 129 Rx d 8 1d 20 cf 5f 00 20 ff 3f 
0.137900 1 229 Rx d 3 3b 0f 00 
0.138100 1 22a Rx d 4 00 00 c9 15 
0.138200 1 249 Rx d 4 3f 08 00 00 
0.138500 1 261 Rx d 8 00 10 27 00 ed 4c 60 c6 
0.138700 1 118 Rx d 8 f6 63 32 00 00 48 00 00 
0.138900 1 283 Rx d 6 00 00 00 00 00 00 
0.139200 1 266 Rx d 8 00 00 01 24 00 00 9f 01 
0.139400 1 2c1 Rx d 8 48 3c 7e 00 3c fe 02 07 
0.139700 1 257 Rx d 8 74 4a 1f 00 02 a0 0f 01 
0.139900 1 54f Rx d 8 00 00 00 00 00 00 00 00 
0.140100 1 1d8 Rx d 8 29 00 00 00 00 00 a0 a2 
0.140300 1 132 Rx d 6 2c 88 f4 ff 1f 40 
0.140600 1 1e5 Rx d 8 02 ac 04 00 00 00 20 b8 
0.140800 1 242 Rx d 4 55 15 06 05 
0.141000 1 2a8 Rx d 8 02 11 00 00 06 80 70 b3 
0.141200 1 677 Rx d 8 02 00 00 00 00 00 00 00 
0.141400 1 6a2 Rx d 5 00 00 00 00 00 
0.142300 1 545 Rx d 8 01 00 00 00 00 10 b0 0b 
0.142600 1 1f9 Rx d 8 00 00 00 00 00 00 00 00 
0.143100 1 623 Rx d 8 20 0f 01 0f 01 0e 01 0e 
0.143300 1 201 Rx d 8 b8 b9 9a 00 20 83 f1 07 
0.143900 1 78a Rx d 8 01 00 02 00 65 06 66 06 
0.144400 1 3c0 Rx d 8 05 00 00 00 00 00 00 00 
0.145400 1 797 Rx d 4 15 0d c0 7d 
0.146200 1 428 Rx d 7 00 00 10 10 00 00 00 
0.146400 1 263 Rx d 8 18 7b 4d 07 a0 4f 5f 1f 
0.146700 1 2e1 Rx d 8 10 21 04 00 12 00 20 08 
0.146900 1 682 Rx d 8 00 00 00 40 05 02 c0 e7 
0.147300 1 39d Rx d 5 21 58 01 28 00 
0.147600 1 360 Rx d 8 08 00 00 00 00 00 04 00 
0.147800 1 129 Rx d 8 a7 21 cf 5f 01 20 ff 3f 
0.148100 1 20a Rx d 6 f6 15 09 82 18 01 
0.148500 1 22b Rx d 8 ff ff ff ff ff ff ff ff 
0.148800 1 3ae Rx d 8 d6 3f 00 08 00 00 90 ae 
0.149300 1 118 Rx d 8 f7 64 32 00 00 48 00 00 
0.149500 1 119 Rx d 4 00 00 00 00 
0.149800 1 266 Rx d 8 00 00 01 24 00 00 9f 01 
0.150000 1 1d8 Rx d 8 29 00 00 00 00 00 c0 c2 
0.150200 1 132 Rx d 6 2d 88 f5 ff 20 40 
0.150400 1 103 Rx d 8 22 b3 88 04 92 2c 21 02 
0.150700 1 1e5 Rx d 8 02 ac 04 00 00 00 40 d8 
0.150900 1 2a6 Rx d 8 00 00 6a 18 00 00 00 00 
0.151200 1 2a7 Rx d 8 00 00 00 00 00 74 05 84 
0.151400 1 2c7 Rx d 8 00 00 00 00 00 00 48 ff 
0.151600 1 3a1 Rx d 8 e8 4e 0d 8a 01 1c a2 4c 
0.151900 1 142 Rx d 8 28 00 02 5d 00 00 01 00 
0.152100 1 3a2 Rx d 8 01 10 20 00 0b f0 ff 00 
0.152400 1 3e8 Rx d 8 00 00 00 00 00 00 00 00 
0.152600 1 401 Rx d 8 05 2a 68 80 6a 80 73 80 
0.153800 1 313 Rx d 8 02 64 64 05 00 00 40 25 
0.154100 1 234 Rx d 8 24 50 02 30 c1 04 60 66 
0.154300 1 261 Rx d 8 31 00 50 00 b2 49 7a ec 
0.154600 1 102 Rx d 8 22 b3 88 04 8a 0c 21 08 
0.155000 1 285 Rx d 8 02 d5 00 00 00 00 de 00 
0.156300 1 439 Rx d 8 02 00 40 00 00 14 00 00 
0.156600 1 123 Rx d 8 01 00 00 00 00 3f 00 00 
0.156800 1 243 Rx d 8 01 fc 38 00 45 00 7c 7c 
0.157300 1 2ec Rx d 3 7f c0 2d 
0.157800 1 129 Rx d 8 43 22 cf 5f 00 20 ff 3f 
0.158300 1 2c1 Rx d 8 21 23 2b fa 02 00 00 00 
0.158600 1 118 Rx d 8 f8 65 32 00 00 48 00 00 
0.158800 1 266 Rx d 8 00 00 01 24 00 00 9f 01 
0.159000 1 31a Rx d 8 60 fc ff 02 00 00 e0 5a 
0.159300 1 257 Rx d 8 75 4b 1f 00 02 a0 0f 01 
0.159500 1 108 Rx d 8 18 02 00 02 00 ff ff 0d 
0.159800 1 1d8 Rx d 8 29 00 00 00 00 00 e0 e2 
0.160000 1 126 Rx d 5 01 b0 1d 10 05 
0.160200 1 1e5 Rx d 8 02 ac 04 00 00 00 60 f8 
0.160400 1 128 Rx d 5 80 02 e4 0a 02 
0.160600 1 132 Rx d 6 34 88 f5 ff 22 40 
0.160800 1 1d6 Rx d 8 02 08 04 00 0a 88 0e 05 
0.161000 1 623 Rx d 8 21 01 0d 01 0d 01 0d 01 
0.161200 1 268 Rx d 5 01 01 fa 00 bf 
0.161400 1 211 Rx d 6 92 10 71 0d 00 f1 
0.161700 1 122 Rx d 8 01 00 00 00 00 3f 00 00 
0.161900 1 23e Rx d 8 f4 01 3a bf fa fc 0f 33 
0.162100 1 279 Rx d 8 47 02 0d 01 74 05 62 02 
0.162300 1 2b6 Rx d 3 00 03 00 
0.162500 1 2e1 Rx d 8 39 0d 10 c9 1f 28 10 00 
0.162800 1 340 Rx d 8 03 01 00 00 00 00 00 00 
0.163000 1 395 Rx d 8 09 0f 12 52 09 01 07 7d 
0.163300 1 397 Rx d 8 00 00 00 d8 1d 00 00 00 
0.163500 1 3a3 Rx d 8 00 d0 00 00 38 03 fc 01 
0.163700 1 7a8 Rx d 8 02 40 cf 57 4d 07 00 00 
0.165400 1 42a Rx d 8 63 d5 62 b5 56 6d 56 aa 
0.165600 1 719 Rx d 8 15 1a 3d 5a ff 05 00 00 
0.166300 1 381 Rx d 8 03 f8 3d 0b 00 08 04 00 
0.166500 1 263 Rx d 8 e9 6a 5d 07 c0 2f 5f 1f 
0.166800 1 441 Rx d 8 47 85 89 00 32 00 28 18 
0.167400 1 113 Rx d 3 01 97 01 
0.167700 1 318 Rx d 8 1a 08 2c 07 18 2e 23 d9 
0.167900 1 129 Rx d 8 54 23 cf 5f 00 20 ff 3f 
0.168000 1 7f4 Rx d 1 01 
0.168300 1 7ff Rx d 8 04 21 fb a8 60 20 a4 20 
0.168500 1 201 Rx d 8 09 04 b8 00 11 00 80 c4 
0.168800 1 272 Rx d 8 09 80 63 00 00 00 00 00 
0.169000 1 393 Rx d 8 09 80 63 00 00 00 00 00 
0.169200 1 458 Rx d 7 00 00 00 00 40 00 00 
0.169500 1 118 Rx d 8 f9 66 32 00 00 48 00 00 
0.169700 1 228 Rx d 8 03 11 00 40 80 00 11 0f 
0.169900 1 1d8 Rx d 8 29 00 00 00 00 00 00 02 
0.170200 1 7d5 Rx d 8 2b 00 e0 fe 00 00 00 00 
0.170400 1 132 Rx d 6 43 88 f5 ff 20 40 
0.170600 1 261 Rx d 8 32 2a 80 02 80 5c 82 32 
0.170900 1 266 Rx d 8 00 00 01 24 00 00 9f 01 
0.171100 1 372 Rx d 8 02 8f 40 3d 80 01 98 59 
0.171300 1 1e5 Rx d 8 02 ac 04 00 00 00 00 98 
0.171600 1 401 Rx d 8 06 2a 70 80 78 80 6f 80 
0.171800 1 7d5 Rx d 8 2c 00 3f 00 00 00 00 00 
0.172100 1 623 Rx d 8 22 0c 01 0c 01 0b 01 0b 
0.172300 1 7d5 Rx d 8 32 00 00 00 00 00 00 00 
0.172500 1 379 Rx d 8 0a 00 00 00 00 00 0d 03 
0.172800 1 7d7 Rx d 8 32 01 00 00 00 00 00 00 
0.173300 1 241 Rx d 7 35 32 cc 0e 8f 45 00 
0.174400 1 20c Rx d 8 00 c0 35 18 00 30 09 00 
0.175300 1 545 Rx d 8 02 00 06 00 00 00 c0 12 
0.175600 1 282 Rx d 8 00 00 00 00 ec 33 0b 24 
0.175800 1 7b8 Rx d 8 11 d7 02 96 04 00 c0 5e 
0.176400 1 243 Rx d 8 02 14 31 11 00 4c 00 00 
0.176600 1 40a Rx d 8 01 00 01 00 00 00 e0 f0 
0.176900 1 3c2 Rx d 8 00 55 55 55 00 00 59 45 
0.177100 1 45a Rx d 8 c0 4e ca cd 5f 39 00 38 
0.177800 1 129 Rx d 8 d2 24 cf 5f 00 20 ff 3f 
0.178300 1 2e1 Rx d 8 02 6c 7f 02 21 60 00 00 
0.178600 1 118 Rx d 8 fa 67 32 00 00 48 00 00 
0.178800 1 266 Rx d 8 00 00 01 24 00 00 9f 01 
0.179100 1 257 Rx d 8 76 4c 1f 00 02 a0 0f 01 
0.179300 1 2c1 Rx d 8 02 0d 06 00 00 d0 92 81 
0.179400 1 139 Rx d 1 00 
0.179700 1 1d8 Rx d 8 29 00 00 00 00 00 20 22 
0.179900 1 677 Rx d 8 03 00 00 00 00 00 00 00 
0.180100 1 1e5 Rx d 8 02 ac 04 00 00 00 20 b8 
0.180300 1 132 Rx d 6 2d 88 f4 ff 22 40 
0.180600 1 4e3 Rx d 8 04 00 00 00 00 00 00 00 
0.180800 1 709 Rx d 8 10 f1 00 00 00 00 00 00 
0.181500 1 2e8 Rx d 8 02 11 00 00 06 80 70 f3 
0.182500 1 1f8 Rx d 4 00 00 00 00 
0.183100 1 623 Rx d 8 23 01 0b 01 0a 01 0a 01 
0.183600 1 3a2 Rx d 8 f2 29 00 00 22 00 00 00 
0.183900 1 409 Rx d 1 00 
0.184300 1 2f1 Rx d 8 09 02 00 28 04 48 03 00 
0.184500 1 221 Rx d 8 60 55 55 05 54 51 91 68 
0.186300 1 261 Rx d 8 ab 4d 0a 00 00 40 95 cd 
0.186500 1 263 Rx d 8 02 00 00 00 00 00 00 00 
0.186800 1 2b3 Rx d 8 01 a3 9d 93 89 9b 94 8a 
0.187000 1 343 Rx d 8 00 92 5c 0e 9b 00 00 00 
0.187300 1 37a Rx d 8 d2 00 00 00 00 00 00 00 
0.187500 1 212 Rx d 8 59 04 00 00 81 ff 77 31 
0.187700 1 252 Rx d 8 3f 23 3a 4b 00 fc 0f 00 
0.188000 1 129 Rx d 8 c5 25 cf 5f 00 20 ff 3f 
0.188200 1 292 Rx d 8 34 0a f9 a4 8d 01 00 00 
0.188400 1 249 Rx d 4 5e 09 00 00 
0.188600 1 2d2 Rx d 8 71 29 a3 4e c4 09 d5 14 
0.188700 1 2f2 Rx d 2 12 01 
0.188900 1 312 Rx d 8 70 e4 66 44 73 b9 17 14 
0.189200 1 392 Rx d 8 00 10 00 00 00 00 00 00 
0.189400 1 118 Rx d 8 fb 68 32 00 00 48 00 00 
0.189700 1 1d8 Rx d 8 29 00 00 00 00 00 40 42 
0.189900 1 266 Rx d 8 00 00 01 24 00 00 9f 01 
0.190200 1 289 Rx d 8 a6 02 01 c0 94 00 3d 0f 
0.190400 1 1e5 Rx d 8 02 ac 04 00 00 00 40 d8 
0.190600 1 132 Rx d 6 34 88 f4 ff 22 40 
0.190800 1 39d Rx d 5 22 59 01 28 00 
0.191000 1 400 Rx d 7 00 e0 fb be ef fb 00 
0.191200 1 20e Rx d 3 15 05 00 
0.191400 1 401 Rx d 8 07 2a 67 80 6d 80 77 80 
0.191600 1 3ae Rx d 8 d6 3f 00 08 00 00 a0 be 
0.191700 1 419 Rx d 1 00 
0.192000 1 448 Rx d 7 00 00 10 10 00 00 00 
0.192200 1 712 Rx d 8 00 2a de 0d ff 0d df 0d 
0.192400 1 3c3 Rx d 8 55 55 55 01 00 80 43 00 
0.193300 1 201 Rx d 8 02 28 01 40 06 00 b8 39 
0.193600 1 359 Rx d 8 c8 3f 00 00 0c 00 00 02 
0.194300 1 2e1 Rx d 8 fb 19 ae 19 98 a4 09 00 
0.194500 1 726 Rx d 3 01 00 64 
0.195300 1 3f5 Rx d 8 00 00 b3 08 82 04 00 00 
0.196200 1 6c8 Rx d 8 4c 62 00 13 04 00 00 00 
0.196400 1 243 Rx d 8 03 00 20 00 2e 58 14 00 
0.196700 1 204 Rx d 8 01 00 00 ff 00 00 00 10 
0.196900 1 264 Rx d 6 39 00 00 00 a0 00 
0.197100 1 2c4 Rx d 8 4d 80 00 02 00 00 00 00 
0.197400 1 4e2 Rx d 8 04 12 a0 00 08 78 00 00 
0.197600 1 224 Rx d 8 04 08 00 48 19 01 10 08 
0.197900 1 129 Rx d 8 76 26 cf 5f ff 1f ff 3f 
0.198000 1 2b4 Rx d 6 48 05 a1 0d 11 01 
0.198300 1 2c1 Rx d 8 23 17 13 00 00 00 00 00 
0.198600 1 118 Rx d 8 fc 69 32 00 00 48 00 00 
0.198800 1 22b Rx d 8 ff ff ff ff ff ff ff ff 
0.199100 1 266 Rx d 8 00 00 01 24 00 00 9f 01 
0.199300 1 257 Rx d 8 77 4d 1f 00 02 a0 0f 01 
0.199600 1 1d8 Rx d 8 29 00 00 00 00 00 60 62 
0.199800 1 1e5 Rx d 8 02 ac 04 00 00 00 60 f8 
0.200100 1 553 Rx d 8 00 00 00 00 00 00 d0 28 
0.200200 1 132 Rx d 6 2d 88 f4 ff 22 40 
0.200500 1 3a1 Rx d 8 29 fa 40 fb 3d 00 b0 0b 
0.200700 1 623 Rx d 8 24 09 01 09 01 08 01 08 
0.201600 1 142 Rx d 8 01 00 40 0a c0 1b 00 00 
0.201800 1 23e Rx d 8 f4 01 3a bf fa fc 1f 43 
0.202300 1 261 Rx d 8 64 fd 0f 4c 00 40 a4 96 
0.202500 1 381 Rx d 8 04 94 8b 8c 97 90 97 69 
0.203600 1 552 Rx d 8 00 00 00 00 00 00 d0 27 
0.203900 1 2d3 Rx d 8 06 01 cd 03 2e 17 14 57 
0.204200 1 234 Rx d 8 2f e1 03 80 43 00 74 e5 
0.204400 1 293 Rx d 8 01 0c 15 90 55 14 cf 7f 
0.204600 1 383 Rx d 8 b9 18 31 00 21 b1 23 5a 
0.204900 1 3df Rx d 8 00 00 80 00 01 d0 00 1b 
0.205000 1 789 Rx d 4 55 19 d0 40 
0.205800 1 420 Rx d 8 28 01 40 4b 00 00 00 02 
0.206200 1 2d1 Rx d 2 7f 01 
0.206500 1 263 Rx d 8 03 00 00 00 00 00 00 31 
0.207400 1 39a Rx d 8 20 23 ef 8e ff fd fd 11 
0.207800 1 129 Rx d 8 61 27 cf 5f ff 1f ff 3f 
0.208300 1 545 Rx d 8 d0 01 27 40 9b a7 d9 9d 
0.208600 1 7aa Rx d 8 0a 81 06 81 06 00 5d 00 
0.209300 1 118 Rx d 8 fd 6a 32 00 00 48 00 00 
0.209500 1 266 Rx d 8 00 00 01 24 00 00 9f 01 
0.209800 1 1d8 Rx d 8 29 00 00 00 00 00 80 82 
0.210000 1 1e5 Rx d 8 02 ac 04 00 00 00 00 98 
0.210200 1 132 Rx d 6 43 88 f4 ff 20 40 
0.210500 1 285 Rx d 8 03 47 86 48 95 00 00 00 
0.210700 1 2d3 Rx d 8 06 01 cd 03 2e 17 14 57 
0.210900 1 2e1 Rx d 8 04 00 00 80 48 44 26 00 
0.211200 1 3c8 Rx d 8 01 00 00 00 00 00 00 00 
0.211400 1 401 Rx d 8 08 2a 72 80 6d 80 6b 80 
0.211600 1 422 Rx d 6 f0 00 10 00 00 00 
0.211800 1 423 Rx d 7 00 00 00 00 08 00 00 
0.212100 1 623 Rx d 8 25 01 07 01 07 01 07 01 
0.214300 1 219 Rx d 7 04 74 74 00 00 00 00 
0.215400 1 719 Rx d 8 16 00 00 00 00 00 00 00 
0.216100 1 2aa Rx d 3 7f d0 fb 
0.216300 1 441 Rx d 8 27 00 b6 c3 58 00 2d 8e 
0.216600 1 243 Rx d 8 04 e0 f0 ff fd 7f 43 50 
0.216800 1 2c3 Rx d 8 55 5b a9 b6 02 00 12 a5 
0.217100 1 3a2 Rx d 8 a0 85 72 d6 04 00 43 72 
0.217300 1 421 Rx d 7 00 14 00 00 00 d0 48 
0.217600 1 2c2 Rx d 8 55 a3 a8 b6 02 00 12 a5 
0.217800 1 129 Rx d 8 df 28 cf 5f 00 20 ff 3f 
0.218300 1 724 Rx d 3 06 00 00 
0.218500 1 201 Rx d 8 03 28 01 40 06 00 98 3b 
0.218700 1 118 Rx d 8 fe 6b 32 00 00 48 00 00 
0.219000 1 261 Rx d 8 05 22 cc c8 9a 42 b0 3d 
0.219200 1 266 Rx d 8 00 00 01 24 00 00 9f 01 
0.219400 1 257 Rx d 8 78 4e 1f 00 02 a0 0f 01 
0.219700 1 2c1 Rx d 8 04 00 0d 00 0d 11 08 0f 
0.219900 1 1d8 Rx d 8 29 00 00 00 00 00 a0 a2 
0.220200 1 1e5 Rx d 8 02 ac 04 00 00 00 20 b8 
0.220400 1 132 Rx d 6 25 88 f4 ff 20 40 
0.220600 1 677 Rx d 8 04 00 00 00 00 00 00 00 
0.220800 1 718 Rx d 7 02 00 00 00 00 00 00 
0.221400 1 2f9 Rx d 8 b0 fb 07 20 00 00 00 00 
0.222300 1 788 Rx d 8 d8 cc 91 63 00 00 82 00 
0.223100 1 623 Rx d 8 26 06 01 06 01 05 01 05 
0.224400 1 2e3 Rx d 7 06 00 00 00 00 00 00 
0.226300 1 2e1 Rx d 8 65 80 08 00 e4 f6 8b 6a 
0.226600 1 263 Rx d 8 04 00 00 00 60 14 00 00 
0.226800 1 2e2 Rx d 8 04 00 00 b7 02 1b 00 80 
0.227000 1 3c2 Rx d 8 29 55 00 00 00 00 00 80 
0.227200 1 39d Rx d 5 23 5a 01 28 00 
0.227500 1 45a Rx d 8 fd 07 f8 ff 03 00 00 2d 
0.227800 1 129 Rx d 8 8a 29 cf 5f 00 20 ff 3f 
0.228300 1 288 Rx d 8 03 11 00 40 80 00 21 7f 
0.228500 1 3f9 Rx d 8 07 00 00 00 00 00 00 00 
0.228800 1 3ae Rx d 8 d6 3f 00 08 00 00 b0 ce 
0.229300 1 2a1 Rx d 6 00 00 98 3a 00 00 
0.229500 1 118 Rx d 8 ff 6c 32 00 00 48 00 00 
0.229800 1 1d8 Rx d 8 29 00 00 00 00 00 c0 c2 
0.230000 1 266 Rx d 8 00 00 01 24 00 00 9f 01 
0.230200 1 132 Rx d 6 33 88 f4 ff 1f 40 
0.230500 1 1e5 Rx d 8 02 ac 04 00 00 00 40 d8 
0.230700 1 372 Rx d 8 03 10 0b 50 00 01 00 00 
0.230900 1 401 Rx d 8 09 2a 6d 80 74 80 75 80 
0.232300 1 225 Rx d 4 45 55 fa 00 
0.232600 1 31e Rx d 8 01 00 00 00 00 00 00 00 
0.232700 1 41d Rx d 1 00 
0.233000 1 21d Rx d 8 04 00 35 00 00 00 00 00 
0.233400 1 25d Rx d 8 36 41 01 2a 04 f0 d8 03 
0.233500 1 1fa Rx d 3 02 c0 01 
0.233800 1 25b Rx d 8 d3 c0 02 05 6a 86 e0 c5 
0.234200 1 798 Rx d 8 8a e3 76 3f 14 01 d0 b3 
0.234500 1 221 Rx d 8 61 05 55 55 01 02 a0 d6 
0.234700 1 261 Rx d 8 00 10 28 00 ed 4c c0 27 
0.235400 1 339 Rx d 8 05 e1 02 00 00 02 40 02 
0.236400 1 243 Rx d 8 00 fc cf 0c a8 04 41 49 
0.237800 1 129 Rx d 8 f8 2a cf 5f 01 20 ff 3f 
0.237900 1 229 Rx d 3 46 00 00 
0.238100 1 249 Rx d 4 e2 0a 00 00 
0.238300 1 22a Rx d 4 00 00 c9 15 
0.238500 1 283 Rx d 6 00 00 00 00 00 00 
0.238700 1 118 Rx d 8 00 6d 32 00 00 48 00 00 
0.239000 1 2c1 Rx d 8 48 3c 7e 00 3c fe 02 07 
0.239200 1 266 Rx d 8 00 00 01 24 00 00 9f 01 
0.239400 1 381 Rx d 8 05 4d 8a fc 00 7e c8 28 
0.239700 1 257 Rx d 8 79 4f 1f 00 02 a0 0f 01 
0.239900 1 54f Rx d 8 00 00 00 00 00 00 00 00 
0.240200 1 1d8 Rx d 8 29 00 00 00 00 00 e0 e2 
0.240400 1 132 Rx d 6 2a 88 f5 ff 23 40 
0.240600 1 1e5 Rx d 8 02 ac 04 00 00 00 60 f8 
0.240800 1 242 Rx d 4 55 15 06 05 
0.241000 1 2a8 Rx d 8 02 11 00 00 06 80 80 c3 
0.241200 1 623 Rx d 8 27 01 04 01 04 01 04 01 
0.241500 1 545 Rx d 8 01 00 00 00 00 10 e0 3b 
0.241700 1 23e Rx d 8 f4 01 3a bf fa fc 2f 53 
0.241900 1 6a2 Rx d 5 00 00 00 00 00 
0.242300 1 2e1 Rx d 8 10 21 04 00 12 00 20 08 
0.242600 1 1f9 Rx d 8 00 00 00 00 00 00 00 00 
0.242900 1 78a Rx d 8 01 00 03 00 a5 04 7b 02 
0.243300 1 201 Rx d 8 b8 c1 9a 00 20 7f f1 07 
0.244400 1 3c0 Rx d 8 06 00 00 00 00 00 00 00 
0.245300 1 797 Rx d 4 15 0d d0 8d 
0.246200 1 682 Rx d 8 00 00 00 40 05 02 d0 f7 
0.246400 1 263 Rx d 8 18 7b 4d 07 a0 4f 5f 1f 
0.246700 1 2b3 Rx d 8 02 51 00 00 00 00 00 0f 
0.246900 1 428 Rx d 7 00 00 10 10 00 00 00 
0.247600 1 360 Rx d 8 09 00 00 00 00 00 00 00 
0.247800 1 129 Rx d 8 a4 2b cf 5f 00 20 ff 3f 
0.248500 1 22b Rx d 8 ff ff ff ff ff ff ff ff 
0.249300 1 118 Rx d 8 01 6e 32 00 00 48 00 00 
0.249500 1 119 Rx d 4 00 00 00 00 
0.249700 1 266 Rx d 8 00 00 01 24 00 00 9f 01 
0.249900 1 3a2 Rx d 8 01 10 20 00 0f f0 ff 00 
0.250200 1 1d8 Rx d 8 29 00 00 00 00 00 00 02 
0.250400 1 103 Rx d 8 22 b3 88 04 92 2c 21 02 
0.250600 1 132 Rx d 6 39 88 f5 ff 22 40 
0.250900 1 1e5 Rx d 8 02 ac 04 00 00 00 00 98 
0.251100 1 261 Rx d 8 31 00 40 00 b2 49 da 3c 
0.251300 1 2a6 Rx d 8 00 00 6a 18 00 00 00 00 
0.251600 1 2a7 Rx d 8 00 00 00 00 00 74 05 84 
0.251800 1 142 Rx d 8 28 00 02 5d 00 00 01 00 
0.252100 1 2c7 Rx d 8 00 00 00 00 00 00 48 ff 
0.252300 1 320 Rx d 8 01 00 00 08 00 00 00 00 
0.252500 1 3a1 Rx d 8 e8 4e 0d 8a 01 1c c2 6c 
0.252800 1 3e8 Rx d 8 01 00 00 00 00 00 00 00 
0.253000 1 401 Rx d 8 0a 2a 75 80 6e 80 73 80 
0.253300 1 623 Rx d 8 28 03 01 03 01 02 01 02 
0.253700 1 3ae Rx d 8 d6 3f 00 08 00 00 c1 df 
0.253800 1 213 Rx d 2 48 5d 
0.254100 1 234 Rx d 8 25 50 02 30 c1 04 80 87 
0.254300 1 253 Rx d 8 00 64 34 85 64 62 00 15 
0.254500 1 4f3 Rx d 4 00 00 00 00 
0.254700 1 102 Rx d 8 22 b3 88 04 8c 0c 21 08 
0.256400 1 439 Rx d 8 02 00 40 00 00 14 00 00 
0.256600 1 123 Rx d 8 00 00 12 92 d2 00 00 80 
0.256800 1 243 Rx d 8 01 fc 38 00 45 00 7c 7c 
0.257300 1 2ec Rx d 3 7f d0 3d 
0.257800 1 129 Rx d 8 c4 2c cf 5f 00 20 ff 3f 
0.258300 1 2e1 Rx d 8 39 0d 10 c9 1f 28 10 00 
0.258600 1 118 Rx d 8 02 6f 32 00 00 48 00 00 
0.258800 1 266 Rx d 8 00 00 01 24 00 00 9f 01 
0.259100 1 257 Rx d 8 6a 40 1f 00 02 a0 0f 01 
0.259300 1 2c1 Rx d 8 21 23 2b fa 02 00 00 00 
0.259500 1 108 Rx d 8 19 03 00 02 00 ff ff 0d 
0.259800 1 1d8 Rx d 8 29 00 00 00 00 00 20 22 
0.260000 1 126 Rx d 5 01 b0 1d 18 0d 
0.260200 1 132 Rx d 6 36 88 f5 ff 23 40 
0.260400 1 1e5 Rx d 8 02 ac 04 00 00 00 20 b8 
0.260600 1 128 Rx d 5 80 02 e4 0a 02 
0.260800 1 1d6 Rx d 8 02 08 04 00 0a 48 0b 05 
0.261000 1 211 Rx d 6 93 11 71 0d 00 f1 
0.261200 1 268 Rx d 5 01 01 fa 00 bf 
0.261500 1 285 Rx d 8 04 53 93 47 8b 00 00 00 
0.261700 1 122 Rx d 8 00 00 12 92 12 00 00 00 
0.261900 1 279 Rx d 8 48 03 0d 01 74 05 62 02 
0.262100 1 2b6 Rx d 3 00 1b 00 
0.262300 1 395 Rx d 8 09 0f 12 52 09 01 07 7d 
0.262600 1 340 Rx d 8 04 00 00 00 00 00 00 00 
0.262800 1 397 Rx d 8 00 00 00 d8 1d 00 00 00 
0.263000 1 3a3 Rx d 8 00 d0 00 00 38 03 fc 01 
0.263300 1 677 Rx d 8 00 00 00 00 00 00 00 00 
0.263500 1 7a8 Rx d 8 d4 c4 81 63 00 00 82 00 
0.265400 1 719 Rx d 8 17 00 00 00 00 00 00 00 
0.266300 1 261 Rx d 8 32 2a 80 02 80 5c e2 92 
0.266500 1 263 Rx d 8 e9 6a 5d 07 c0 2f 5f 1f 
0.266800 1 441 Rx d 8 47 85 89 00 32 00 30 20 
0.267400 1 39d Rx d 5 24 5b 01 28 00 
0.267500 1 113 Rx d 3 01 97 01 
0.267700 1 318 Rx d 8 1a 08 2c 07 18 2e 25 db 
0.268000 1 129 Rx d 8 bf 2d cf 5f ff 1f ff 3f 
0.268200 1 458 Rx d 7 00 00 00 00 40 00 00 
0.268400 1 201 Rx d 8 09 04 b8 00 11 00 80 c4 
0.268700 1 272 Rx d 8 06 00 f6 b0 07 48 06 08 
0.268900 1 393 Rx d 8 06 00 f5 b0 07 48 06 08 
0.269100 1 623 Rx d 8 29 01 02 01 01 01 01 01 
0.269400 1 118 Rx d 8 f3 60 32 00 00 48 00 00 
0.269600 1 228 Rx d 8 03 11 00 40 80 00 21 1f 
0.269900 1 1d8 Rx d 8 29 00 00 00 00 00 40 42 
0.270100 1 7d5 Rx d 8 2b 00 e0 fe 00 00 00 00 
0.270300 1 132 Rx d 6 34 88 f4 ff 1e 40 
0.270600 1 266 Rx d 8 00 00 01 24 00 00 9f 01 
0.270800 1 401 Rx d 8 0b 2a 70 80 72 80 70 80 
0.271000 1 1e5 Rx d 8 02 ac 04 00 00 00 40 d8 
0.271300 1 7d5 Rx d 8 2c 00 3f 00 00 00 00 00 
0.271500 1 7d5 Rx d 8 32 00 00 00 00 00 00 00 
0.271600 1 7f4 Rx d 1 01 
0.271900 1 7d7 Rx d 8 32 01 00 00 00 00 00 00 
0.272100 1 7ff Rx d 8 05 09 20 41 20 04 81 00 
0.272400 1 379 Rx d 8 0b 00 00 00 00 00 14 09 
0.273300 1 241 Rx d 7 35 32 4c 0f 8f 45 00 
0.274300 1 2e1 Rx d 8 02 6c 7f 02 21 5f 00 00 
0.274600 1 20c Rx d 8 00 c0 35 18 00 30 09 00 
0.274800 1 381 Rx d 8 46 00 00 00 08 01 00 0f 
0.275000 1 545 Rx d 8 02 00 07 00 00 00 f0 43 
0.275400 1 23a Rx d 8 48 bc 00 2b 00 09 00 00 
0.275600 1 282 Rx d 8 00 00 00 00 ec 33 0b 24 
0.275800 1 7b8 Rx d 8 a2 dd 12 bf 3c 05 d0 7b 
0.276400 1 243 Rx d 8 02 14 29 11 00 4c 00 00 
0.276600 1 3e2 Rx d 7 00 00 80 0a d0 cf 04 
0.276800 1 3c2 Rx d 8 00 55 55 55 00 00 59 45 
0.277100 1 45a Rx d 8 c0 4e ca cd 5f 39 00 38 
0.277800 1 129 Rx d 8 09 2e cf 5f 00 20 ff 3f 
0.278300 1 2c1 Rx d 8 02 0d 06 00 00 d0 92 81 
0.278600 1 118 Rx d 8 f4 61 32 00 00 48 00 00 
0.278800 1 266 Rx d 8 00 00 01 24 00 00 9f 01 
0.279100 1 257 Rx d 8 6b 41 1f 00 02 a0 0f 01 
0.279300 1 139 Rx d 1 00 
0.279500 1 1d8 Rx d 8 29 00 00 00 00 00 60 62 
0.279800 1 1e5 Rx d 8 02 ac 04 00 00 00 60 f8 
0.280000 1 623 Rx d 8 2a 00 01 00 00 ff 00 ff 
0.280200 1 132 Rx d 6 2d 88 f4 ff 22 40 
0.280500 1 4e3 Rx d 8 d5 07 6b 51 00 0a 00 00 
0.281500 1 2e8 Rx d 8 02 11 00 00 06 80 80 03 
0.281700 1 23e Rx d 8 f4 01 3a bf fa fc 3f 63 
0.282300 1 261 Rx d 8 ab 4d 0a 00 00 40 f5 2d 
0.282500 1 1f8 Rx d 4 00 00 00 00 
0.282800 1 3a2 Rx d 8 02 2a 00 00 22 00 00 00 
0.283700 1 409 Rx d 1 00 
0.284300 1 2f1 Rx d 8 0a b1 01 00 00 00 00 00 
0.284500 1 221 Rx d 8 60 55 55 05 54 51 b1 88 
0.286400 1 37a Rx d 8 7b 00 00 00 00 00 00 00 
0.286600 1 263 Rx d 8 02 00 00 00 00 00 00 00 
0.286800 1 343 Rx d 8 00 92 5c 3e 9b 00 00 00 
0.287300 1 2d2 Rx d 8 71 29 a3 4e c4 09 d5 14 
0.287500 1 212 Rx d 8 59 04 00 00 81 ff 77 31 
0.287800 1 129 Rx d 8 f8 2f cf 5f 00 20 ff 3f 
0.288000 1 252 Rx d 8 3f 23 3a 4b 00 fc 0f 00 
0.288200 1 249 Rx d 4 28 0b 00 00 
0.288400 1 292 Rx d 8 34 0a f9 a4 8d 01 00 00 
0.288500 1 2f2 Rx d 2 12 01 
0.288800 1 38b Rx d 8 fe fe 87 10 49 00 25 03 
0.289000 1 400 Rx d 7 00 e0 fb be ef fb 00 
0.289200 1 448 Rx d 7 00 00 10 10 00 00 00 
0.289500 1 118 Rx d 8 f5 62 32 00 00 48 00 00 
0.289700 1 1d8 Rx d 8 29 00 00 00 00 00 80 82 
0.290000 1 266 Rx d 8 00 00 01 24 00 00 9f 01 
0.290200 1 1e5 Rx d 8 02 ac 04 00 00 00 00 98 
0.290400 1 132 Rx d 6 27 88 f5 ff 1e 40 
0.290600 1 20e Rx d 3 16 06 00 
0.290800 1 289 Rx d 8 a6 02 01 00 88 00 3d 0f 
0.291000 1 2e1 Rx d 8 fb 19 ad 19 98 9e 09 00 
0.291300 1 372 Rx d 8 04 00 00 00 00 00 fa 10 
0.291500 1 401 Rx d 8 0c 2a 67 80 66 80 68 80 
0.291700 1 623 Rx d 8 2b 00 ff 00 fe 00 fe 00 
0.291900 1 419 Rx d 1 00 
0.292100 1 712 Rx d 8 01 2a cb 0d e6 0d cf 0d 
0.292200 1 727 Rx d 2 04 00 
0.292500 1 3c3 Rx d 8 00 00 00 00 00 45 00 00 
0.292600 1 3e3 Rx d 4 00 00 00 00 
0.292900 1 7aa Rx d 8 0b 44 00 28 3f 00 34 00 
0.293300 1 201 Rx d 8 02 28 01 40 06 00 b8 39 
0.293600 1 359 Rx d 8 49 00 00 00 00 00 00 00 
0.293800 1 3ae Rx d 8 d6 3f 00 08 00 00 d1 ef 
0.295300 1 3f5 Rx d 8 00 00 b3 08 82 04 00 00 
0.296300 1 2c4 Rx d 8 12 b3 00 a1 0d 52 d5 01 
0.296600 1 243 Rx d 8 03 00 20 00 2e 58 14 00 
0.296800 1 204 Rx d 8 01 00 00 ff 00 00 00 10 
0.297000 1 264 Rx d 6 39 00 00 00 a0 00 
0.297300 1 224 Rx d 8 04 08 00 48 19 01 10 08 
0.297400 1 1bb Rx d 1 02 
0.297600 1 4e2 Rx d 8 45 03 66 41 03 08 00 00 
0.297900 1 129 Rx d 8 1d 20 cf 5f 00 20 ff 3f 
0.298100 1 2b4 Rx d 6 45 05 a1 0d 10 01 
0.298300 1 261 Rx d 8 64 fd 0f 4c 00 40 04 f6 
0.298600 1 118 Rx d 8 f6 63 32 00 00 48 00 00 
0.298800 1 22b Rx d 8 ff ff ff ff ff ff ff ff 
0.299100 1 266 Rx d 8 00 00 01 24 00 00 9f 01 
0.299300 1 257 Rx d 8 6c 42 1f 00 02 a0 0f 01 
0.299600 1 2c1 Rx d 8 23 17 13 00 00 00 00 00 
0.299800 1 1d8 Rx d 8 29 00 00 00 00 00 a0 a2 
0.300000 1 553 Rx d 8 00 00 00 00 00 00 e0 38 
0.300200 1 132 Rx d 6 32 88 f5 ff 23 40 
0.300500 1 1e5 Rx d 8 02 ac 04 00 00 00 20 b8 
0.300700 1 3a1 Rx d 8 29 fa 40 f5 3d 00 d0 25 
0.301000 1 677 Rx d 8 01 00 00 00 00 00 00 00 
0.301600 1 142 Rx d 8 01 00 40 0a c0 1b 00 00 
0.303100 1 623 Rx d 8 2c fd 00 fd 00 fc 00 fc 
0.303600 1 552 Rx d 8 00 00 00 00 00 00 e0 37 
0.304000 1 473 Rx d 8 00 00 03 00 00 00 00 00 
0.304200 1 234 Rx d 8 30 e1 03 80 43 00 94 06 
0.304400 1 324 Rx d 8 85 70 bc 32 a0 01 00 00 
0.304700 1 383 Rx d 8 b9 18 31 00 21 b1 23 5a 
0.304800 1 5f3 Rx d 3 31 4c 09 
0.305000 1 789 Rx d 4 55 19 e0 50 
0.305200 1 253 Rx d 8 01 64 34 85 64 62 00 15 
0.305500 1 3b3 Rx d 8 8c 80 04 30 01 00 a8 80 
0.305800 1 420 Rx d 8 28 01 40 4b 00 00 80 02 
0.306200 1 2d1 Rx d 2 7f 01 
0.306500 1 263 Rx d 8 03 00 00 00 00 00 00 31 
0.306700 1 2b3 Rx d 8 03 46 46 08 00 00 80 3c 
0.306900 1 2e1 Rx d 8 04 00 00 80 48 44 26 00 
0.307100 1 39d Rx d 5 25 5c 01 28 00 
0.307400 1 545 Rx d 8 d0 01 2c e0 9a a1 09 6b 
0.307600 1 39a Rx d 8 fd fd fd fd fd 01 00 02 
0.307800 1 129 Rx d 8 0a 21 cf 5f 00 20 ff 3f 
0.308900 1 3f1 Rx d 8 06 00 00 00 00 00 00 00 
0.309300 1 118 Rx d 8 f7 64 32 00 00 48 00 00 
0.309600 1 266 Rx d 8 00 00 01 24 00 00 9f 01 
0.309800 1 1d8 Rx d 8 29 00 00 00 00 00 c0 c2 
0.310100 1 1e5 Rx d 8 02 ac 04 00 00 00 40 d8 
0.310300 1 132 Rx d 6 38 88 f4 ff 22 40 
0.310500 1 381 Rx d 8 07 00 00 54 7d 27 00 00 
0.310700 1 3c8 Rx d 8 02 00 00 00 00 00 00 00 
0.311000 1 401 Rx d 8 0d 2a 63 80 70 80 65 80 
0.311200 1 422 Rx d 6 f0 00 10 00 00 00 
0.311400 1 423 Rx d 7 00 00 00 00 08 00 00 
0.313700 1 39b Rx d 8 01 06 df e0 b0 48 d1 2d 
0.314300 1 261 Rx d 8 05 22 cc c8 9a 42 10 9d 
0.314500 1 219 Rx d 7 05 00 70 6f 6f 70 00 
0.315400 1 43b Rx d 8 02 7f 04 ff 00 00 00 00 
0.315600 1 34a Rx d 8 01 07 00 00 00 00 00 60 
0.315900 1 3a2 Rx d 8 a0 85 72 d6 04 00 43 72 
0.316100 1 719 Rx d 8 00 03 02 14 14 07 05 00 
0.316300 1 2aa Rx d 3 7f e0 0b 
0.316500 1 243 Rx d 8 04 e4 f0 ff fd 7f 43 50 
0.316700 1 2c3 Rx d 8 00 00 c0 4b 01 00 80 cb 
0.317000 1 441 Rx d 8 27 00 b6 c3 58 00 35 96 
0.317300 1 421 Rx d 7 00 14 00 00 00 d0 48 
0.317600 1 2c2 Rx d 8 20 40 00 4b 01 00 80 cb 
0.317800 1 129 Rx d 8 43 22 cf 5f 00 20 ff 3f 
0.318300 1 2c1 Rx d 8 04 00 0d 00 0d 11 08 0f 
0.318600 1 118 Rx d 8 f8 65 32 00 00 48 00 00 
0.318800 1 201 Rx d 8 03 28 01 40 06 00 98 3b 
0.319100 1 266 Rx d 8 00 00 01 24 00 00 9f 01 
0.319300 1 257 Rx d 8 6d 43 1f 00 02 a0 0f 01 
0.319600 1 1d8 Rx d 8 29 00 00 00 00 00 e0 e2 
0.319800 1 1e5 Rx d 8 02 ac 04 00 00 00 60 f8 
0.320000 1 2bf Rx d 7 0a 00 00 00 4c 00 01 
0.320200 1 132 Rx d 6 3d 88 f4 ff 23 40 
0.320500 1 623 Rx d 8 2d 00 fb 00 fb 00 fb 00 
0.321400 1 2f9 Rx d 8 b0 fb 07 28 00 00 00 00 
0.321600 1 23e Rx d 8 f4 01 3a bf fa fc 4f 73 
0.322300 1 788 Rx d 8 01 00 00 00 ff a1 58 13 
0.322600 1 2e1 Rx d 8 65 80 08 00 e4 f6 8b 6a 
0.326400 1 263 Rx d 8 04 00 00 00 60 14 00 00 
0.326700 1 3a8 Rx d 8 03 00 00 00 00 00 00 00 
0.326900 1 3c2 Rx d 8 29 55 00 00 00 00 00 80 
0.327100 1 45a Rx d 8 fd 07 f8 ff 03 00 00 2d 
0.327800 1 129 Rx d 8 54 23 cf 5f 00 20 ff 3f 
0.328300 1 288 Rx d 8 03 11 00 40 80 00 31 8f 
0.328500 1 3f9 Rx d 8 08 00 00 00 00 00 00 00 
0.329300 1 118 Rx d 8 f9 66 32 00 00 48 00 00 
0.329600 1 266 Rx d 8 00 00 01 24 00 00 9f 01 
0.329800 1 1d8 Rx d 8 29 00 00 00 00 00 00 02 
0.330000 1 1e5 Rx d 8 02 ac 04 00 00 00 00 98 
0.330200 1 132 Rx d 6 2b 88 f5 ff 22 40 
0.330500 1 261 Rx d 8 00 10 28 00 ed 4c 20 87 
0.330700 1 2a1 Rx d 6 00 00 98 3a 00 00 
0.330900 1 401 Rx d 8 0e 2a 73 80 6b 80 69 80 
0.331800 1 623 Rx d 8 2e fa 00 fa 00 f9 00 f9 
0.332300 1 225 Rx d 4 45 55 fa 00 
0.332600 1 75d Rx d 8 52 d1 ac 71 c0 d4 34 42 
0.332900 1 31e Rx d 8 02 00 00 00 00 00 00 00 
0.333000 1 41d Rx d 1 00 
0.333400 1 21d Rx d 8 04 00 35 00 00 00 00 00 
0.333600 1 1fa Rx d 3 02 c0 01 
0.333800 1 25b Rx d 8 d3 c0 02 05 6a 86 f0 d5 
0.334000 1 25d Rx d 8 36 41 01 2a 04 f0 d8 03 
0.334300 1 3ae Rx d 8 d6 3f 00 08 00 00 e1 ff 
0.334500 1 221 Rx d 8 61 05 55 55 01 02 c0 f6 
0.334700 1 798 Rx d 8 b3 73 4b 56 56 09 e0 b2 
0.335500 1 339 Rx d 8 05 e1 02 00 00 02 40 02 
0.336400 1 243 Rx d 8 00 fc cf 0c a8 04 41 49 
0.336500 1 2d7 Rx d 4 6a 29 c2 08 
0.337800 1 129 Rx d 8 d2 24 cf 5f 00 20 ff 3f 
0.337900 1 229 Rx d 3 44 01 00 
0.338100 1 22a Rx d 4 00 00 c9 15 
0.338300 1 249 Rx d 4 3a 0c 00 00 
0.338500 1 283 Rx d 6 00 00 00 00 00 00 
0.338700 1 118 Rx d 8 fa 67 32 00 00 48 00 00 
0.338900 1 2c1 Rx d 8 48 3c 7e 00 3c fe 02 07 
0.339200 1 266 Rx d 8 00 00 01 24 00 00 9f 01 
0.339400 1 2e1 Rx d 8 10 21 04 00 12 00 20 08 
0.339700 1 257 Rx d 8 6e 44 1f 00 02 a0 0f 01 
0.339900 1 54f Rx d 8 00 00 00 00 00 00 00 00 
0.340200 1 1d8 Rx d 8 29 00 00 00 00 00 20 22 
0.340400 1 132 Rx d 6 36 88 f5 ff 22 40 
0.340600 1 1e5 Rx d 8 02 ac 04 00 00 00 20 b8 
0.340800 1 242 Rx d 4 55 15 06 05 
0.341000 1 2a8 Rx d 8 02 11 00 00 06 80 90 d3 
0.341200 1 545 Rx d 8 01 00 00 00 00 10 10 6b 
0.341500 1 677 Rx d 8 02 00 00 00 00 00 00 00 
0.341700 1 6a2 Rx d 5 00 00 00 00 00 
0.342400 1 1f9 Rx d 8 00 00 00 00 00 00 00 00 
0.343100 1 623 Rx d 8 2f 00 f8 00 f8 00 f8 00 
0.343300 1 201 Rx d 8 b8 c1 9a 00 20 7f f1 07 
0.344400 1 3c0 Rx d 8 07 00 00 00 00 00 00 00 
0.344600 1 78a Rx d 8 01 00 04 00 af 04 93 00 
0.345400 1 797 Rx d 4 15 0d e0 9d 
0.346200 1 428 Rx d 7 00 00 10 10 00 00 00 
0.346400 1 261 Rx d 8 31 00 37 00 b2 49 3a 93 
0.346700 1 263 Rx d 8 18 7b 4d 07 a0 4f 5f 1f 
0.346900 1 381 Rx d 8 28 64 3d 3a 01 00 00 08 
0.347200 1 682 Rx d 8 00 00 00 40 05 02 e0 07 
0.347300 1 39d Rx d 5 26 5d 01 28 00 
0.347600 1 360 Rx d 8 0a 00 00 00 00 00 00 00 
0.347900 1 129 Rx d 8 c5 25 cf 5f 00 20 ff 3f 
0.348500 1 22b Rx d 8 ff ff ff ff ff ff ff ff 
0.348700 1 3a2 Rx d 8 01 10 20 00 09 f0 ff 00 
0.349300 1 118 Rx d 8 fb 68 32 00 00 48 00 00 
0.349500 1 119 Rx d 4 00 00 00 00 
0.349700 1 266 Rx d 8 00 00 01 24 00 00 9f 01 
0.350000 1 1d8 Rx d 8 29 00 00 00 00 00 40 42 
0.350200 1 1e5 Rx d 8 02 ac 04 00 00 00 40 d8 
0.350400 1 103 Rx d 8 22 b3 88 04 92 2c 21 02 
0.350600 1 132 Rx d 6 2d 88 f5 ff 24 40 
0.350900 1 2a6 Rx d 8 00 00 6a 18 00 00 00 00 
0.351100 1 2a7 Rx d 8 00 00 00 00 00 74 05 84 
0.351400 1 2c7 Rx d 8 00 00 00 00 00 00 48 ff 
0.351600 1 372 Rx d 8 05 46 3b 0d 00 00 00 00 
0.351900 1 142 Rx d 8 28 00 02 5d 00 00 01 00 
0.352100 1 3a1 Rx d 8 e8 4e 0d 8a 01 1c e2 8c 
0.352300 1 3e8 Rx d 8 02 00 00 00 00 00 00 00 
0.352600 1 401 Rx d 8 0f 2a 64 80 77 80 7d 80 
0.354000 1 234 Rx d 8 25 50 02 30 c1 04 a0 a7 
0.354300 1 4f Rx d 8 65 94 5c 51 c3 5b 67 18 
0.354500 1 2e1 Rx d 8 39 0d 10 c9 1f 28 10 00 
0.354700 1 102 Rx d 8 22 b3 88 04 8c 0c 21 08 
0.354900 1 333 Rx d 5 04 10 e8 07 00 
0.355100 1 334 Rx d 8 bf 3f 0a 04 ff 01 11 54 
0.355300 1 3bc Rx d 4 00 00 00 00 
0.355600 1 3fd Rx d 8 00 00 00 3c 20 00 01 80 
0.355700 1 748 Rx d 5 32 25 0c 00 00 
0.356400 1 439 Rx d 8 02 00 40 00 00 14 00 00 
0.356600 1 123 Rx d 8 01 00 00 00 00 3f 00 00 
0.356900 1 243 Rx d 8 01 fc 38 00 45 00 7c 7c 
0.357400 1 2ec Rx d 3 7f e0 4d 
0.357800 1 129 Rx d 8 1f 26 cf 5f 00 20 ff 3f 
0.358200 1 7aa Rx d 8 0c 00 00 00 00 00 00 39 
0.358400 1 2c1 Rx d 8 21 23 2b fa 02 00 00 00 
0.358700 1 118 Rx d 8 fc 69 32 00 00 48 00 00 
0.358900 1 266 Rx d 8 00 00 01 24 00 00 9f 01 
0.359200 1 31a Rx d 8 60 fc ff 02 00 00 f0 6a 
0.359400 1 257 Rx d 8 6f 45 1f 00 02 a0 0f 01 
0.359600 1 108 Rx d 8 1c 04 00 02 00 00 00 0d 
0.359900 1 1d8 Rx d 8 29 00 00 00 00 00 60 62 
0.360100 1 126 Rx d 5 01 b0 1d 20 15 
0.360300 1 132 Rx d 6 2e 88 f4 ff 1f 40 
0.360500 1 1e5 Rx d 8 02 ac 04 00 00 00 60 f8 
0.360700 1 128 Rx d 5 80 02 e4 0a 02 
0.360900 1 1d6 Rx d 8 02 08 04 00 0a 48 11 05 
0.361100 1 268 Rx d 5 01 01 fa 00 bf 
0.361400 1 279 Rx d 8 49 04 0d 01 74 05 62 02 
0.361500 1 211 Rx d 6 94 12 71 0d 00 f1 
0.361800 1 122 Rx d 8 01 00 00 00 00 3f 00 00 
0.362000 1 23e Rx d 8 f4 01 3a bf fa fc 5f 83 
0.362200 1 2b6 Rx d 3 00 03 00 
0.362400 1 261 Rx d 8 32 2a 80 02 80 5c 42 f2 
0.362700 1 340 Rx d 8 05 00 00 00 00 00 00 00 
0.362900 1 395 Rx d 8 09 0f 12 52 09 01 07 7d 
0.363100 1 3a3 Rx d 8 00 d0 00 00 38 03 fc 01 
0.363400 1 397 Rx d 8 00 00 00 d8 1d 00 00 00 
0.363600 1 623 Rx d 8 20 f7 00 f7 00 f6 00 f6 
0.363900 1 7a8 Rx d 8 01 00 00 00 ff a1 58 13 
0.364100 1 3ae Rx d 8 d6 3f 00 08 00 00 f0 0e 
0.365400 1 42a Rx d 8 63 d5 62 b5 56 6d 56 aa 
0.365600 1 719 Rx d 8 01 06 00 00 00 00 00 00 
0.366300 1 441 Rx d 8 47 85 89 00 32 00 38 28 
0.366600 1 263 Rx d 8 e9 6a 5d 07 c0 2f 5f 1f 
0.366800 1 2b3 Rx d 8 64 e2 c4 7e fd 20 0f 41 
0.367500 1 113 Rx d 3 01 97 01 
0.367600 1 7f4 Rx d 1 01 
0.367800 1 129 Rx d 8 08 27 cf 5f 00 20 ff 3f 
0.368100 1 318 Rx d 8 1a 08 2c 07 18 2e 27 dd 
0.368300 1 458 Rx d 7 00 00 00 00 40 00 00 
0.368500 1 201 Rx d 8 09 04 b8 00 11 00 80 c4 
0.368800 1 272 Rx d 8 09 80 63 00 00 00 00 00 
0.369000 1 393 Rx d 8 09 80 63 00 00 00 00 00 
0.369200 1 405 Rx d 8 12 43 32 35 36 38 32 33 
0.369500 1 118 Rx d 8 fd 6a 32 00 00 48 00 00 
0.369700 1 228 Rx d 8 03 11 00 40 80 00 31 2f 
0.370000 1 1d8 Rx d 8 29 00 00 00 00 00 80 82 
0.370200 1 414 Rx d 8 12 20 20 20 20 20 20 20 
0.370400 1 132 Rx d 6 2e 88 f4 ff 1f 40 
0.370600 1 266 Rx d 8 00 00 01 24 00 00 9f 01 
0.370900 1 2e1 Rx d 8 02 6c 7f 02 21 5f 00 00 
0.371100 1 1e5 Rx d 8 02 ac 04 00 00 00 00 98 
0.371400 1 401 Rx d 8 10 2a 74 80 68 80 71 80 
0.371600 1 55a Rx d 8 04 00 00 00 00 00 00 00 
0.371800 1 623 Rx d 8 21 00 f6 00 f5 00 f5 00 
0.372000 1 666 Rx d 4 00 00 a0 00 
0.372300 1 7d5 Rx d 8 2b 00 e0 fe 00 00 00 00 
0.372500 1 379 Rx d 8 00 00 0e 48 33 bf 21 00 
0.372700 1 7d5 Rx d 8 2c 00 3f 00 00 00 00 00 
0.373000 1 7ff Rx d 8 06 84 32 00 00 00 08 c0 
0.373200 1 7d5 Rx d 8 32 00 00 00 00 00 00 00 
0.373500 1 241 Rx d 7 35 32 4c 0f 8f 45 00 
0.373700 1 545 Rx d 8 02 00 07 00 00 00 20 73 
0.373900 1 7d7 Rx d 8 32 01 00 00 00 00 00 00 
0.374400 1 20c Rx d 8 00 c0 35 18 00 30 09 00 
0.375400 1 7b8 Rx d 8 6b 54 5a 50 6a 0a e0 d7 
0.375700 1 282 Rx d 8 00 00 00 00 ec 33 0b 24 
0.376400 1 243 Rx d 8 02 14 29 11 00 4c 00 00 
0.376600 1 40a Rx d 8 01 00 01 00 00 00 f0 00 
0.376900 1 3c2 Rx d 8 00 55 55 55 00 00 59 45 
0.377100 1 45a Rx d 8 c0 4e ca cd 5f 39 00 38 
0.377800 1 129 Rx d 8 df 28 cf 5f 00 20 ff 3f 
0.378300 1 261 Rx d 8 ab 4d 0a 00 00 40 55 8d 
0.378600 1 118 Rx d 8 fe 6b 32 00 00 48 00 00 
0.378800 1 266 Rx d 8 00 00 01 24 00 00 9f 01 
0.379000 1 257 Rx d 8 70 46 1f 00 02 a0 0f 01 
0.379300 1 2c1 Rx d 8 02 0d 06 00 06 d0 92 81 
0.379400 1 139 Rx d 1 00 
0.379600 1 1d8 Rx d 8 29 00 00 00 00 00 a0 a2 
0.379900 1 1e5 Rx d 8 02 ac 04 00 00 00 20 b8 
0.380100 1 677 Rx d 8 03 00 00 00 00 00 00 00 
0.380300 1 132 Rx d 6 27 88 f5 ff 20 40 
0.380600 1 4e3 Rx d 8 06 00 00 00 00 00 00 00 
0.380800 1 752 Rx d 8 0b 00 00 00 00 00 00 00 
0.381500 1 2e8 Rx d 8 02 11 00 00 06 80 90 13 
0.381700 1 3a2 Rx d 8 02 2a 00 00 22 00 00 00 
0.382000 1 3cc Rx d 8 03 11 43 1b 18 0e 09 00 
0.382400 1 381 Rx d 8 09 00 02 82 30 00 00 6c 
0.382500 1 1f8 Rx d 4 00 00 00 00 
0.383100 1 623 Rx d 8 22 f4 00 f4 00 f3 00 f3 
0.384200 1 409 Rx d 1 00 
0.384400 1 221 Rx d 8 60 55 55 05 54 51 d1 a8 
0.384600 1 2f1 Rx d 8 2b 6e 00 86 00 00 00 00 
0.386300 1 2e1 Rx d 8 fb 19 af 19 98 a0 09 00 
0.386600 1 263 Rx d 8 02 00 00 00 00 00 00 00 
0.386800 1 343 Rx d 8 00 92 64 6e 9b 00 00 00 
0.387000 1 37a Rx d 8 d0 00 00 00 00 00 00 00 
0.387200 1 39d Rx d 5 27 5e 01 28 00 
0.387500 1 212 Rx d 8 59 04 00 00 81 ff 77 31 
0.387700 1 252 Rx d 8 3f 23 3a 4b 00 fc 0f 00 
0.387900 1 129 Rx d 8 8a 29 cf 5f 00 20 ff 3f 
0.388200 1 292 Rx d 8 34 0a f9 a4 8d 01 00 00 
0.388300 1 249 Rx d 4 13 0d 00 00 
0.388600 1 2d2 Rx d 8 70 29 a3 4e c4 09 d5 14 
0.388700 1 2f2 Rx d 2 12 01 
0.388900 1 352 Rx d 8 02 65 05 64 05 48 80 43 
0.389200 1 3b2 Rx d 8 18 1a 00 65 00 a0 ff 2d 
0.389400 1 118 Rx d 8 ff 6c 32 00 00 48 00 00 
0.389600 1 1d8 Rx d 8 29 00 00 00 00 00 c0 c2 
0.389900 1 266 Rx d 8 00 00 01 24 00 00 9f 01 
0.390100 1 1e5 Rx d 8 02 ac 04 00 00 00 40 d8 
0.390400 1 289 Rx d 8 a6 02 01 c0 a5 00 3d 0f 
0.390600 1 132 Rx d 6 2b 88 f4 ff 22 40 
0.390800 1 400 Rx d 7 00 e0 fb be ef fb 00 
0.390900 1 20e Rx d 3 17 07 00 
0.391200 1 401 Rx d 8 11 2a 71 80 6d 80 5e 80 
0.391400 1 448 Rx d 7 00 00 10 10 00 00 00 
0.391500 1 419 Rx d 1 00 
0.391700 1 712 Rx d 8 02 2a c4 0d df 0d e3 0d 
0.392400 1 3c3 Rx d 8 55 55 55 01 00 80 43 00 
0.393300 1 201 Rx d 8 02 28 01 40 06 00 b8 39 
0.393600 1 359 Rx d 8 4a 04 00 00 9f a0 6f b2 
0.394300 1 261 Rx d 8 64 fd 0f 4c 00 40 64 56 
0.395300 1 3f5 Rx d 8 00 00 b3 08 82 04 00 00 
0.396200 1 2c4 Rx d 8 13 9e 00 9f 0d 3d 95 01 
0.396500 1 243 Rx d 8 03 00 20 00 2e 58 14 00 
0.396700 1 204 Rx d 8 01 00 00 ff 00 00 00 10 
0.396900 1 264 Rx d 6 39 00 00 00 a0 00 
0.397200 1 224 Rx d 8 04 08 00 48 19 01 10 08 
0.397400 1 2b4 Rx d 6 4c 05 a1 0d 0c 01 
0.397600 1 4e2 Rx d 8 06 00 00 00 00 00 00 00 
0.397900 1 129 Rx d 8 3c 2a cf 5f ff 1f ff 3f 
0.398400 1 2c1 Rx d 8 23 17 13 00 00 00 00 00 
0.398600 1 118 Rx d 8 00 6d 32 00 00 48 00 00 
0.398800 1 22b Rx d 8 ff ff ff ff ff ff ff ff 
0.399100 1 266 Rx d 8 00 00 01 24 00 00 9f 01 
0.399300 1 257 Rx d 8 71 47 1f 00 02 a0 0f 01 
0.399600 1 1d8 Rx d 8 29 00 00 00 00 00 e0 e2 
0.399800 1 1e5 Rx d 8 02 ac 04 00 00 00 60 f8 
0.400100 1 553 Rx d 8 00 00 00 00 00 00 f0 48 
0.400300 1 132 Rx d 6 1d 88 f4 ff 22 40 
0.400500 1 3a1 Rx d 8 29 fa 40 01 3e 00 f0 52 
0.400700 1 623 Rx d 8 23 00 f2 00 f2 00 f2 00 
0.401600 1 142 Rx d 8 01 00 40 0a c0 1b 00 00 
0.401900 1 23e Rx d 8 f4 01 3a bf fa fc 6f 93 
0.402300 1 2e1 Rx d 8 04 00 00 80 48 44 26 00 
0.403600 1 552 Rx d 8 00 00 00 00 00 00 f0 47 
0.403800 1 3bb Rx d 3 14 0f 14 
0.404000 1 3ae Rx d 8 d6 3f 00 08 00 00 00 1e 
0.404200 1 234 Rx d 8 30 e1 03 80 43 00 b4 26 
0.404500 1 2f3 Rx d 8 0e 0e 0b 00 00 20 00 00 
0.404700 1 383 Rx d 8 b9 18 31 00 21 b1 23 5a 
0.405000 1 273 Rx d 8 81 e1 10 00 b3 00 10 01 
0.405200 1 33a Rx d 8 87 34 63 b3 fd ff 03 45 
0.405400 1 3fd Rx d 8 01 00 02 00 00 08 12 80 
0.405600 1 789 Rx d 4 55 19 f0 60 
0.405800 1 420 Rx d 8 28 01 40 4b 00 00 00 03 
0.406200 1 2d1 Rx d 2 7f 01 
0.406500 1 263 Rx d 8 03 00 00 00 00 00 00 31 
0.406700 1 545 Rx d 8 80 01 2c f0 9a a2 39 5c 
0.407400 1 39a Rx d 8 20 23 ef 92 ff fd fd 11 
0.407800 1 129 Rx d 8 a4 2b cf 5f 00 20 ff 3f 
0.409300 1 118 Rx d 8 01 6e 32 00 00 48 00 00 
0.409500 1 266 Rx d 8 00 00 01 24 00 00 9f 01 
0.409800 1 1d8 Rx d 8 29 00 00 00 00 00 00 02 
0.410000 1 1e5 Rx d 8 02 ac 04 00 00 00 00 98 
0.410200 1 132 Rx d 6 27 88 f4 ff 20 40 
0.410400 1 261 Rx d 8 05 22 cc c8 9a 42 70 fd 
0.410700 1 372 Rx d 8 06 4a db 1a 58 a3 0f 01 
0.410900 1 3c8 Rx d 8 03 00 00 00 00 00 00 00 
0.411100 1 401 Rx d 8 12 2a 60 80 67 80 62 80 
0.411300 1 422 Rx d 6 f0 00 10 00 00 00 
0.411600 1 423 Rx d 7 00 00 00 00 08 00 00 
0.411800 1 623 Rx d 8 24 f1 00 f1 00 f0 00 f0 
0.414300 1 219 Rx d 7 00 00 4c 4d 97 a8 04 
0.414600 1 3a2 Rx d 8 a0 85 72 d8 04 00 43 72 
0.415400 1 719 Rx d 8 ee c1 00 00 60 00 00 14 
0.416100 1 2aa Rx d 3 7f f0 1b 
0.416400 1 441 Rx d 8 27 00 b6 c3 58 00 3d 9e 
0.416600 1 243 Rx d 8 04 e4 f0 ff fd 7f 43 50 
0.416800 1 2c3 Rx d 8 55 5b a9 b6 02 00 12 a5 
0.417300 1 421 Rx d 7 00 14 00 00 00 d0 48 
0.417500 1 399 Rx d 3 00 00 00 
0.417700 1 2c2 Rx d 8 55 a3 a8 b6 02 00 12 a5 
0.418000 1 129 Rx d 8 c4 2c cf 5f 00 20 ff 3f 
0.418400 1 321 Rx d 8 88 ae aa 93 01 91 d0 f9 
0.418700 1 118 Rx d 8 02 6f 32 00 00 48 00 00 
0.418900 1 201 Rx d 8 03 28 01 40 06 00 98 3b 
0.419100 1 266 Rx d 8 00 00 01 24 00 00 9f 01 
0.419400 1 257 Rx d 8 72 48 1f 00 02 a0 0f 01 
0.419600 1 1d8 Rx d 8 29 00 00 00 00 00 20 22 
0.419900 1 2c1 Rx d 8 04 00 0d 00 0d 11 08 0f 
0.420100 1 1e5 Rx d 8 02 ac 04 00 00 00 20 b8 
0.420300 1 132 Rx d 6 24 88 f4 ff 22 40 
0.420500 1 2e1 Rx d 8 65 80 08 00 e4 f6 8b 6a 
0.420800 1 381 Rx d 8 0a c0 62 02 00 ec 76 00 
0.421000 1 677 Rx d 8 04 00 00 00 00 00 00 00 
0.421200 1 718 Rx d 7 03 00 00 00 00 00 00 
0.421500 1 2f9 Rx d 8 b0 fb 07 01 9f a0 6f b2 
0.422300 1 788 Rx d 8 02 40 cc e7 4d 03 00 00 
0.423100 1 623 Rx d 8 25 00 ef 00 ef 00 ef 00 
0.424400 1 2e3 Rx d 7 f7 d3 4f 3f dd 74 11 
0.426300 1 261 Rx d 8 00 10 28 00 ed 4c 80 e7 
0.426600 1 263 Rx d 8 04 00 00 00 60 14 00 00 
0.426800 1 2b3 Rx d 8 45 10 3a 00 8d 81 9b 9b 
0.427000 1 2e2 Rx d 8 05 00 00 af 02 1b 00 80 
0.427200 1 39d Rx d 5 28 5f 01 28 00 
0.427500 1 3c2 Rx d 8 29 55 00 00 00 00 00 80 
0.427700 1 45a Rx d 8 fd 07 f8 ff 03 00 00 2d 
0.427900 1 129 Rx d 8 d6 2d cf 5f 00 20 ff 3f 
0.428300 1 288 Rx d 8 03 11 00 40 80 00 41 9f 
0.428600 1 3f9 Rx d 8 00 00 00 00 00 00 00 00 
0.429300 1 118 Rx d 8 f3 60 32 00 00 48 00 00 
0.429600 1 266 Rx d 8 00 00 01 24 00 00 9f 01 
0.429800 1 2a1 Rx d 6 00 00 98 3a 00 00 
0.430000 1 1d8 Rx d 8 29 00 00 00 00 00 40 42 
0.430200 1 132 Rx d 6 2c 88 f4 ff 23 40 
0.430500 1 1e5 Rx d 8 02 ac 04 00 00 00 40 d8 
0.430700 1 401 Rx d 8 13 2a 64 80 64 80 61 80 
0.432300 1 225 Rx d 4 45 55 fa 00 
0.432600 1 31e Rx d 8 03 00 00 00 00 00 00 00 
0.432700 1 41d Rx d 1 00 
0.433000 1 21d Rx d 8 04 00 35 00 00 00 00 00 
0.433400 1 25d Rx d 8 36 41 01 2a 04 f0 d8 03 
0.433600 1 1fa Rx d 3 02 c0 01 
0.433800 1 25b Rx d 8 d3 c0 02 05 6a 86 00 e5 
0.434300 1 798 Rx d 8 1c 8b 5f fd f2 0b f0 9c 
0.434500 1 221 Rx d 8 61 05 55 55 01 02 e0 16 
0.434700 1 2e1 Rx d 8 10 21 04 00 12 00 20 08 
0.435500 1 339 Rx d 8 05 e1 02 00 00 02 40 02 
0.436400 1 243 Rx d 8 00 fc cf 0c a8 04 41 49 
0.437800 1 129 Rx d 8 09 2e cf 5f 00 20 ff 3f 
0.437900 1 229 Rx d 3 52 02 00 
0.438100 1 249 Rx d 4 af 0e 00 00 
0.438300 1 22a Rx d 4 00 00 c9 15 
0.438500 1 283 Rx d 6 00 00 00 00 00 00 
0.438700 1 118 Rx d 8 f4 61 32 00 00 48 00 00 
0.439000 1 2c1 Rx d 8 48 3c 7e 00 3c fe 02 07 
0.439200 1 266 Rx d 8 00 00 01 24 00 00 9f 01 
0.439500 1 545 Rx d 8 01 00 00 00 00 10 40 9b 
0.439700 1 257 Rx d 8 73 49 1f 00 02 a0 0f 01 
0.439900 1 54f Rx d 8 00 00 00 00 00 00 00 00 
0.440200 1 1d8 Rx d 8 29 00 00 00 00 00 60 62 
0.440400 1 132 Rx d 6 2c 88 f5 ff 20 40 
0.440600 1 1e5 Rx d 8 02 ac 04 00 00 00 60 f8 
0.440800 1 242 Rx d 4 55 15 06 05 
0.441000 1 2a8 Rx d 8 02 11 00 00 06 80 a0 e3 
0.441300 1 623 Rx d 8 26 ee 00 ee 00 ed 00 ed 
0.441500 1 6a2 Rx d 5 00 00 00 00 00 
0.441700 1 23e Rx d 8 f4 01 3a bf fa fc 7f a3 
0.441900 1 7aa Rx d 8 c0 ef 8e 3c 00 08 8c 29 
0.442300 1 261 Rx d 8 31 00 2c 00 b2 49 9a e8 
0.442600 1 1f9 Rx d 8 00 00 00 00 00 00 00 00 
0.443100 1 78a Rx d 8 01 00 05 00 9d 0d 07 00 
0.443300 1 201 Rx d 8 b8 c1 9a 00 20 7b f1 07 
0.443700 1 3ae Rx d 8 d6 3f 00 08 00 00 10 2e 
0.444400 1 3c0 Rx d 8 08 00 00 00 00 00 00 00 
0.444700 1 310 Rx d 8 12 87 f5 81 33 6c e7 1a 
0.445400 1 797 Rx d 4 15 0d f0 ad 
0.446200 1 428 Rx d 7 00 00 10 10 00 00 00 
0.446400 1 263 Rx d 8 18 7b 4d 07 a0 4f 5f 1f 
0.446900 1 682 Rx d 8 00 00 00 40 05 02 f0 17 
0.447600 1 360 Rx d 8 00 00 00 00 02 00 00 00 
0.447900 1 129 Rx d 8 f8 2f cf 5f 00 20 ff 3f 
0.448100 1 3a2 Rx d 8 01 10 20 00 0b f0 ff 00 
0.448500 1 22b Rx d 8 ff ff ff ff ff ff ff ff 
0.449300 1 118 Rx d 8 f5 62 32 00 00 48 00 00 
0.449400 1 119 Rx d 4 00 00 00 00 
0.449700 1 266 Rx d 8 00 00 01 24 00 00 9f 01 
0.449900 1 1d8 Rx d 8 29 00 00 00 00 00 80 82 
0.450200 1 1e5 Rx d 8 02 ac 04 00 00 00 00 98 
0.450400 1 103 Rx d 8 22 b3 88 04 92 2c 21 02 
0.450600 1 132 Rx d 6 17 88 f5 ff 22 40 
0.450900 1 2a6 Rx d 8 00 00 6a 18 00 00 00 00 
0.451100 1 2a7 Rx d 8 00 00 00 00 00 74 05 84 
0.451300 1 2c7 Rx d 8 00 00 00 00 00 00 48 ff 
0.451600 1 2e1 Rx d 8 39 0d 10 c9 1f 28 10 00 
0.451800 1 142 Rx d 8 28 00 02 5d 00 00 01 00 
0.452100 1 320 Rx d 8 02 00 00 00 00 00 00 00 
0.452300 1 3a1 Rx d 8 e8 4e 0d 8a 01 1c 02 ac 
0.452500 1 3e8 Rx d 8 03 00 00 00 00 00 00 00 
0.452800 1 401 Rx d 8 14 2a 6e 80 6c 80 69 80 
0.453000 1 623 Rx d 8 27 00 ec 00 ec 00 ec 00 
0.453800 1 294 Rx d 8 14 c1 40 00 00 00 00 00 
0.454100 1 234 Rx d 8 25 50 02 30 c1 04 c0 c7 
0.454300 1 381 Rx d 8 0b 00 00 c8 00 00 00 06 
0.454600 1 102 Rx d 8 22 b3 88 04 8c 0c 21 08 
0.456100 1 3fd Rx d 8 02 00 00 00 00 00 00 90 
0.456400 1 439 Rx d 8 02 00 40 00 00 14 00 00 
0.456600 1 123 Rx d 8 00 00 12 92 d2 00 00 80 
0.456800 1 243 Rx d 8 01 fc 39 00 45 00 7c 7c 
0.457100 1 70b Rx d 8 06 86 5c 9e 11 36 00 00 
0.457400 1 2ec Rx d 3 7f f0 5d 
0.457800 1 129 Rx d 8 1d 20 cf 5f 00 20 ff 3f 
0.458300 1 261 Rx d 8 32 2a 80 02 80 5c a2 52 
0.458600 1 118 Rx d 8 f6 63 32 00 00 48 00 00 
0.458800 1 2c1 Rx d 8 21 23 2b fa 02 00 00 00 
0.459100 1 266 Rx d 8 00 00 01 24 00 00 9f 01 
0.459300 1 108 Rx d 8 1d 05 00 02 00 00 00 0d 
0.459500 1 257 Rx d 8 74 4a 1f 00 02 a0 0f 01 
0.459700 1 126 Rx d 5 01 b0 1d 28 1d 
0.460000 1 1d8 Rx d 8 29 00 00 00 00 00 a0 a2 
0.460100 1 128 Rx d 5 80 02 e4 0a 02 
0.460300 1 132 Rx d 6 23 88 f4 ff 22 40 
0.460600 1 1e5 Rx d 8 02 ac 04 00 00 00 20 b8 
0.460800 1 1d6 Rx d 8 02 08 04 00 0a 08 0e 05 
0.461000 1 268 Rx d 5 01 01 fa 00 bf 
0.461200 1 211 Rx d 6 95 13 71 0d 00 f1 
0.461400 1 279 Rx d 8 4a 05 0d 01 74 05 62 02 
0.461700 1 122 Rx d 8 00 00 12 92 12 00 00 00 
0.461800 1 2b6 Rx d 3 00 03 00 
0.462100 1 395 Rx d 8 09 0f 12 52 09 01 07 7d 
0.462300 1 397 Rx d 8 00 00 00 d8 1d 00 00 00 
0.462600 1 340 Rx d 8 06 00 00 00 00 00 00 00 
0.462800 1 3a3 Rx d 8 00 d0 00 00 38 03 fc 01 
0.463000 1 677 Rx d 8 00 00 00 00 00 00 00 00 
0.463500 1 7a8 Rx d 8 02 40 d0 57 4d 07 00 00 
0.464500 1 3ae Rx d 8 d6 3f 00 08 00 00 21 3f 
0.465400 1 719 Rx d 8 0c 76 0f 00 50 00 20 00 
0.466300 1 2e1 Rx d 8 02 6c 7f 02 21 5e 00 00 
0.466600 1 263 Rx d 8 e9 6a 5d 07 c0 2f 5f 1f 
0.466800 1 441 Rx d 8 47 85 89 00 32 00 00 f0 
0.467400 1 39d Rx d 5 19 50 01 28 00 
0.467600 1 113 Rx d 3 01 97 01 
0.467800 1 129 Rx d 8 0a 21 cf 5f 00 20 ff 3f 
0.467900 1 7f4 Rx d 1 01 
0.468200 1 7ff Rx d 8 07 20 80 44 40 00 02 20 
0.468400 1 201 Rx d 8 09 04 b8 00 11 00 80 c4 
0.468600 1 272 Rx d 8 06 00 f6 b0 07 48 06 08 
0.468900 1 318 Rx d 8 1a 08 2c 07 18 2e 29 df 
0.469100 1 393 Rx d 8 06 00 f5 b0 07 48 06 08 
0.469300 1 118 Rx d 8 f7 64 32 00 00 48 00 00 
0.469600 1 228 Rx d 8 03 11 00 40 80 00 41 3f 
0.469800 1 266 Rx d 8 00 00 01 24 00 00 9f 01 
0.470000 1 458 Rx d 7 00 00 00 00 40 00 00 
0.470200 1 132 Rx d 6 22 88 f4 ff 23 40 
0.470500 1 1d8 Rx d 8 29 00 00 00 00 00 c0 c2 
0.470700 1 372 Rx d 8 07 00 00 00 00 00 00 00 
0.471000 1 1e5 Rx d 8 02 ac 04 00 00 00 40 d8 
0.471200 1 401 Rx d 8 15 2a 6b 80 68 80 7b 80 
0.471400 1 623 Rx d 8 28 eb 00 eb 00 ea 00 ea 
0.471700 1 7d5 Rx d 8 2b 00 e0 fe 00 00 00 00 
0.471900 1 7d5 Rx d 8 2c 00 3f 00 00 00 00 00 
0.472200 1 7d5 Rx d 8 32 00 00 00 00 00 00 00 
0.472400 1 379 Rx d 8 01 00 0d 48 33 bf 21 00 
0.472700 1 545 Rx d 8 02 00 06 00 00 00 50 a2 
0.472900 1 7d7 Rx d 8 32 01 00 00 00 00 00 00 
0.473300 1 241 Rx d 7 35 32 4c 0f 8f 45 00 
0.474300 1 261 Rx d 8 ab 4d 0a 00 00 40 b5 ed 
0.474600 1 20c Rx d 8 00 c0 35 18 00 30 09 00 
0.475500 1 7b8 Rx d 8 fc 17 5f 00 00 00 f0 7c 
0.475700 1 282 Rx d 8 00 00 00 00 ec 33 0b 24 
0.476400 1 243 Rx d 8 02 14 31 11 00 4c 00 00 
0.476600 1 3e2 Rx d 7 00 00 80 0a d0 cf 04 
0.476800 1 3c2 Rx d 8 00 55 55 55 00 00 59 45 
0.477100 1 45a Rx d 8 c0 4e ca cd 5f 39 00 39 
0.477800 1 129 Rx d 8 43 22 cf 5f 00 20 ff 3f 
0.478300 1 2c1 Rx d 8 02 0d 06 00 00 d0 92 81 
0.478600 1 118 Rx d 8 f8 65 32 00 00 48 00 00 
0.478800 1 266 Rx d 8 00 00 01 24 00 00 9f 01 
0.478900 1 744 Rx d 1 00 
0.479200 1 257 Rx d 8 75 4b 1f 00 02 a0 0f 01 
0.479300 1 139 Rx d 1 00 
0.479500 1 1d8 Rx d 8 29 00 00 00 00 00 e0 e2 
0.479800 1 1e5 Rx d 8 02 ac 04 00 00 00 60 f8 
0.480200 1 132 Rx d 6 2a 88 f4 ff 20 40 
0.480400 1 4e3 Rx d 8 07 00 00 00 00 00 00 00 
0.480700 1 3a2 Rx d 8 f2 29 00 00 22 00 00 00 
0.481500 1 23e Rx d 8 f4 01 3a bf fa fc 8f b3 
0.481700 1 2e8 Rx d 8 02 11 00 00 06 80 a0 23 
0.482300 1 2e1 Rx d 8 fb 19 ae 19 98 a6 09 00 
0.482600 1 1f8 Rx d 4 00 00 00 00 
0.483100 1 623 Rx d 8 29 00 ea 00 e9 00 e9 00 
0.483700 1 409 Rx d 1 00 
0.484300 1 2f1 Rx d 8 0c a5 00 90 19 00 00 00 
0.484600 1 221 Rx d 8 60 55 55 05 54 51 f1 c8 
0.486400 1 37a Rx d 8 b1 00 00 00 00 00 00 00 
0.486600 1 263 Rx d 8 02 00 00 00 00 00 00 00 
0.486900 1 2b3 Rx d 8 06 64 9e dc 0e 7e f0 d4 
0.487100 1 343 Rx d 8 00 92 5c 3e 9b 00 00 00 
0.487300 1 212 Rx d 8 59 04 00 00 81 ff 77 31 
0.487600 1 252 Rx d 8 3f 23 3a 4b 00 fc 0f 00 
0.487800 1 129 Rx d 8 3d 23 cf 5f ff 1f ff 3f 
0.488000 1 292 Rx d 8 34 0a f9 a4 8d 01 00 00 
0.488200 1 249 Rx d 4 ce 0f 00 00 
0.488400 1 2d2 Rx d 8 70 29 a3 4e c4 09 d5 14 
0.488600 1 2f2 Rx d 2 12 01 
0.488800 1 400 Rx d 7 00 e0 fb be ef fb 00 
0.489000 1 448 Rx d 7 00 00 10 10 00 00 00 
0.489200 1 712 Rx d 8 03 2a ea 0d ff 0d f6 0d 
0.489500 1 118 Rx d 8 f9 66 32 00 00 48 00 00 
0.489700 1 1d8 Rx d 8 29 00 00 00 00 00 00 02 
0.490000 1 289 Rx d 8 a6 02 01 00 99 00 3d 0f 
0.490200 1 266 Rx d 8 00 00 01 24 00 00 9f 01 
0.490400 1 132 Rx d 6 36 88 f4 ff 20 40 
0.490600 1 1e5 Rx d 8 02 ac 04 00 00 00 00 98 
0.490800 1 20e Rx d 3 10 00 00 
0.491000 1 261 Rx d 8 64 fd 0f 4c 00 40 c4 b6 
0.491300 1 381 Rx d 8 0c 20 00 19 99 c5 38 06 
0.491500 1 401 Rx d 8 16 2a 73 80 70 80 64 80 
0.491600 1 419 Rx d 1 00 
0.491900 1 709 Rx d 8 11 55 00 60 04 00 02 08 
0.492400 1 3c3 Rx d 8 00 00 00 00 00 45 00 00 
0.492600 1 3e3 Rx d 4 00 00 00 00 
0.493300 1 201 Rx d 8 02 28 01 40 06 00 b8 39 
0.493600 1 359 Rx d 8 4b 00 00 00 00 00 00 00 
0.495300 1 3f5 Rx d 8 00 00 b3 08 82 04 00 00 
0.496300 1 2c4 Rx d 8 14 00 00 00 00 00 00 00 
0.496500 1 243 Rx d 8 03 00 20 00 2e 58 14 00 
0.496800 1 204 Rx d 8 01 00 00 ff 00 00 00 10 
0.497000 1 264 Rx d 6 39 00 00 00 a0 00 
0.497200 1 224 Rx d 8 04 08 00 48 19 01 10 08 
0.497400 1 2b4 Rx d 6 44 05 a1 0d 0b 01 
0.497600 1 4e2 Rx d 8 1f 14 00 00 00 00 00 00 
0.497900 1 129 Rx d 8 d2 24 cf 5f 00 20 ff 3f 
0.498300 1 2e1 Rx d 8 04 00 00 80 48 44 26 00 
0.498600 1 118 Rx d 8 fa 67 32 00 00 48 00 00 
0.498800 1 22b Rx d 8 ff ff ff ff ff ff ff ff 
0.499100 1 266 Rx d 8 00 00 01 24 00 00 9f 01 
0.499300 1 257 Rx d 8 76 4c 1f 00 02 a0 0f 01 
0.499600 1 2c1 Rx d 8 23 17 13 00 00 00 00 00 
0.499800 1 1d8 Rx d 8 29 00 00 00 00 00 20 22 
0.500000 1 1e5 Rx d 8 02 ac 04 00 00 00 20 b8 
0.500200 1 132 Rx d 6 26 88 f4 ff 20 40 
0.500500 1 3a1 Rx d 8 29 fa 40 01 3e 00 10 72 
0.500700 1 553 Rx d 8 00 00 00 00 00 00 00 58 
0.501000 1 623 Rx d 8 2a e8 00 e8 00 e7 00 e7 
0.501200 1 677 Rx d 8 01 00 00 00 00 00 00 00 
0.501600 1 142 Rx d 8 01 00 40 0a c0 1b 00 00 
0.503000 1 295 Rx d 8 1d 2c 00 00 00 00 00 00 
0.503300 1 61d Rx d 8 1d 28 86 38 ab 36 1b 15 
0.503500 1 238 Rx d 8 f0 27 9c d0 1f 00 e6 c2 
0.503700 1 3e9 Rx d 8 f0 88 02 00 00 00 f0 56 
0.504000 1 552 Rx d 8 00 00 00 00 00 00 00 57 
0.504200 1 234 Rx d 8 31 e1 03 80 43 00 d4 47 
0.504500 1 383 Rx d 8 b9 18 31 00 21 b1 23 5a 
0.504700 1 3ae Rx d 8 d6 3f 00 08 00 00 31 4f 
0.504900 1 789 Rx d 4 55 19 00 70 
0.505300 1 545 Rx d 8 80 01 2c f0 9a a2 69 8c 
0.506000 1 420 Rx d 8 28 01 40 4b 00 00 80 03 
0.506200 1 2d1 Rx d 2 7f 01 
0.506500 1 261 Rx d 8 05 22 cc c8 9a 42 d0 5d 
0.506700 1 263 Rx d 8 03 00 00 00 00 00 00 31 
0.507100 1 39d Rx d 5 1a 51 01 28 00 
0.507400 1 39a Rx d 8 fd fd fd fd fd 01 00 02 
0.507800 1 129 Rx d 8 c5 25 cf 5f 00 20 ff 3f 
0.509300 1 118 Rx d 8 fb 68 32 00 00 48 00 00 
0.509600 1 266 Rx d 8 00 00 01 24 00 00 9f 01 
0.509800 1 1d8 Rx d 8 29 00 00 00 00 00 40 42 
0.510000 1 1e5 Rx d 8 02 ac 04 00 00 00 40 d8 
0.510200 1 132 Rx d 6 29 88 f4 ff 20 40 
0.510500 1 3c8 Rx d 8 04 00 00 00 00 00 00 00 
0.510700 1 401 Rx d 8 17 2a 60 80 62 80 6d 80 
0.510900 1 422 Rx d 6 f0 00 10 00 00 00 
0.511200 1 423 Rx d 7 00 00 00 00 08 00 00 
0.511800 1 623 Rx d 8 2b 00 e7 00 e6 00 e6 00 
0.513500 1 3a2 Rx d 8 a0 85 72 d8 04 00 43 72 
0.514300 1 2e1 Rx d 8 65 80 08 00 e4 f6 8b 6a 
0.514500 1 219 Rx d 7 01 80 4b 4c 97 a9 04 
0.515400 1 719 Rx d 8 0d 00 00 00 00 00 00 00 
0.516100 1 2aa Rx d 3 7f 00 2b 
0.516400 1 441 Rx d 8 27 00 b6 c3 58 00 05 66 
0.516600 1 243 Rx d 8 04 e0 f0 ff fd 7f 43 50 
0.516900 1 2c3 Rx d 8 00 00 c0 4b 01 00 80 cb 
0.517300 1 421 Rx d 7 00 14 00 00 00 d0 48 
0.517600 1 2c2 Rx d 8 20 40 00 4b 01 00 80 cb 
0.517800 1 129 Rx d 8 1f 26 cf 5f 00 20 ff 3f 
0.518400 1 2c1 Rx d 8 04 00 0d 00 0d 11 08 0f 
0.518600 1 118 Rx d 8 fc 69 32 00 00 48 00 00 
0.518800 1 201 Rx d 8 03 28 01 40 06 00 98 3b 
0.519100 1 266 Rx d 8 00 00 01 24 00 00 9f 01 
0.519300 1 257 Rx d 8 77 4d 1f 00 02 a0 0f 01 
0.519600 1 1d8 Rx d 8 29 00 00 00 00 00 60 62 
0.519800 1 2bf Rx d 7 0a 00 00 00 4c 00 01 
0.520000 1 1e5 Rx d 8 02 ac 04 00 00 00 60 f8 
0.520200 1 132 Rx d 6 29 88 f4 ff 23 40 
0.520500 1 7aa Rx d 8 01 9e 0d 9f 0d 01 00 2e 
0.521400 1 2f9 Rx d 8 b0 fb 07 08 a1 ee 6f c9 
0.521600 1 23e Rx d 8 f4 01 3a bf fa fc 9f c3 
0.521800 1 7e8 Rx d 8 14 05 00 c2 65 37 86 00 
0.522300 1 788 Rx d 8 d8 cc 91 63 00 00 82 00 
0.522600 1 261 Rx d 8 00 10 28 00 ed 4c e0 47 
0.523100 1 623 Rx d 8 2c e5 00 e5 00 e4 00 e4 
0.526300 1 381 Rx d 8 4d 83 01 c7 00 20 73 16 
0.526600 1 263 Rx d 8 04 00 00 00 60 14 00 00 
0.526800 1 3a8 Rx d 8 04 c0 05 7f 00 00 00 00 
0.527100 1 3c2 Rx d 8 29 55 00 00 00 00 00 80 
0.527300 1 45a Rx d 8 fd 07 f8 ff 03 00 00 2d 
0.527800 1 129 Rx d 8 08 27 cf 5f 00 20 ff 3f 
0.528300 1 288 Rx d 8 03 11 00 40 80 00 51 af 
0.528600 1 3f9 Rx d 8 01 00 00 00 00 00 00 00 
0.529300 1 118 Rx d 8 fd 6a 32 00 00 48 00 00 
0.529500 1 266 Rx d 8 00 00 01 24 00 00 9f 01 
0.529800 1 1d8 Rx d 8 29 00 00 00 00 00 80 82 
0.530000 1 1e5 Rx d 8 02 ac 04 00 00 00 00 98 
0.530200 1 132 Rx d 6 29 88 f5 ff 22 40 
0.530400 1 2a1 Rx d 6 00 00 98 3a 00 00 
0.530700 1 2e1 Rx d 8 10 21 04 00 12 00 20 08 
0.530900 1 372 Rx d 8 08 00 00 00 00 00 00 00 
0.531100 1 401 Rx d 8 18 2a 72 80 69 80 6e 80 
0.532300 1 225 Rx d 4 45 55 fa 00 
0.532600 1 75d Rx d 8 03 00 80 00 00 00 00 00 
0.532900 1 21d Rx d 8 04 00 35 00 00 00 00 00 
0.533000 1 41d Rx d 1 00 
0.533400 1 25d Rx d 8 36 41 01 2a 04 f0 d8 03 
0.533600 1 1fa Rx d 3 02 c0 01 
0.533800 1 25b Rx d 8 d3 c0 02 05 6a 86 10 f5 
0.534300 1 798 Rx d 8 05 00 00 00 00 00 00 b1 
0.534500 1 221 Rx d 8 61 05 55 55 01 02 00 36 
0.535500 1 339 Rx d 8 05 e1 02 00 00 02 40 02 
0.536400 1 243 Rx d 8 00 fc cf 0c a8 04 41 49 
0.537800 1 129 Rx d 8 df 28 cf 5f 00 20 ff 3f 
0.537900 1 229 Rx d 3 6d 03 00 
0.538100 1 249 Rx d 4 9b 00 00 00 
0.538300 1 22a Rx d 4 00 00 c9 15 
0.538500 1 261 Rx d 8 31 00 18 00 b2 49 fa 34 
0.538700 1 118 Rx d 8 fe 6b 32 00 00 48 00 00 
0.539000 1 283 Rx d 6 00 00 00 00 00 00 
0.539200 1 266 Rx d 8 00 00 01 24 00 00 9f 01 
0.539400 1 2c1 Rx d 8 48 3c 7e 00 3c fe 02 07 
0.539700 1 257 Rx d 8 78 4e 1f 00 02 a0 0f 01 
0.539900 1 545 Rx d 8 01 00 00 00 00 10 70 cb 
0.540200 1 1d8 Rx d 8 29 00 00 00 00 00 a0 a2 
0.540400 1 132 Rx d 6 1e 88 f4 ff 1f 40 
0.540600 1 1e5 Rx d 8 02 ac 04 00 00 00 20 b8 
0.540800 1 242 Rx d 4 55 15 06 05 
0.541000 1 2a8 Rx d 8 02 11 00 00 06 80 b0 f3 
0.541300 1 54f Rx d 8 00 00 00 00 00 00 00 00 
0.541500 1 623 Rx d 8 2d 00 e3 00 e3 00 e3 00 
0.541700 1 677 Rx d 8 02 00 00 00 00 00 00 00 
0.541900 1 6a2 Rx d 5 00 00 00 00 00 
0.542400 1 1f9 Rx d 8 00 00 00 00 00 00 00 00 
0.543300 1 201 Rx d 8 a8 c1 9a 00 20 7b f1 07 
0.543800 1 3aa Rx d 8 00 00 00 00 00 00 00 00 
0.544000 1 3ae Rx d 8 d6 3f 00 08 00 00 41 5f 
0.544300 1 77a Rx d 8 00 e6 1d 00 f1 0c 5f 61 
0.544500 1 3c0 Rx d 8 09 00 00 00 00 00 00 00 
0.544800 1 78a Rx d 8 01 00 06 00 02 00 00 00 
0.545400 1 797 Rx d 4 15 0d 00 bd 
0.546200 1 428 Rx d 7 00 00 10 10 00 00 00 
0.546500 1 263 Rx d 8 18 7b 4d 07 a0 4f 5f 1f 
0.546700 1 2b3 Rx d 8 07 bb 8a a6 61 09 00 04 
0.546900 1 2e1 Rx d 8 39 0d 10 c9 1f 28 10 00 
0.547200 1 3a2 Rx d 8 01 10 20 00 0d f0 ff 00 
0.547400 1 39d Rx d 5 1b 52 01 28 00 
0.547600 1 682 Rx d 8 00 00 00 40 05 02 00 27 
0.547800 1 129 Rx d 8 27 29 cf 5f 01 20 ff 3f 
0.548100 1 360 Rx d 8 01 00 00 00 00 00 00 00 
0.548500 1 22b Rx d 8 ff ff ff ff ff ff ff ff 
0.549300 1 118 Rx d 8 ff 6c 32 00 00 48 00 00 
0.549500 1 119 Rx d 4 00 00 00 00 
0.549700 1 266 Rx d 8 00 00 01 24 00 00 9f 01 
0.550000 1 1d8 Rx d 8 29 00 00 00 00 00 c0 c2 
0.550200 1 1e5 Rx d 8 02 ac 04 00 00 00 40 d8 
0.550400 1 103 Rx d 8 22 b3 88 04 92 2c 21 02 
0.550600 1 132 Rx d 6 29 88 f4 ff 1f 40 
0.550900 1 2a6 Rx d 8 00 00 6a 18 00 00 00 00 
0.551100 1 2a7 Rx d 8 00 00 00 00 00 74 05 84 
0.551400 1 2c7 Rx d 8 00 00 00 00 00 00 48 ff 
0.551600 1 3a1 Rx d 8 e8 4e 0d 8a 01 1c 22 cc 
0.551800 1 142 Rx d 8 28 00 02 5d 00 00 01 00 
0.552100 1 3e8 Rx d 8 04 00 00 00 00 00 00 00 
0.552300 1 401 Rx d 8 19 2a 70 80 75 80 7e 80 
0.553100 1 623 Rx d 8 2e e2 00 e2 00 e1 00 e1 
0.553700 1 3ae Rx d 8 d6 3f 00 08 00 00 50 6e 
0.553800 1 1bb Rx d 1 02 
0.554100 1 234 Rx d 8 25 50 02 30 c1 04 e0 e7 
0.554300 1 284 Rx d 8 30 00 00 00 40 08 20 1e 
0.554600 1 261 Rx d 8 32 2a 80 02 80 5c 02 b2 
0.554800 1 102 Rx d 8 22 b3 88 04 8a 0c 21 08 
0.555000 1 295 Rx d 8 3c 00 a1 ff 00 00 00 01 
0.556400 1 439 Rx d 8 02 00 40 00 00 14 00 00 
0.556600 1 123 Rx d 8 01 00 00 00 00 3f 00 00 
0.556900 1 243 Rx d 8 01 fc 39 00 45 00 7c 7c 
0.557400 1 2ec Rx d 3 7f 00 6d 
0.557800 1 129 Rx d 8 55 2a cf 5f 00 20 ff 3f 
0.558300 1 2c1 Rx d 8 21 23 2b fa 02 00 00 00 
0.558600 1 118 Rx d 8 00 6d 32 00 00 48 00 00 
0.558800 1 266 Rx d 8 00 00 01 24 00 00 9f 01 
0.559100 1 257 Rx d 8 79 4f 1f 00 02 a0 0f 01 
0.559300 1 108 Rx d 8 1e 06 00 02 00 00 00 0d 
0.559500 1 126 Rx d 5 01 b0 1d 30 25 
0.559700 1 1d8 Rx d 8 29 00 00 00 00 00 e0 e2 
0.559900 1 128 Rx d 5 80 02 e4 0a 02 
0.560200 1 1e5 Rx d 8 02 ac 04 00 00 00 60 f8 
0.560400 1 132 Rx d 6 28 88 f4 ff 20 40 
0.560600 1 1d6 Rx d 8 02 08 04 00 0a c8 0f 05 
0.560800 1 268 Rx d 5 01 01 fa 00 bf 
0.561000 1 279 Rx d 8 4b 06 0d 01 74 05 62 02 
0.561200 1 2b6 Rx d 3 00 03 00 
0.561400 1 211 Rx d 6 96 14 71 0d 00 f1 
0.561600 1 319 Rx d 8 22 00 00 00 ff ff ff ff 
0.561900 1 122 Rx d 8 01 00 00 00 00 3f 00 00 
0.562100 1 23e Rx d 8 f4 01 3a bf fa fc af d3 
0.562300 1 31a Rx d 8 60 fc ff 02 00 00 00 7a 
0.562600 1 2e1 Rx d 8 02 6c 7f 02 21 5e 00 00 
0.562800 1 340 Rx d 8 07 00 00 00 00 00 00 00 
0.563100 1 381 Rx d 8 8e ef fb ff 81 c7 4b 00 
0.563300 1 395 Rx d 8 09 0f 13 52 09 01 08 7d 
0.563500 1 397 Rx d 8 00 00 00 d8 1d 00 00 00 
0.563800 1 3a3 Rx d 8 00 d0 00 00 38 03 fc 01 
0.564000 1 3f1 Rx d 8 07 00 00 00 00 00 00 00 
0.564300 1 7a8 Rx d 8 d4 c4 81 63 00 00 82 00 
0.565400 1 42a Rx d 8 63 d5 62 b5 56 6d 56 aa 
0.565600 1 3db Rx d 8 0b 38 0f 00 00 03 00 00 
0.565900 1 43b Rx d 8 03 7f 04 ff 00 00 00 00 
0.566100 1 719 Rx d 8 53 50 15 54 01 00 00 00 
0.566300 1 441 Rx d 8 47 85 89 00 32 00 08 f8 
0.566600 1 263 Rx d 8 e9 6a 5d 07 c0 2f 5f 1f 
0.567500 1 113 Rx d 3 01 97 01 
0.567600 1 7f4 Rx d 1 01 
0.567800 1 129 Rx d 8 09 2b cf 5f 01 20 ff 3f 
0.568100 1 318 Rx d 8 1a 08 2c 07 18 2e 2b e1 
0.568300 1 458 Rx d 7 00 00 00 00 40 00 00 
0.568500 1 201 Rx d 8 09 04 b8 00 11 00 80 c4 
0.568800 1 272 Rx d 8 09 80 63 00 00 00 00 00 
0.569000 1 393 Rx d 8 09 80 63 00 00 00 00 00 
0.569300 1 623 Rx d 8 2f 00 e1 00 e0 00 e0 00 
0.569500 1 118 Rx d 8 01 6e 32 00 00 48 00 00 
0.569700 1 228 Rx d 8 03 11 00 40 80 00 51 4f 
0.570000 1 1d8 Rx d 8 29 00 00 00 00 00 00 02 
0.570200 1 132 Rx d 6 25 88 f4 ff 1d 40 
0.570400 1 261 Rx d 8 ab 4d 0a 00 00 40 15 4d 
0.570600 1 266 Rx d 8 00 00 01 24 00 00 9f 01 
0.570900 1 401 Rx d 8 1a 2a 7d 80 74 80 6f 80 
0.571100 1 1e5 Rx d 8 02 ac 04 00 00 00 00 98 
0.571400 1 545 Rx d 8 02 00 06 00 00 00 80 d2 
0.571600 1 7d5 Rx d 8 2b 00 e0 fe 00 00 00 00 
0.571900 1 7ff Rx d 8 08 00 00 01 00 00 00 00 
0.572100 1 7d5 Rx d 8 2c 00 3f 00 00 00 00 00 
0.572400 1 7d5 Rx d 8 32 00 00 00 00 00 00 00 
0.572600 1 379 Rx d 8 02 00 0c 48 33 bf 21 00 
0.572800 1 7d7 Rx d 8 32 01 00 00 00 00 00 00 
0.573300 1 241 Rx d 7 32 32 4c 0f 8f 45 00 
0.574400 1 20c Rx d 8 00 c0 35 18 00 30 09 00 
0.575400 1 7b8 Rx d 8 05 00 4e 58 f6 02 00 bd 
0.575700 1 282 Rx d 8 00 00 00 00 ec 33 0b 24 
0.576400 1 243 Rx d 8 02 14 31 11 00 4c 00 00 
0.576600 1 40a Rx d 8 01 00 01 00 00 00 00 10 
0.576900 1 3c2 Rx d 8 00 55 55 55 00 00 59 45 
0.577100 1 45a Rx d 8 c0 4e ca cd 5f 39 00 39 
0.577800 1 129 Rx d 8 c4 2c cf 5f 00 20 ff 3f 
0.578300 1 2e1 Rx d 8 fb 19 af 19 98 a5 09 00 
0.578600 1 118 Rx d 8 02 6f 32 00 00 48 00 00 
0.578800 1 266 Rx d 8 00 00 01 24 00 00 9f 01 
0.579100 1 2c1 Rx d 8 02 0d 06 00 00 d0 92 81 
0.579300 1 257 Rx d 8 6a 40 1f 00 02 a0 0f 01 
0.579400 1 139 Rx d 1 00 
0.579700 1 1d8 Rx d 8 29 00 00 00 00 00 20 22 
0.579900 1 3a2 Rx d 8 f2 29 00 00 22 00 00 00 
0.580100 1 1e5 Rx d 8 02 ac 04 00 00 00 20 b8 
0.580300 1 132 Rx d 6 25 88 f4 ff 24 40 
0.580600 1 4e3 Rx d 8 20 f5 04 00 00 00 28 34 
0.580800 1 623 Rx d 8 20 df 00 df 00 de 00 de 
0.581100 1 677 Rx d 8 03 00 00 00 00 00 00 00 
0.581500 1 2e8 Rx d 8 02 11 00 00 06 80 b0 33 
0.582500 1 1f8 Rx d 4 00 00 00 00 
0.583900 1 409 Rx d 1 00 
0.584300 1 2f1 Rx d 8 0d 00 00 00 00 00 00 00 
0.584600 1 221 Rx d 8 60 55 55 05 54 51 11 e8 
0.586300 1 261 Rx d 8 64 fd 0f 4c 00 40 24 16 
0.586600 1 263 Rx d 8 02 00 00 00 00 00 00 00 
0.586800 1 343 Rx d 8 00 92 5c 3e 9b 00 00 00 
0.587100 1 37a Rx d 8 d2 00 00 00 00 00 00 00 
0.587200 1 39d Rx d 5 1c 53 01 28 00 
0.587500 1 212 Rx d 8 59 04 00 00 81 ff 77 31 
0.587700 1 252 Rx d 8 3f 23 3a 4b 00 fc 0f 00 
0.587900 1 129 Rx d 8 7b 2d cf 5f 01 20 ff 3f 
0.588200 1 292 Rx d 8 34 0a f9 a4 8d 01 00 00 
0.588300 1 249 Rx d 4 e8 01 00 00 
0.588600 1 2d2 Rx d 8 71 29 a3 4e c4 09 d5 14 
0.588700 1 2f2 Rx d 2 12 01 
0.588900 1 400 Rx d 7 00 e0 fb be ef fb 00 
0.589100 1 448 Rx d 7 00 00 10 10 00 00 00 
0.589400 1 118 Rx d 8 f3 60 32 00 00 48 00 00 
0.589600 1 1d8 Rx d 8 29 00 00 00 00 00 40 42 
0.589900 1 289 Rx d 8 a6 02 01 40 8c 00 3d 0f 
0.590100 1 266 Rx d 8 00 00 01 24 00 00 9f 01 
0.590400 1 1e5 Rx d 8 02 ac 04 00 00 00 40 d8 
0.590600 1 132 Rx d 6 2a 88 f4 ff 20 40 
0.590700 1 20e Rx d 3 11 01 00 
0.591000 1 372 Rx d 8 09 00 00 00 00 f8 3f 00 
0.591200 1 401 Rx d 8 1b 2a 65 80 70 80 75 80 
0.591400 1 712 Rx d 8 04 00 00 00 00 00 00 00 
0.591600 1 419 Rx d 1 00 
0.591900 1 623 Rx d 8 21 00 de 00 dd 00 dd 00 
0.592100 1 7aa Rx d 8 32 08 e1 f8 81 06 21 00 
0.592400 1 3c3 Rx d 8 55 55 55 01 00 80 43 00 
0.593400 1 201 Rx d 8 02 28 01 40 06 00 b8 39 
0.593600 1 359 Rx d 8 4c 00 00 00 00 00 00 00 
0.593800 1 3ae Rx d 8 d6 3f 00 08 00 00 60 7e 
0.594100 1 407 Rx d 8 14 09 00 00 00 00 00 00 
0.594400 1 2e1 Rx d 8 04 00 00 80 48 44 26 00 
0.595300 1 3f5 Rx d 8 00 00 b3 08 82 04 00 00 
0.596200 1 2c4 Rx d 8 55 00 01 08 20 00 ff 00 
0.596500 1 243 Rx d 8 03 00 20 00 2e 58 14 00 
0.596700 1 204 Rx d 8 01 00 00 ff 00 00 00 10 
0.597000 1 224 Rx d 8 04 08 00 48 19 01 10 08 
0.597200 1 264 Rx d 6 39 00 00 00 a0 00 
0.597400 1 2b4 Rx d 6 41 05 a1 0d 0b 01 
0.597600 1 4e2 Rx d 8 20 0e 02 00 00 00 a8 15 
0.597800 1 129 Rx d 8 09 2e cf 5f 00 20 ff 3f 
0.598400 1 2c1 Rx d 8 23 17 13 00 00 00 00 00 
0.598600 1 118 Rx d 8 f4 61 32 00 00 48 00 00 
0.598800 1 22b Rx d 8 ff ff ff ff ff ff ff ff 
0.599100 1 266 Rx d 8 00 00 01 24 00 00 9f 01 
0.599300 1 257 Rx d 8 6b 41 1f 00 02 a0 0f 01 
0.599600 1 1d8 Rx d 8 29 00 00 00 00 00 60 62 
0.599800 1 1e5 Rx d 8 02 ac 04 00 00 00 60 f8 
0.600100 1 381 Rx d 8 cf 73 37 94 00 00 3b 06 
0.600300 1 132 Rx d 6 2d 88 f4 ff 20 40 
0.600500 1 3a1 Rx d 8 29 fa 40 01 3e 00 30 92 
0.600700 1 553 Rx d 8 00 00 00 00 00 00 10 68 
0.601600 1 23e Rx d 8 f4 01 3a bf fa fc bf e3 
0.601800 1 142 Rx d 8 01 00 40 0a c0 1b 00 00 
0.602300 1 261 Rx d 8 05 22 cc c8 9a 42 30 bd 
0.603100 1 623 Rx d 8 22 dc 00 dc 00 db 00 db 
0.603600 1 552 Rx d 8 00 00 00 00 00 00 10 67 
0.604000 1 234 Rx d 8 30 e1 03 80 43 00 f4 66 
0.604300 1 285 Rx d 8 41 03 65 01 0d 00 08 00 
0.604500 1 286 Rx d 5 ff ff ff ff 31 
0.604700 1 353 Rx d 8 7b 0f 39 80 07 0c 07 0a 
0.604900 1 373 Rx d 8 0a c4 9b 00 00 de 06 1f 
0.605200 1 383 Rx d 8 b9 18 31 00 21 b1 23 5a 
0.605300 1 3d8 Rx d 4 6b 00 6c 00 
0.605600 1 295 Rx d 8 50 00 bf ff 00 00 00 02 
0.605800 1 545 Rx d 8 80 01 2c a0 9a a2 99 6c 
0.606000 1 420 Rx d 8 28 01 40 4b 00 00 00 04 
0.606200 1 789 Rx d 4 55 19 10 80 
0.606400 1 263 Rx d 8 03 00 00 00 00 00 00 31 
0.606700 1 2b3 Rx d 8 08 fa fc 97 4f 91 dd f8 
0.606800 1 2d1 Rx d 2 7f 01 
0.607400 1 39a Rx d 8 20 23 ef 92 ff fd fd 11 
0.607800 1 129 Rx d 8 f8 2f cf 5f 00 20 ff 3f 
0.609300 1 118 Rx d 8 f5 62 32 00 00 48 00 00 
0.609500 1 266 Rx d 8 00 00 01 24 00 00 9f 01 
0.609800 1 1d8 Rx d 8 29 00 00 00 00 00 80 82 
0.610000 1 1e5 Rx d 8 02 ac 04 00 00 00 00 98 
0.610200 1 132 Rx d 6 2a 88 f4 ff 1d 40 
0.610400 1 2e1 Rx d 8 65 80 08 00 e4 f6 8b 6a 
0.610700 1 3c8 Rx d 8 05 00 00 00 00 00 00 00 
0.610900 1 401 Rx d 8 1c 2a 74 80 72 80 71 80 
0.611100 1 422 Rx d 6 f0 00 10 00 00 00 
0.611400 1 423 Rx d 7 00 00 00 00 08 00 00 
0.612600 1 3a2 Rx d 8 a0 85 72 d6 1c 00 43 72 
0.614400 1 219 Rx d 7 02 80 4b 4d 97 aa 04 
0.615400 1 719 Rx d 8 03 00 00 00 00 00 00 00 
0.616100 1 2aa Rx d 3 7f 10 3b 
0.616400 1 441 Rx d 8 27 00 b6 c3 58 00 0d 6e 
0.616600 1 243 Rx d 8 04 e0 f0 ff fd 7f 43 50 
0.616900 1 2c3 Rx d 8 55 5b a9 b6 02 00 12 a5 
0.617400 1 421 Rx d 7 00 14 00 00 00 d0 48 
0.617600 1 2c2 Rx d 8 55 a3 a8 b6 02 00 12 a5 
0.617800 1 129 Rx d 8 1d 20 cf 5f 00 20 ff 3f 
0.618300 1 623 Rx d 8 23 00 db 00 da 00 da 00 
0.618600 1 118 Rx d 8 f6 63 32 00 00 48 00 00 
0.618800 1 201 Rx d 8 03 28 01 40 06 00 98 3b 
0.619000 1 261 Rx d 8 00 10 28 00 ed 4c 40 a7 
0.619300 1 266 Rx d 8 00 00 01 24 00 00 9f 01 
0.619500 1 1d8 Rx d 8 29 00 00 00 00 00 a0 a2 
0.619800 1 257 Rx d 8 6c 42 1f 00 02 a0 0f 01 
0.620000 1 2c1 Rx d 8 04 00 0d 00 0d 11 08 0f 
0.620200 1 132 Rx d 6 30 88 f4 ff 20 40 
0.620400 1 1e5 Rx d 8 02 ac 04 00 00 00 20 b8 
0.620700 1 262 Rx d 8 0b 00 d5 de 00 b0 92 12 
0.620900 1 405 Rx d 8 10 00 00 00 00 4c 52 57 
0.621200 1 414 Rx d 8 10 00 00 00 00 20 20 20 
0.621400 1 2f9 Rx d 8 b0 fb 07 10 00 00 00 00 
0.621600 1 443 Rx d 6 74 09 ff 03 00 00 
0.621900 1 55a Rx d 8 05 00 00 00 00 00 00 00 
0.622000 1 666 Rx d 4 00 00 a0 00 
0.622300 1 677 Rx d 8 04 00 00 00 00 00 00 00 
0.622500 1 718 Rx d 7 04 00 00 00 00 00 00 
0.622600 1 743 Rx d 1 00 
0.622900 1 788 Rx d 8 01 00 00 00 ff a1 58 13 
0.624400 1 2e3 Rx d 7 38 c8 21 00 00 00 00 
0.626400 1 2e1 Rx d 8 10 21 04 00 12 00 20 08 
0.626600 1 263 Rx d 8 04 00 00 00 60 14 00 00 
0.626800 1 2e2 Rx d 8 f7 13 50 3f 6d f6 12 55 
0.627100 1 3c2 Rx d 8 29 55 00 00 00 00 00 80 
0.627200 1 39d Rx d 5 1d 54 01 28 00 
0.627500 1 45a Rx d 8 fd 07 f8 ff 03 00 00 2d 
0.627800 1 129 Rx d 8 0a 21 cf 5f 00 20 ff 3f 
0.628300 1 288 Rx d 8 03 11 00 40 80 00 61 bf 
0.628600 1 3f9 Rx d 8 02 00 00 00 00 00 00 00 
0.629300 1 118 Rx d 8 f7 64 32 00 00 48 00 00 
0.629600 1 1d8 Rx d 8 29 00 00 00 00 00 c0 c2 
0.629800 1 266 Rx d 8 00 00 01 24 00 00 9f 01 
0.630100 1 1e5 Rx d 8 02 ac 04 00 00 00 40 d8 
0.630200 1 132 Rx d 6 2c 88 f4 ff 20 40 
0.630500 1 2a1 Rx d 6 00 00 98 3a 00 00 
0.630700 1 401 Rx d 8 1d 2a 77 80 74 80 75 80 
0.630900 1 623 Rx d 8 24 d9 00 d9 00 d8 00 d8 
0.632300 1 225 Rx d 4 45 55 fa 00 
0.632400 1 41d Rx d 1 00 
0.632700 1 21d Rx d 8 04 00 35 00 00 00 00 00 
0.633000 1 25d Rx d 8 36 41 01 2a 04 f0 d8 03 
0.633500 1 1fa Rx d 3 02 c0 01 
0.633700 1 25b Rx d 8 d3 c0 02 05 6a 86 20 05 
0.634000 1 3ae Rx d 8 d6 3f 00 08 00 00 70 8e 
0.634300 1 798 Rx d 8 fe 04 00 00 00 00 10 be 
0.634500 1 221 Rx d 8 61 05 55 55 01 02 20 56 
0.634800 1 261 Rx d 8 31 00 0c 00 b2 49 5a 88 
0.635000 1 381 Rx d 8 10 64 41 1e 43 0c 01 60 
0.635500 1 339 Rx d 8 05 e1 02 00 00 02 40 02 
0.636400 1 243 Rx d 8 00 fc cf 0c a8 04 41 49 
0.637300 1 545 Rx d 8 01 00 00 00 00 10 a0 fb 
0.637800 1 129 Rx d 8 43 22 cf 5f 00 20 ff 3f 
0.637900 1 229 Rx d 3 43 04 00 
0.638100 1 249 Rx d 4 2a 02 00 00 
0.638300 1 22a Rx d 4 00 00 c9 15 
0.638500 1 118 Rx d 8 f8 65 32 00 00 48 00 00 
0.638700 1 283 Rx d 6 00 00 00 00 00 00 
0.639000 1 266 Rx d 8 00 00 01 24 00 00 9f 01 
0.639200 1 2c1 Rx d 8 48 3c 7e 00 3c fe 02 07 
0.639400 1 257 Rx d 8 6d 43 1f 00 02 a0 0f 01 
0.639700 1 54f Rx d 8 00 00 00 00 00 00 00 00 
0.639900 1 1d8 Rx d 8 29 00 00 00 00 00 e0 e2 
0.640100 1 6a2 Rx d 5 00 00 00 00 00 
0.640300 1 132 Rx d 6 31 88 f4 ff 22 40 
0.640600 1 1e5 Rx d 8 02 ac 04 00 00 00 60 f8 
0.640700 1 242 Rx d 4 55 15 06 05 
0.641000 1 2a8 Rx d 8 02 11 00 00 06 80 c0 03 
0.641400 1 23e Rx d 8 f4 01 3a bf fa fc cf f3 
0.641800 1 623 Rx d 8 25 00 d8 00 d7 00 d7 00 
0.642400 1 2e1 Rx d 8 39 0d 10 c9 1f 28 10 00 
0.642600 1 1f9 Rx d 8 00 00 00 00 00 00 00 00 
0.643100 1 78a Rx d 8 01 00 00 00 22 13 13 0d 
0.643300 1 201 Rx d 8 b8 c1 9a 00 20 77 f1 07 
0.644400 1 3c0 Rx d 8 0a 00 10 00 00 00 00 00 
0.645400 1 797 Rx d 4 15 0d 10 cd 
0.645600 1 3a2 Rx d 8 01 10 20 00 1c f0 ff 00 
0.646200 1 428 Rx d 7 00 00 10 10 00 00 00 
0.646500 1 263 Rx d 8 18 7b 4d 07 a0 4f 5f 1f 
0.646700 1 682 Rx d 8 00 00 00 40 05 02 10 37 
0.647600 1 360 Rx d 8 02 00 00 00 00 00 00 00 
0.647900 1 129 Rx d 8 54 23 cf 5f 00 20 ff 3f 
0.648500 1 22b Rx d 8 ff ff ff ff ff ff ff ff 
0.649300 1 118 Rx d 8 f9 66 32 00 00 48 00 00 
0.649400 1 119 Rx d 4 00 00 00 00 
0.649700 1 266 Rx d 8 00 00 01 24 00 00 9f 01 
0.649900 1 1d8 Rx d 8 29 00 00 00 00 00 00 02 
0.650200 1 1e5 Rx d 8 02 ac 04 00 00 00 00 98 
0.650400 1 132 Rx d 6 2e 88 f4 ff 1f 40 
0.650600 1 103 Rx d 8 22 b3 88 04 92 2c 21 02 
0.650800 1 261 Rx d 8 32 2a 80 02 80 5c 62 12 
0.651100 1 2a6 Rx d 8 00 00 6a 18 00 00 00 00 
0.651300 1 2a7 Rx d 8 00 00 00 00 00 74 05 84 
0.651600 1 2c7 Rx d 8 00 00 00 00 00 00 48 ff 
0.651800 1 142 Rx d 8 28 00 02 5d 00 00 01 00 
0.652100 1 320 Rx d 8 03 00 00 00 00 00 00 00 
0.652300 1 372 Rx d 8 0a 01 40 06 00 00 00 82 
0.652500 1 3a1 Rx d 8 e8 4e 0d 8a 01 1c 42 ec 
0.652800 1 3e8 Rx d 8 05 00 00 00 00 00 00 00 
0.653000 1 401 Rx d 8 1e 2a 71 80 7a 80 70 80 
0.653200 1 623 Rx d 8 26 d6 00 d6 00 d5 00 d5 
0.653700 1 3ae Rx d 8 d6 3f 00 08 00 00 81 9f 
0.654000 1 313 Rx d 8 02 64 64 05 00 00 50 35 
0.654200 1 234 Rx d 8 26 50 02 30 c1 04 00 08 
0.654400 1 355 Rx d 7 80 ec 00 bc 94 00 00 
0.654600 1 102 Rx d 8 22 b3 88 04 8a 0c 21 08 
0.655000 1 285 Rx d 8 02 d5 00 00 00 00 de 00 
0.655200 1 295 Rx d 8 1d 2c 00 00 00 00 00 03 
0.656400 1 439 Rx d 8 02 00 40 00 00 14 00 00 
0.656600 1 123 Rx d 8 00 00 12 92 d2 00 00 80 
0.656900 1 243 Rx d 8 01 fc 38 00 45 00 7c 7c 
0.657400 1 2ec Rx d 3 7f 10 7d 
0.657800 1 129 Rx d 8 d2 24 cf 5f 00 20 ff 3f 
0.658400 1 2e1 Rx d 8 02 6c 7f 02 21 5e 00 00 
0.658600 1 118 Rx d 8 fa 67 32 00 00 48 00 00 
0.658800 1 2c1 Rx d 8 21 23 2b fa 02 00 00 00 
0.659100 1 266 Rx d 8 00 00 01 24 00 00 9f 01 
0.659300 1 108 Rx d 8 1f 07 00 02 00 00 00 0d 
0.659600 1 257 Rx d 8 6e 44 1f 00 02 a0 0f 01 
0.659700 1 126 Rx d 5 01 b0 1d 38 2d 
0.660000 1 1d8 Rx d 8 29 00 00 00 00 00 20 22 
0.660200 1 128 Rx d 5 80 02 e4 0a 02 
0.660400 1 132 Rx d 6 20 88 f5 ff 20 40 
0.660600 1 1e5 Rx d 8 02 ac 04 00 00 00 20 b8 
0.660900 1 1d6 Rx d 8 02 08 04 00 0a 48 0c 05 
0.661100 1 211 Rx d 6 97 15 71 0d 00 f1 
0.661200 1 268 Rx d 5 01 01 fa 00 bf 
0.661500 1 279 Rx d 8 4c 07 0d 01 74 05 62 02 
0.661700 1 122 Rx d 8 00 00 12 92 12 00 00 00 
0.661900 1 2b6 Rx d 3 00 1b 00 
0.662100 1 677 Rx d 8 00 00 00 00 00 00 00 00 
0.662300 1 395 Rx d 8 09 0f 12 52 09 01 07 7d 
0.662600 1 340 Rx d 8 08 00 00 00 00 00 00 00 
0.662800 1 397 Rx d 8 00 00 00 d8 1d 00 00 00 
0.663100 1 3a3 Rx d 8 00 d0 00 00 38 03 fc 01 
0.663500 1 7a8 Rx d 8 01 00 00 00 ff a1 58 13 
0.665400 1 719 Rx d 8 14 00 00 00 00 8d 00 00 
0.666300 1 261 Rx d 8 ab 4d 0a 00 00 40 75 ad 
0.666600 1 263 Rx d 8 e9 6a 5d 07 c0 2f 5f 1f 
0.666800 1 2b3 Rx d 8 e9 41 ee 39 02 00 cf 2f 
0.667000 1 441 Rx d 8 47 85 89 00 32 00 10 00 
0.667400 1 39d Rx d 5 1e 55 01 28 00 
0.667500 1 113 Rx d 3 01 97 01 
0.667800 1 129 Rx d 8 c5 25 cf 5f 00 20 ff 3f 
0.668000 1 318 Rx d 8 1a 08 2c 07 18 2e 2d e3 
0.668200 1 458 Rx d 7 00 00 00 00 40 00 00 
0.668500 1 201 Rx d 8 09 04 b8 00 11 00 80 c4 
0.668700 1 272 Rx d 8 06 00 f6 b0 07 48 06 08 
0.668900 1 393 Rx d 8 06 00 f5 b0 07 48 06 08 
0.669200 1 623 Rx d 8 27 00 d5 00 d4 00 d4 00 
0.669400 1 118 Rx d 8 fb 68 32 00 00 48 00 00 
0.669700 1 228 Rx d 8 03 11 00 40 80 00 61 5f 
0.669900 1 1d8 Rx d 8 29 00 00 00 00 00 40 42 
0.670100 1 7aa Rx d 8 23 e1 f8 81 06 13 00 1c 
0.670300 1 132 Rx d 6 29 88 f4 ff 22 40 
0.670600 1 266 Rx d 8 00 00 01 24 00 00 9f 01 
0.670800 1 381 Rx d 8 11 33 4b 00 23 c0 07 a0 
0.671100 1 1e5 Rx d 8 02 ac 04 00 00 00 40 d8 
0.671300 1 401 Rx d 8 1f 2a 6c 80 6c 80 69 80 
0.671500 1 545 Rx d 8 02 00 05 00 00 00 b0 01 
0.671800 1 7d5 Rx d 8 2b 00 e0 fe 00 00 00 00 
0.672000 1 7d5 Rx d 8 2c 00 3f 00 00 00 00 00 
0.672300 1 7d5 Rx d 8 32 00 00 00 00 00 00 00 
0.672500 1 379 Rx d 8 03 c0 0e 48 33 c0 25 00 
0.672800 1 7d7 Rx d 8 32 01 00 00 00 00 00 00 
0.672900 1 7f4 Rx d 1 01 
0.673100 1 7ff Rx d 8 09 ef 00 00 08 00 00 00 
0.673300 1 241 Rx d 7 35 32 4c 0f 8f 45 00 
0.674300 1 2e1 Rx d 8 fb 19 ae 19 98 a6 09 00 
0.674600 1 20c Rx d 8 00 c0 35 18 00 30 09 00 
0.675500 1 7b8 Rx d 8 06 00 00 00 00 00 10 30 
0.675700 1 282 Rx d 8 00 00 00 00 ec 33 0b 24 
0.676400 1 243 Rx d 8 02 14 31 11 00 4c 00 00 
0.676600 1 3e2 Rx d 7 00 00 80 0a d0 cf 04 
0.676900 1 3c2 Rx d 8 00 55 55 55 00 00 59 45 
0.677100 1 45a Rx d 8 c0 4e ca cd 5f 39 00 38 
0.677800 1 129 Rx d 8 1f 26 cf 5f 00 20 ff 3f 
0.678400 1 2c1 Rx d 8 02 0d 06 00 00 d0 92 81 
0.678600 1 118 Rx d 8 fc 69 32 00 00 48 00 00 
0.678800 1 3a2 Rx d 8 02 2a 00 00 22 00 00 00 
0.679100 1 266 Rx d 8 00 00 01 24 00 00 9f 01 
0.679300 1 257 Rx d 8 6f 45 1f 00 02 a0 0f 01 
0.679400 1 139 Rx d 1 00 
0.679700 1 1d8 Rx d 8 29 00 00 00 00 00 60 62 
0.679900 1 1e5 Rx d 8 02 ac 04 00 00 00 60 f8 
0.680200 1 132 Rx d 6 29 88 f4 ff 22 40 
0.680400 1 623 Rx d 8 28 d3 00 d3 00 d2 00 d2 
0.680700 1 4e3 Rx d 8 01 e3 06 00 00 00 28 29 
0.681500 1 2e8 Rx d 8 02 11 00 00 06 80 c0 43 
0.681800 1 23e Rx d 8 f4 01 3a bf fa fc df 03 
0.682400 1 261 Rx d 8 64 fd 0f 4c 00 40 84 76 
0.682600 1 1f8 Rx d 4 00 00 00 00 
0.683700 1 409 Rx d 1 00 
0.684300 1 2f1 Rx d 8 2e 01 80 21 b4 00 38 04 
0.684600 1 221 Rx d 8 60 55 55 05 54 51 31 08 
0.686400 1 37a Rx d 8 7b 00 00 00 00 00 00 00 
0.686600 1 263 Rx d 8 02 00 00 00 00 00 00 00 
0.686900 1 343 Rx d 8 00 92 60 6e 9b 00 00 00 
0.687400 1 2d2 Rx d 8 71 29 a3 4e c4 09 d5 14 
0.687600 1 212 Rx d 8 59 04 00 00 81 ff 77 31 
0.687800 1 129 Rx d 8 61 27 cf 5f ff 1f ff 3f 
0.688100 1 252 Rx d 8 3f 23 3a 4b 00 fc 0f 00 
0.688200 1 249 Rx d 4 d3 03 00 00 
0.688500 1 292 Rx d 8 34 0a f9 a4 8d 01 00 00 
0.688600 1 2f2 Rx d 2 12 01 
0.688800 1 312 Rx d 8 41 82 c7 14 1c 8d 04 00 
0.689100 1 392 Rx d 8 01 1c a9 67 10 27 02 00 
0.689300 1 118 Rx d 8 fd 6a 32 00 00 48 00 00 
0.689500 1 266 Rx d 8 00 00 01 24 00 00 9f 01 
0.689800 1 1d8 Rx d 8 29 00 00 00 00 00 80 82 
0.690000 1 1e5 Rx d 8 02 ac 04 00 00 00 00 98 
0.690300 1 289 Rx d 8 a6 02 01 00 8a 00 3d 0f 
0.690500 1 132 Rx d 6 35 88 f5 ff 20 40 
0.690700 1 2e1 Rx d 8 04 00 00 80 48 44 26 00 
0.690900 1 3b2 Rx d 8 19 15 f5 41 15 c5 e1 19 
0.691200 1 400 Rx d 7 00 e0 fb be ef fb 00 
0.691300 1 20e Rx d 3 12 02 00 
0.691500 1 401 Rx d 8 20 2a 5f 80 67 80 74 80 
0.691700 1 419 Rx d 1 00 
0.691900 1 448 Rx d 7 00 00 10 10 00 00 00 
0.692100 1 623 Rx d 8 29 00 d2 00 d1 00 d1 00 
0.692400 1 6e8 Rx d 8 3c 62 00 12 04 00 00 00 
0.692600 1 3c3 Rx d 8 00 00 00 00 00 45 00 00 
0.692800 1 3e3 Rx d 4 00 00 00 00 
0.693000 1 712 Rx d 8 05 00 00 00 00 00 00 00 
0.693400 1 201 Rx d 8 02 28 01 40 06 00 b8 39 
0.693600 1 359 Rx d 8 80 3f 00 00 00 00 00 00 
0.693900 1 3ae Rx d 8 d6 3f 00 08 00 00 91 af 
0.695300 1 3f5 Rx d 8 00 00 b3 08 82 04 00 00 
0.696200 1 2c4 Rx d 8 16 a9 b4 02 00 00 00 01 
0.696500 1 243 Rx d 8 03 00 20 00 2e 58 14 00 
0.696700 1 204 Rx d 8 01 00 00 ff 00 00 00 10 
0.696900 1 264 Rx d 6 39 00 00 00 a0 00 
0.697200 1 224 Rx d 8 04 08 00 48 19 01 10 08 
0.697400 1 2b4 Rx d 6 44 05 a1 0d 0d 01 
0.697600 1 4e2 Rx d 8 01 c9 06 00 00 00 a8 28 
0.697800 1 129 Rx d 8 df 28 cf 5f 00 20 ff 3f 
0.698400 1 261 Rx d 8 05 22 cc c8 9a 42 90 1d 
0.698600 1 118 Rx d 8 fe 6b 32 00 00 48 00 00 
0.698800 1 22b Rx d 8 ff ff ff ff ff ff ff ff 
0.699100 1 266 Rx d 8 00 00 01 24 00 00 9f 01 
0.699300 1 257 Rx d 8 70 46 1f 00 02 a0 0f 01 
0.699600 1 1d8 Rx d 8 29 00 00 00 00 00 a0 a2 
0.699800 1 1e5 Rx d 8 02 ac 04 00 00 00 20 b8 
0.700100 1 2c1 Rx d 8 23 17 13 00 00 00 00 00 
0.700300 1 132 Rx d 6 27 88 f5 ff 1f 40 
0.700500 1 3a1 Rx d 8 29 fa 40 01 3e 00 50 b2 
0.700700 1 553 Rx d 8 00 00 00 00 00 00 20 78 
0.701000 1 677 Rx d 8 01 00 00 00 00 00 00 00 
0.701600 1 142 Rx d 8 01 00 40 0a c0 1b 00 00 
0.703100 1 623 Rx d 8 2a d0 00 d0 00 cf 00 cf 
0.703300 1 545 Rx d 8 d0 01 2c f0 9a a2 c9 3c 
0.703600 1 552 Rx d 8 00 00 00 00 00 00 20 77 
0.703900 1 3df Rx d 8 00 00 80 00 01 d0 00 1b 
0.704100 1 234 Rx d 8 30 e1 03 80 43 00 14 86 
0.704400 1 293 Rx d 8 01 0c 15 90 55 14 df 8f 
0.704600 1 383 Rx d 8 b9 18 31 00 21 b1 23 5a 
0.704700 1 789 Rx d 4 55 19 20 90 
0.705800 1 420 Rx d 8 28 01 40 4b 00 00 80 04 
0.706000 1 285 Rx d 8 03 47 86 48 95 00 00 00 
0.706300 1 295 Rx d 8 3c 00 a1 ff 00 00 00 04 
0.706500 1 263 Rx d 8 03 00 00 00 00 00 00 31 
0.706700 1 2d1 Rx d 2 7f 01 
0.706900 1 2e1 Rx d 8 65 80 08 00 e4 f6 8b 6a 
0.707100 1 381 Rx d 8 b2 00 32 36 00 40 17 01 
0.707300 1 39d Rx d 5 1f 56 01 28 00 
0.707600 1 39a Rx d 8 fd fd fd fd fd 01 00 02 
0.707800 1 129 Rx d 8 8a 29 cf 5f 00 20 ff 3f 
0.708000 1 3c9 Rx d 8 06 00 00 00 00 00 00 00 
0.709300 1 118 Rx d 8 ff 6c 32 00 00 48 00 00 
0.709500 1 266 Rx d 8 00 00 01 24 00 00 9f 01 
0.709800 1 1d8 Rx d 8 29 00 00 00 00 00 c0 c2 
0.710000 1 1e5 Rx d 8 02 ac 04 00 00 00 40 d8 
0.710200 1 132 Rx d 6 2c 88 f5 ff 22 40 
0.710500 1 232 Rx d 8 8a 00 df 09 df 04 00 00 
0.710700 1 372 Rx d 8 0b ed ff 90 00 65 66 00 
0.710900 1 3c8 Rx d 8 06 00 00 00 00 00 00 00 
0.711200 1 401 Rx d 8 21 2a 63 80 67 80 7d 80 
0.711400 1 422 Rx d 6 f0 00 10 00 00 00 
0.711600 1 423 Rx d 7 00 00 00 00 08 00 00 
0.711800 1 3a2 Rx d 8 a0 85 72 d8 1c 00 43 72 
0.714300 1 261 Rx d 8 00 10 28 00 ed 4c a0 07 
0.714500 1 219 Rx d 7 03 00 4c 4d 97 b3 04 
0.715400 1 719 Rx d 8 15 1a 3d 5a ff 05 00 00 
0.716200 1 2aa Rx d 3 7f 20 4b 
0.716400 1 441 Rx d 8 27 00 b6 c3 58 00 15 76 
0.716600 1 243 Rx d 8 04 e4 f0 ff fd 7f 43 50 
0.716900 1 2c3 Rx d 8 00 00 c0 4b 01 00 80 cb 
0.717400 1 421 Rx d 7 00 14 00 00 00 d0 48 
0.717600 1 2c2 Rx d 8 20 40 00 4b 01 00 80 cb 
0.717900 1 129 Rx d 8 f8 2a cf 5f 01 20 ff 3f 
0.718400 1 623 Rx d 8 2b 00 cf 00 ce 00 ce 00 
0.718600 1 118 Rx d 8 00 6d 32 00 00 48 00 00 
0.718900 1 201 Rx d 8 03 28 01 40 06 00 98 3b 
0.719100 1 266 Rx d 8 00 00 01 24 00 00 9f 01 
0.719300 1 257 Rx d 8 71 47 1f 00 02 a0 0f 01 
0.719600 1 2bf Rx d 7 0a 00 00 00 4c 00 01 
0.719800 1 1d8 Rx d 8 29 00 00 00 00 00 e0 e2 
0.720000 1 2c1 Rx d 8 04 00 0d 00 0d 11 08 0f 
0.720200 1 132 Rx d 6 28 88 f5 ff 22 40 
0.720500 1 1e5 Rx d 8 02 ac 04 00 00 00 60 f8 
0.720700 1 361 Rx d 5 34 0e 1f 03 01 
0.721400 1 2f9 Rx d 8 b0 fb 07 18 00 00 00 00 
0.721600 1 23e Rx d 8 f4 01 3a bf fa fc ef 13 
0.722300 1 788 Rx d 8 02 40 cd e7 4d 03 00 00 
0.722600 1 2e1 Rx d 8 10 21 04 00 12 00 20 08 
0.726400 1 263 Rx d 8 04 00 00 00 60 14 00 00 
0.726700 1 2b3 Rx d 8 0a 2e 20 00 00 00 00 00 
0.726900 1 3a8 Rx d 8 00 ff 00 7f 00 00 00 00 
0.727200 1 3c2 Rx d 8 29 55 00 00 00 00 00 80 
0.727400 1 45a Rx d 8 fd 07 f8 ff 03 00 00 2d 
0.727800 1 129 Rx d 8 a4 2b cf 5f 00 20 ff 3f 
0.728300 1 288 Rx d 8 03 11 00 40 80 00 71 cf 
0.728600 1 3f9 Rx d 8 03 00 00 00 00 00 00 00 
0.729300 1 118 Rx d 8 01 6e 32 00 00 48 00 00 
0.729500 1 266 Rx d 8 00 00 01 24 00 00 9f 01 
0.729800 1 1d8 Rx d 8 29 00 00 00 00 00 00 02 
0.730000 1 1e5 Rx d 8 02 ac 04 00 00 00 00 98 
0.730200 1 132 Rx d 6 29 88 f5 ff 22 40 
0.730400 1 261 Rx d 8 31 00 11 00 b2 49 ba ed 
0.730700 1 2a1 Rx d 6 00 00 98 3a 00 00 
0.730900 1 401 Rx d 8 22 2a 74 80 77 80 78 80 
0.731100 1 623 Rx d 8 2c cd 00 cd 00 cc 00 cc 
0.732300 1 225 Rx d 4 45 55 fa 00 
0.732700 1 75d Rx d 8 04 00 00 00 00 00 00 00 
0.732900 1 21d Rx d 8 04 00 35 00 00 00 00 00 
0.733000 1 41d Rx d 1 00 
0.733400 1 25d Rx d 8 36 41 01 2a 04 f0 d8 03 
0.733600 1 1fa Rx d 3 02 c0 01 
0.733800 1 25b Rx d 8 d3 c0 02 05 6a 86 30 15 
0.734100 1 3ae Rx d 8 d6 3f 00 08 00 00 a1 bf 
0.734300 1 798 Rx d 8 28 62 08 5e e4 01 20 a1 
0.734500 1 221 Rx d 8 61 05 55 55 01 02 40 76 
0.735500 1 339 Rx d 8 05 e1 02 00 00 02 40 02 
0.736400 1 545 Rx d 8 01 00 00 00 00 10 d0 2b 
0.736600 1 243 Rx d 8 00 fc cf 4c a8 04 41 49 
0.737800 1 129 Rx d 8 c4 2c cf 5f 00 20 ff 3f 
0.737900 1 229 Rx d 3 41 05 00 
0.738100 1 249 Rx d 4 d3 04 00 00 
0.738300 1 22a Rx d 4 00 00 c9 15 
0.738500 1 118 Rx d 8 02 6f 32 00 00 48 00 00 
0.738700 1 283 Rx d 6 00 00 00 00 00 00 
0.739000 1 266 Rx d 8 00 00 01 24 00 00 9f 01 
0.739200 1 2c1 Rx d 8 48 3c 7e 00 3c fe 02 07 
0.739500 1 257 Rx d 8 72 48 1f 00 02 a0 0f 01 
0.739700 1 2e1 Rx d 8 39 0d 10 c9 1f 28 10 00 
0.739900 1 1d8 Rx d 8 29 00 00 00 00 00 20 22 
0.740200 1 330 Rx d 8 10 00 39 2e 32 52 00 00 
0.740400 1 132 Rx d 6 33 88 f5 ff 20 40 
0.740600 1 1e5 Rx d 8 02 ac 04 00 00 00 20 b8 
0.740800 1 242 Rx d 4 55 15 06 05 
0.741000 1 2a8 Rx d 8 02 11 00 00 06 80 d0 13 
0.741300 1 54f Rx d 8 00 00 00 00 00 00 00 00 
0.741500 1 677 Rx d 8 02 00 00 00 00 00 00 00 
0.741700 1 6a2 Rx d 5 00 00 00 00 00 
0.741900 1 623 Rx d 8 2d 00 cc 00 cb 00 cb 00 
0.742400 1 381 Rx d 8 13 00 00 00 00 20 08 ff 
0.742600 1 1f9 Rx d 8 00 00 00 00 00 00 00 00 
0.743100 1 78a Rx d 8 01 00 01 00 e4 5d 90 5d 
0.743400 1 201 Rx d 8 b8 b9 9a 00 20 77 f1 07 
0.744400 1 3c0 Rx d 8 00 00 00 00 00 00 00 00 
0.744700 1 3a2 Rx d 8 01 10 20 00 11 f0 ff 00 
0.745400 1 797 Rx d 4 15 0d 20 dd 
0.746100 1 682 Rx d 8 00 00 00 40 05 02 20 47 
0.746300 1 428 Rx d 7 00 00 10 10 00 00 00 
0.746500 1 261 Rx d 8 32 2a 80 02 80 5c c2 72 
0.746700 1 263 Rx d 8 18 7b 4d 07 a0 4f 5f 1f 
0.747100 1 39d Rx d 5 20 57 01 28 00 
0.747600 1 360 Rx d 8 03 00 00 00 00 00 00 00 
0.747900 1 129 Rx d 8 d6 2d cf 5f 00 20 ff 3f 
0.748100 1 7aa Rx d 8 04 00 0f c0 00 1a 00 00 
0.748500 1 22b Rx d 8 ff ff ff ff ff ff ff ff 
0.749300 1 118 Rx d 8 f3 60 32 00 00 48 00 00 
0.749500 1 119 Rx d 4 00 00 00 00 
0.749700 1 266 Rx d 8 00 00 01 24 00 00 9f 01 
0.750000 1 1d8 Rx d 8 29 00 00 00 00 00 40 42 
0.750200 1 1e5 Rx d 8 02 ac 04 00 00 00 40 d8 
0.750400 1 132 Rx d 6 27 88 f4 ff 20 40 
0.750600 1 103 Rx d 8 22 b3 88 04 92 2c 21 02 
0.750900 1 2a6 Rx d 8 00 00 6a 18 00 00 00 00 
0.751100 1 2a7 Rx d 8 00 00 00 00 00 74 05 84 
0.751400 1 2c7 Rx d 8 00 00 00 00 00 00 48 ff 
0.751600 1 366 Rx d 8 14 05 00 00 7e 0d bf 3d 
0.751800 1 142 Rx d 8 28 00 02 5d 00 00 01 00 
0.752100 1 3a1 Rx d 8 e8 4e 0d 8a 01 1c 62 0c 
0.752300 1 3e8 Rx d 8 06 00 00 00 00 00 00 00 
0.752600 1 401 Rx d 8 23 02 7f 80 00 00 00 00 
0.753100 1 623 Rx d 8 2e ca 00 ca 00 c9 00 c9 
0.754000 1 234 Rx d 8 26 50 02 31 c5 04 20 2d 
0.754200 1 253 Rx d 8 00 64 34 85 64 62 00 15 
0.754400 1 2e1 Rx d 8 02 6c 7f 02 21 5e 00 00 
0.754700 1 82 Rx d 8 01 7f ff 40 ff 03 43 0b 
0.754900 1 102 Rx d 8 22 b3 88 04 8c 0c 21 08 
0.755000 1 213 Rx d 2 58 6d 
0.755200 1 4f3 Rx d 4 00 00 00 00 
0.756200 1 285 Rx d 8 04 53 93 47 8b 00 00 00 
0.756400 1 123 Rx d 8 01 00 00 00 00 3f 00 00 
0.756700 1 243 Rx d 8 01 fc 38 00 45 00 7c 7c 
0.756900 1 295 Rx d 8 50 00 bf ff 00 00 00 05 
0.757200 1 439 Rx d 8 02 00 40 00 00 14 00 00 
0.757400 1 2ec Rx d 3 7f 20 8d 
0.757800 1 129 Rx d 8 a4 2e cf 5f 01 20 ff 3f 
0.758400 1 2c1 Rx d 8 21 23 2b fa 02 00 00 00 
0.758600 1 118 Rx d 8 f4 61 32 00 00 48 00 00 
0.758900 1 266 Rx d 8 00 00 01 24 00 00 9f 01 
0.759100 1 31a Rx d 8 60 fc ff 02 00 00 10 8a 
0.759300 1 257 Rx d 8 73 49 1f 00 02 a0 0f 01 
0.759600 1 108 Rx d 8 21 08 00 02 00 01 00 0d 
0.759800 1 1d8 Rx d 8 29 00 00 00 00 00 60 62 
0.760000 1 126 Rx d 5 01 b0 1d 40 35 
0.760200 1 132 Rx d 6 28 88 f4 ff 20 40 
0.760400 1 1e5 Rx d 8 02 ac 04 00 00 00 60 f8 
0.760600 1 128 Rx d 5 80 02 e4 0a 02 
0.760900 1 1d6 Rx d 8 02 08 04 00 0a 48 1e 05 
0.761100 1 268 Rx d 5 01 01 fa 00 bf 
0.761300 1 279 Rx d 8 4d 08 0d 01 74 05 62 02 
0.761500 1 211 Rx d 6 98 16 71 0d 00 f1 
0.761700 1 122 Rx d 8 01 00 00 00 00 3f 00 00 
0.761900 1 2b6 Rx d 3 00 03 00 
0.762100 1 23e Rx d 8 f4 01 3a bf fa fc ff 23 
0.762400 1 340 Rx d 8 09 00 00 00 00 00 00 00 
0.762600 1 261 Rx d 8 ab 4d 0a 00 00 40 d5 0d 
0.762800 1 395 Rx d 8 09 0f 13 52 09 01 08 7d 
0.763100 1 397 Rx d 8 00 00 00 d8 1d 00 00 00 
0.763300 1 3a3 Rx d 8 00 d0 00 00 38 03 fc 01 
0.763600 1 7a8 Rx d 8 02 40 cd 57 4d 07 00 00 
0.763800 1 3ae Rx d 8 d6 3f 00 08 00 00 b0 ce 
0.765400 1 42a Rx d 8 63 d5 62 b5 56 6d 56 aa 
0.765600 1 719 Rx d 8 16 00 00 00 00 00 00 00 
0.766300 1 441 Rx d 8 47 85 89 00 32 00 18 08 
0.766600 1 263 Rx d 8 e9 6a 5d 07 c0 2f 5f 1f 
0.767500 1 113 Rx d 3 01 97 01 
0.767600 1 7f4 Rx d 1 01 
0.767800 1 129 Rx d 8 f8 2f cf 5f 00 20 ff 3f 
0.768100 1 7ff Rx d 8 01 a5 4e 43 42 4c 7b 00 
0.768300 1 318 Rx d 8 1a 08 2c 07 18 2e 2f e5 
0.768600 1 201 Rx d 8 09 04 b8 00 11 00 80 c4 
0.768800 1 272 Rx d 8 09 80 63 00 00 00 00 00 
0.769000 1 382 Rx d 5 46 1b 28 00 00 
0.769200 1 393 Rx d 8 09 80 63 00 00 00 00 00 
0.769500 1 118 Rx d 8 f5 62 32 00 00 48 00 00 
0.769700 1 228 Rx d 8 03 11 00 40 80 00 71 6f 
0.770000 1 1d8 Rx d 8 29 00 00 00 00 00 80 82 
