date Tue Aug 25 10:09:01 AM 2026
base hex timestamps absolute
// version 7.0.0
0.000000 1 340 Rx d 8 0a 04 00 00 00 00 00 00 
0.000600 1 132 Rx d 6 42 88 f8 ff 29 40 
0.000800 1 20c Rx d 8 00 e0 55 17 00 a0 08 00 
0.001000 1 129 Rx d 8 79 2c 42 20 01 20 ff 3f 
0.001500 1 282 Rx d 8 00 00 00 00 e8 03 0b 24 
0.001800 1 379 Rx d 8 05 00 6f 31 51 0c 00 00 
0.002400 1 2e8 Rx d 8 c2 10 00 00 06 00 f0 b2 
0.002700 1 21d Rx d 8 04 00 35 00 00 00 00 00 
0.002900 1 243 Rx d 8 02 9c 31 11 00 11 00 00 
0.003200 1 25d Rx d 8 36 41 01 16 04 f0 d8 03 
0.003400 1 3c2 Rx d 8 00 55 55 55 00 00 55 49 
0.003600 1 27d Rx d 8 00 00 00 00 00 00 00 00 
0.003800 1 29d Rx d 5 00 00 00 20 00 
0.004100 1 3e2 Rx d 7 00 00 80 fa 3f c0 04 
0.004200 1 2bd Rx d 4 00 00 00 00 
0.004400 1 2e1 Rx d 8 fb 19 ef 39 9c e5 09 00 
0.004600 1 41d Rx d 1 00 
0.004800 1 43d Rx d 6 00 00 ff 1f 40 00 
0.005000 1 441 Rx d 8 68 85 89 00 32 00 20 31 
0.005200 1 45a Rx d 8 20 46 46 c6 3f 5e 00 66 
0.005500 1 49d Rx d 7 00 00 00 00 00 00 00 
0.005700 1 3a2 Rx d 8 a0 85 72 fa 04 00 c5 6f 
0.006000 1 420 Rx d 8 28 01 40 4b 00 00 80 01 
0.006200 1 201 Rx d 8 01 04 18 01 00 00 80 c4 
0.006700 1 2d2 Rx d 8 6f 29 a4 4e 00 00 a1 01 
0.006900 1 212 Rx d 8 58 04 00 00 82 ff 77 62 
0.007200 1 252 Rx d 8 00 00 7e 06 00 c0 16 00 
0.007400 1 292 Rx d 8 2b e2 68 64 8b 01 00 00 
0.007500 1 2f2 Rx d 2 12 01 
0.007800 1 4e3 Rx d 8 03 59 00 00 00 00 a8 0c 
0.008000 1 712 Rx d 8 03 2a 53 0b 50 0b 70 0b 
0.008400 1 448 Rx d 7 00 00 10 10 00 00 00 
0.008500 1 1f8 Rx d 4 00 00 00 00 
0.008700 1 139 Rx d 1 00 
0.008900 1 6e8 Rx d 8 01 00 00 00 00 00 00 00 
0.009100 1 545 Rx d 8 f0 00 22 30 9f e6 49 5a 
0.010800 1 132 Rx d 6 55 88 f8 ff 29 40 
0.011000 1 401 Rx d 8 16 2a a1 80 9c 80 94 80 
0.011200 1 129 Rx d 8 f5 2d 41 20 00 20 ff 3f 
0.011400 1 241 Rx d 7 29 28 4c 0a 0a 53 00 
0.012000 1 261 Rx d 8 a4 fe 17 4e 00 40 24 61 
0.012300 1 381 Rx d 8 d5 72 45 3f 3a 00 00 01 
0.012500 1 253 Rx d 8 00 64 34 85 64 62 00 15 
0.012700 1 4f3 Rx d 4 00 00 00 00 
0.012900 1 82 Rx d 8 00 7f ff 80 ff 03 00 80 
0.013000 1 213 Rx d 2 78 8d 
0.013300 1 263 Rx d 8 02 00 00 00 00 00 00 00 
0.013500 1 285 Rx d 8 04 53 93 47 8b 00 00 00 
0.013800 1 343 Rx d 8 00 92 5c ae 9f 00 00 00 
0.015500 1 289 Rx d 8 a6 04 81 00 a1 00 3d 0f 
0.015700 1 37a Rx d 8 01 0d 00 00 00 00 00 00 
0.016000 1 2c1 Rx d 8 02 0d 06 05 00 d0 92 c1 
0.017700 1 3ae Rx d 8 00 40 00 08 00 00 90 d9 
0.018800 1 3c3 Rx d 8 00 00 00 00 00 45 00 00 
0.018900 1 3e3 Rx d 4 00 00 00 00 
0.020000 1 2e1 Rx d 8 04 00 00 80 48 44 26 00 
0.020300 1 2a7 Rx d 8 00 00 00 00 00 74 05 84 
0.020500 1 2a6 Rx d 8 00 00 6a 18 00 00 00 00 
0.020700 1 132 Rx d 6 49 88 f8 ff 28 40 
0.021000 1 2c7 Rx d 8 00 00 00 00 00 00 49 ff 
0.021200 1 129 Rx d 8 19 2e 42 20 00 20 ff 3f 
0.021400 1 789 Rx d 4 54 11 c0 27 
0.021500 1 229 Rx d 3 41 05 00 
0.021700 1 249 Rx d 4 4c 06 00 00 
0.022000 1 54f Rx d 8 00 00 00 00 00 00 00 00 
0.022200 1 221 Rx d 8 40 41 05 05 00 50 71 6f 
0.022400 1 2f1 Rx d 8 0f a9 c9 9b 98 83 39 00 
0.022700 1 359 Rx d 8 4a 04 00 00 9f a0 6f b2 
0.022900 1 243 Rx d 8 03 00 00 00 32 7a 36 00 
0.023100 1 39d Rx d 5 dc 54 c1 27 00 
0.023300 1 25b Rx d 8 d3 c0 02 05 6a 86 a0 85 
0.023600 1 4e2 Rx d 8 03 49 00 00 00 00 a8 0c 
0.024800 1 553 Rx d 8 00 00 00 00 00 00 c0 18 
0.026800 1 3c8 Rx d 8 03 00 00 00 00 00 00 00 
0.027500 1 22b Rx d 8 ff ff ff df ff ff ff 3f 
0.027700 1 142 Rx d 8 01 00 40 0a c0 1b 00 00 
0.028000 1 261 Rx d 8 05 22 02 c9 9a 42 30 f4 
0.029200 1 23e Rx d 8 f4 01 3a a8 fa fc df ec 
0.029500 1 552 Rx d 8 00 00 00 00 00 00 c0 17 
0.029800 1 38a Rx d 8 03 00 00 00 00 00 00 00 
0.030600 1 132 Rx d 6 5e 88 f8 ff 27 40 
0.030800 1 383 Rx d 8 a3 18 65 00 45 00 e1 27 
0.031000 1 129 Rx d 8 e8 2f 42 20 00 20 ff 3f 
0.031300 1 201 Rx d 8 82 02 00 00 00 00 98 3b 
0.031500 1 401 Rx d 8 17 2a 90 80 92 80 9c 80 
0.032800 1 263 Rx d 8 03 00 00 00 00 00 00 4f 
0.032900 1 2aa Rx d 3 2f c0 9b 
0.033200 1 2b3 Rx d 8 69 31 00 5e 43 00 22 32 
0.033400 1 3f5 Rx d 8 00 c8 4f 09 80 04 00 00 
0.036100 1 2e1 Rx d 8 45 00 00 00 0c f9 8c 6a 
0.036300 1 2c1 Rx d 8 03 17 13 00 00 00 00 00 
0.036500 1 422 Rx d 6 00 00 10 00 00 00 
0.036800 1 39a Rx d 8 79 ff fd fd fd 01 00 08 
0.037000 1 3c9 Rx d 8 0b 81 f3 de 61 00 00 00 
0.037300 1 423 Rx d 7 f8 00 00 00 08 00 00 
0.037500 1 677 Rx d 8 01 00 00 00 00 00 00 00 
0.038000 1 3a1 Rx d 8 2b 91 40 a7 3e 00 90 31 
0.038500 1 3a2 Rx d 8 01 10 20 00 09 f0 ff 00 
0.038800 1 788 Rx d 8 01 00 00 00 ff a1 d8 13 
0.040600 1 132 Rx d 6 48 88 f8 ff 28 40 
0.041000 1 129 Rx d 8 0d 20 42 20 00 20 ff 3f 
0.042000 1 545 Rx d 8 01 00 00 00 00 10 50 ab 
0.042800 1 2c3 Rx d 8 55 5b a9 b6 02 00 12 a5 
0.043000 1 243 Rx d 8 04 9c f1 ff fd 7f 66 66 
0.043100 1 409 Rx d 1 00 
0.043600 1 2c2 Rx d 8 20 40 c0 4b 01 00 80 cb 
0.043800 1 219 Rx d 7 05 00 6f 6f 6f 6f 00 
0.044000 1 234 Rx d 8 19 90 01 38 e1 04 20 82 
0.044200 1 261 Rx d 8 00 10 97 00 c9 4c 40 f2 
0.044400 1 2d1 Rx d 2 7f 01 
0.044600 1 719 Rx d 8 03 00 00 00 00 00 00 00 
0.044800 1 288 Rx d 8 03 16 54 8c 80 8c d1 60 
0.046000 1 2c4 Rx d 8 a7 05 aa 90 81 0c a4 06 
0.046300 1 204 Rx d 8 01 00 00 ff 00 00 00 10 
0.046700 1 264 Rx d 6 38 00 00 00 a0 00 
0.047000 1 224 Rx d 8 04 08 00 48 19 01 10 08 
0.047200 1 2b4 Rx d 6 6a 05 a5 0d b3 00 
0.047600 1 400 Rx d 7 00 e0 fb be ef fb 00 
0.048100 1 381 Rx d 8 16 10 00 00 00 64 64 00 
0.050200 1 7aa Rx d 8 01 a3 0d a4 0d 00 00 2e 
0.050600 1 2f9 Rx d 8 d0 fb 07 28 00 00 00 00 
0.050800 1 132 Rx d 6 45 88 f8 ff 28 40 
0.051000 1 372 Rx d 8 08 00 00 00 00 00 00 00 
0.051300 1 129 Rx d 8 b7 21 42 20 01 20 ff 3f 
0.051500 1 401 Rx d 8 18 2a 9e 80 98 80 9a 80 
0.051700 1 798 Rx d 8 c4 49 62 12 47 0c c0 40 
0.052100 1 2e1 Rx d 8 10 21 04 00 12 00 20 08 
0.052600 1 3a8 Rx d 8 00 ff 00 7f 00 00 00 00 
0.052800 1 3c2 Rx d 8 29 55 00 00 00 00 00 40 
0.053100 1 263 Rx d 8 04 00 00 00 60 00 00 00 
0.053300 1 45a Rx d 8 fd 07 f8 ff 03 00 0b 00 
0.054000 1 441 Rx d 8 29 00 b6 c3 58 00 25 88 
0.055000 1 421 Rx d 7 00 14 00 00 00 d0 48 
0.056000 1 361 Rx d 5 33 0d 20 03 01 
0.056200 1 201 Rx d 8 83 02 00 00 00 00 b8 3b 
0.056400 1 2bf Rx d 7 0a 00 00 00 00 10 00 
0.056700 1 2c1 Rx d 8 04 00 10 0e 0d 11 08 10 
0.056900 1 2a8 Rx d 8 c2 10 00 00 06 00 00 82 
0.057600 1 3f9 Rx d 8 02 00 00 00 00 00 00 00 
0.057900 1 3ae Rx d 8 00 40 00 08 00 00 a0 e9 
0.058700 1 225 Rx d 4 05 45 d2 00 
0.059400 1 1fa Rx d 3 02 c0 01 
0.060000 1 261 Rx d 8 31 00 99 00 e8 49 5a 4b 
0.060600 1 132 Rx d 6 51 88 f8 ff 29 40 
0.061000 1 129 Rx d 8 53 22 42 20 00 20 ff 3f 
0.061600 1 473 Rx d 8 00 00 0f 00 00 00 00 00 
0.061800 1 3b3 Rx d 8 8c 80 04 30 01 00 a8 80 
0.062000 1 39d Rx d 5 dd 55 c1 27 00 
0.062800 1 243 Rx d 8 00 fc cf 0c b1 02 41 29 
0.063000 1 428 Rx d 7 00 00 10 10 00 00 00 
0.063300 1 253 Rx d 8 01 64 34 85 64 62 00 15 
0.064700 1 339 Rx d 8 01 41 02 00 00 02 40 02 
0.064900 1 283 Rx d 6 00 00 00 00 00 00 
0.066300 1 797 Rx d 4 14 09 c0 78 
0.066500 1 242 Rx d 4 10 15 04 05 
0.067000 1 2a1 Rx d 6 00 00 98 3a 00 00 
0.068000 1 2e1 Rx d 8 29 6a 44 a6 1f 28 00 00 
0.069100 1 23e Rx d 8 f4 01 3a a8 fa fc ef fc 
0.070600 1 132 Rx d 6 50 88 f8 ff 29 40 
0.070900 1 3c0 Rx d 8 01 00 00 00 00 00 00 01 
0.071100 1 129 Rx d 8 77 23 41 20 00 20 ff 3f 
0.071300 1 401 Rx d 8 19 2a 9f 80 a3 80 a9 80 
0.071500 1 249 Rx d 4 5e 07 00 00 
0.071700 1 1f9 Rx d 8 00 00 00 00 00 00 00 00 
0.072000 1 3a2 Rx d 8 42 27 00 00 20 00 00 00 
0.072200 1 221 Rx d 8 41 01 55 51 01 02 80 8e 
0.072500 1 3e8 Rx d 8 03 00 00 00 00 00 00 00 
0.072800 1 263 Rx d 8 00 d0 e7 89 d4 07 55 1f 
0.073600 1 360 Rx d 8 01 00 00 00 00 00 00 00 
0.074700 1 3aa Rx d 8 00 00 00 00 00 00 00 00 
0.075000 1 545 Rx d 8 02 00 10 00 00 00 60 bc 
0.075300 1 77a Rx d 8 00 2c 20 00 e0 0c 5f 61 
0.076000 1 78a Rx d 8 01 00 04 00 a4 04 8f 00 
0.076300 1 261 Rx d 8 3a 2b 34 02 80 5c 62 cf 
0.076500 1 2c1 Rx d 8 58 24 7e 00 00 8a 02 47 
0.076800 1 677 Rx d 8 02 00 00 00 00 00 00 00 
0.077000 1 103 Rx d 8 22 b3 48 04 92 2c 21 02 
0.077500 1 22b Rx d 8 ff ff ff df ff ff ff 3f 
0.077800 1 142 Rx d 8 28 00 02 5c 00 00 01 00 
0.078300 1 682 Rx d 8 00 00 00 40 05 02 c0 e7 
0.078400 1 2ec Rx d 3 2f c0 dd 
0.078600 1 119 Rx d 4 00 00 00 00 
0.080500 1 102 Rx d 8 22 b3 48 04 8a 0c 21 08 
0.080700 1 132 Rx d 6 5c 88 f8 ff 27 40 
0.081000 1 129 Rx d 8 c2 24 42 20 00 20 ff 3f 
0.081200 1 201 Rx d 8 08 ca 01 80 22 7b 31 05 
0.082800 1 123 Rx d 8 00 00 12 92 d2 00 00 80 
0.083000 1 243 Rx d 8 01 fc 66 00 66 00 7c 7c 
0.084100 1 2e1 Rx d 8 02 6c 7f 02 3c 5e 00 00 
0.084300 1 381 Rx d 8 17 00 00 00 00 00 00 00 
0.084500 1 7a8 Rx d 8 01 00 00 00 ff a1 d8 13 
0.084800 1 31a Rx d 8 60 fc ff 02 00 00 e0 5a 
0.085600 1 439 Rx d 8 02 00 40 00 00 38 00 00 
0.087500 1 122 Rx d 8 01 00 00 00 00 3f 00 00 
0.088000 1 3a1 Rx d 8 68 42 0e 8a 00 2d a2 d1 
0.088400 1 113 Rx d 3 01 97 01 
0.088600 1 318 Rx d 8 1a 08 3b 02 19 08 23 be 
0.088900 1 3a3 Rx d 8 00 d0 00 00 38 03 fc 01 
0.089100 1 458 Rx d 7 00 00 00 00 40 00 00 
0.089200 1 419 Rx d 1 00 
0.089300 1 7f4 Rx d 1 01 
0.089600 1 7ff Rx d 8 06 84 32 00 00 00 08 c0 
0.089800 1 22a Rx d 4 00 00 d9 15 
0.090500 1 228 Rx d 8 03 16 54 8c 80 8c d1 00 
0.090700 1 132 Rx d 6 52 88 f8 ff 27 40 
0.090800 1 20e Rx d 3 15 05 00 
0.091000 1 129 Rx d 8 d5 25 42 20 00 20 ff 3f 
0.091300 1 401 Rx d 8 1a 2a a8 80 a1 80 9d 80 
0.092000 1 261 Rx d 8 6b 4f 0a 00 00 40 75 6f 
0.092800 1 263 Rx d 8 01 d0 bf b1 8c c7 54 1f 
0.093000 1 2b3 Rx d 8 0a 0e 00 00 00 00 00 00 
0.093800 1 234 Rx d 8 37 e1 03 80 43 00 34 ad 
0.094500 1 272 Rx d 8 09 80 63 00 00 00 00 00 
0.094700 1 382 Rx d 5 42 18 28 00 00 
0.095000 1 393 Rx d 8 09 80 63 00 00 00 00 00 
0.095200 1 42a Rx d 8 f9 6b fe 9a bf e6 af 55 
0.095400 1 719 Rx d 8 14 00 00 00 00 00 bd 00 
0.096000 1 2c1 Rx d 8 21 1b 0d 0a 02 00 00 00 
0.096400 1 7b8 Rx d 8 a4 b8 61 00 04 00 c0 9b 
0.097800 1 3ae Rx d 8 00 40 00 08 00 00 b0 f9 
0.100000 1 340 Rx d 8 0b 40 00 00 00 00 00 00 
0.100300 1 2e1 Rx d 8 fb 19 ee 29 9c df 09 00 
0.100600 1 132 Rx d 6 4f 88 f8 ff 27 40 
0.100800 1 20c Rx d 8 00 e0 55 17 00 a0 08 00 
0.101100 1 129 Rx d 8 0f 26 42 20 00 20 ff 3f 
0.101600 1 282 Rx d 8 00 00 00 00 e8 03 0b 24 
0.101800 1 379 Rx d 8 06 00 93 93 52 0c 00 00 
0.102100 1 39d Rx d 5 de 56 c1 27 00 
0.102500 1 2e8 Rx d 8 c2 10 00 00 06 00 00 c2 
0.102700 1 21d Rx d 8 04 00 35 00 00 00 00 00 
0.102900 1 243 Rx d 8 02 9c 31 11 00 11 00 00 
0.103200 1 25d Rx d 8 36 41 01 16 04 f0 d8 03 
0.103400 1 3c2 Rx d 8 00 55 55 55 00 00 55 49 
0.103600 1 27d Rx d 8 00 00 00 00 00 00 00 00 
0.103800 1 29d Rx d 5 00 00 00 20 00 
0.104100 1 40a Rx d 8 00 04 01 00 00 00 e0 f3 
0.104200 1 2bd Rx d 4 00 00 00 00 
0.104400 1 41d Rx d 1 00 
0.104600 1 3a2 Rx d 8 a0 85 72 fa 04 00 c5 6f 
0.104800 1 43d Rx d 6 00 00 ff 1f 40 00 
0.105000 1 441 Rx d 8 69 85 89 00 32 00 28 3a 
0.105300 1 45a Rx d 8 20 46 46 c6 3f 5e 00 66 
0.105500 1 49d Rx d 7 00 00 00 00 00 00 00 
0.105800 1 75d Rx d 8 06 00 00 00 00 00 00 00 
0.106000 1 420 Rx d 8 28 01 40 4b 00 00 00 02 
0.106200 1 201 Rx d 8 01 04 18 01 00 00 80 c4 
0.106800 1 4e3 Rx d 8 04 00 00 00 00 00 00 00 
0.107500 1 2d2 Rx d 8 6f 29 a4 4e 00 00 a1 01 
0.107800 1 212 Rx d 8 58 04 00 00 82 ff 77 62 
0.108000 1 252 Rx d 8 00 00 7e 06 00 c0 16 00 
0.108200 1 261 Rx d 8 a4 fe 17 4e 00 40 84 c1 
0.108500 1 292 Rx d 8 2b e2 68 64 8b 01 00 00 
0.108600 1 139 Rx d 1 00 
0.108800 1 1f8 Rx d 4 00 00 00 00 
0.108900 1 2f2 Rx d 2 12 01 
0.109100 1 448 Rx d 7 00 00 10 10 00 00 00 
0.109300 1 23e Rx d 8 f4 01 3a a8 fa fc ff 0c 
0.109600 1 545 Rx d 8 f0 00 22 10 9f e5 79 69 
0.109800 1 712 Rx d 8 04 00 00 00 00 00 00 00 
0.110800 1 132 Rx d 6 3e 88 f7 ff 25 40 
0.111000 1 372 Rx d 8 09 00 00 00 00 f8 3f 00 
0.111300 1 129 Rx d 8 18 27 42 20 00 20 ff 3f 
0.111500 1 241 Rx d 7 29 28 4c 0a 0a 53 00 
0.111700 1 333 Rx d 5 04 10 e8 07 00 
0.111900 1 401 Rx d 8 1b 2a 92 80 9b 80 9f 80 
0.112100 1 334 Rx d 8 bf 3f 0a 04 ff 01 01 44 
0.112400 1 3fd Rx d 8 00 00 00 3c 20 00 01 80 
0.112800 1 343 Rx d 8 00 92 5c 0e 9f 00 00 00 
0.113000 1 263 Rx d 8 02 00 00 00 00 00 00 00 
0.115500 1 289 Rx d 8 a6 04 81 c0 94 00 3d 0f 
0.115800 1 37a Rx d 8 02 0d 00 00 00 00 00 00 
0.116100 1 2e1 Rx d 8 04 00 00 80 48 44 26 00 
0.116300 1 2c1 Rx d 8 02 0d 06 05 00 d0 92 c1 
0.116600 1 677 Rx d 8 03 00 00 00 00 00 00 00 
0.118800 1 3c3 Rx d 8 55 55 55 01 00 80 43 00 
0.119000 1 323 Rx d 5 3b 14 21 02 02 
0.120000 1 381 Rx d 8 18 00 00 00 00 00 00 00 
0.120300 1 2a6 Rx d 8 00 00 6a 18 00 00 00 00 
0.120500 1 2a7 Rx d 8 00 00 00 00 00 74 05 84 
0.120700 1 132 Rx d 6 58 88 f8 ff 29 40 
0.121000 1 2c7 Rx d 8 00 00 00 00 00 00 49 ff 
0.121200 1 129 Rx d 8 cf 28 42 20 00 20 ff 3f 
0.121400 1 789 Rx d 4 54 11 d0 37 
0.121500 1 229 Rx d 3 dd 06 00 
0.121800 1 7aa Rx d 8 72 08 72 f9 17 07 21 00 
0.121900 1 249 Rx d 4 3f 08 00 00 
0.122200 1 221 Rx d 8 40 41 05 05 00 50 91 8f 
0.122400 1 2f1 Rx d 8 10 01 00 00 00 00 00 00 
0.122700 1 359 Rx d 8 4b 00 00 00 00 00 00 00 
0.122900 1 243 Rx d 8 03 00 00 00 32 7a 36 00 
0.123100 1 25b Rx d 8 d3 c0 02 05 6a 86 b0 95 
0.123400 1 4e2 Rx d 8 04 0e 40 81 03 50 00 00 
0.123600 1 54f Rx d 8 00 00 00 00 00 00 00 00 
0.124000 1 261 Rx d 8 05 22 02 c9 9a 42 90 54 
0.124800 1 553 Rx d 8 00 00 00 00 00 00 d0 28 
0.126800 1 3c8 Rx d 8 04 00 00 00 00 00 00 00 
0.127500 1 22b Rx d 8 ff ff ff df ff ff ff 3f 
0.127700 1 142 Rx d 8 01 00 40 0a c0 1b 00 00 
0.129500 1 552 Rx d 8 00 00 00 00 00 00 d0 27 
0.129800 1 38a Rx d 8 00 00 00 00 00 00 00 00 
0.130600 1 132 Rx d 6 52 88 f8 ff 27 40 
0.130800 1 383 Rx d 8 a3 18 65 00 45 00 e1 27 
0.131000 1 129 Rx d 8 9a 29 42 20 00 20 ff 3f 
0.131300 1 201 Rx d 8 82 02 00 00 00 00 98 3b 
0.131500 1 401 Rx d 8 1c 2a 9f 80 9d 80 9e 80 
0.132100 1 2e1 Rx d 8 45 00 00 00 0c f9 8c 6a 
0.132800 1 263 Rx d 8 03 00 00 00 00 00 00 4f 
0.133000 1 2aa Rx d 3 2f d0 ab 
0.133200 1 3f5 Rx d 8 00 c8 4f 09 80 04 00 00 
0.136000 1 2c1 Rx d 8 03 17 13 00 00 00 00 00 
0.136500 1 422 Rx d 6 00 00 10 00 00 00 
0.136700 1 39a Rx d 8 fc fd fd fd 21 23 0f 13 
0.137000 1 423 Rx d 7 f8 00 00 00 08 00 00 
0.137500 1 3a2 Rx d 8 01 10 20 00 00 f0 ff 00 
0.137800 1 3ae Rx d 8 00 40 00 08 00 00 c0 09 
0.138100 1 3a1 Rx d 8 2b 91 40 af 3e 00 b0 59 
0.138800 1 788 Rx d 8 02 40 c8 07 00 00 00 00 
0.140000 1 261 Rx d 8 00 10 97 00 c9 4c a0 52 
0.140600 1 132 Rx d 6 48 88 f8 ff 29 40 
0.141000 1 129 Rx d 8 76 2a 41 20 00 20 ff 3f 
0.141300 1 545 Rx d 8 01 00 00 00 00 10 80 db 
0.142000 1 39d Rx d 5 df 57 c1 27 00 
0.142800 1 2c3 Rx d 8 00 00 c0 4b 01 00 80 cb 
0.143000 1 243 Rx d 8 04 9c f1 ff fd 7f 66 66 
0.143200 1 409 Rx d 1 00 
0.143600 1 2c2 Rx d 8 55 5b a9 06 00 00 12 a5 
0.143800 1 219 Rx d 7 00 80 ff ff ff f8 0f 
0.144000 1 234 Rx d 8 19 90 01 37 dd 04 40 9d 
0.144200 1 2d1 Rx d 2 7f 01 
0.144600 1 43b Rx d 8 00 7f 00 ff 00 00 00 00 
0.144800 1 288 Rx d 8 03 16 54 8c 80 8c e1 70 
0.145100 1 34a Rx d 8 00 07 02 20 00 00 00 60 
0.145300 1 719 Rx d 8 15 00 00 00 00 00 00 00 
0.146000 1 2c4 Rx d 8 68 36 a0 cf 81 dd a2 ad 
0.146300 1 204 Rx d 8 01 00 00 ff 00 00 00 10 
0.146700 1 264 Rx d 6 38 00 00 00 a0 00 
0.147000 1 224 Rx d 8 04 08 00 48 19 01 10 08 
0.147200 1 2b4 Rx d 6 66 05 a5 0d b7 00 
0.147600 1 400 Rx d 7 00 e0 fb be ef fb 00 
0.148100 1 2e1 Rx d 8 10 21 04 00 12 00 20 08 
0.149700 1 23e Rx d 8 f4 01 3a a8 fa fc 0f 1c 
0.150600 1 2f9 Rx d 8 d0 fb 07 00 ff ff ff ff 
0.150800 1 132 Rx d 6 43 88 f8 ff 27 40 
0.151000 1 129 Rx d 8 b4 2b 42 20 00 20 ff 3f 
0.151200 1 2e3 Rx d 7 03 00 00 58 02 0b 00 
0.151500 1 401 Rx d 8 1d 2a a1 80 a1 80 a1 80 
0.151700 1 798 Rx d 8 05 00 00 00 00 00 d0 81 
0.152600 1 2e2 Rx d 8 52 29 2c 5c 49 f9 21 0c 
0.152800 1 263 Rx d 8 04 00 00 00 60 10 00 00 
0.153100 1 2b3 Rx d 8 0b ff 9f f0 2f 80 13 00 
0.153300 1 3c2 Rx d 8 29 55 00 00 00 00 00 40 
0.153500 1 45a Rx d 8 fd 07 f8 ff 03 00 0b 00 
0.154100 1 441 Rx d 8 29 00 b6 c3 58 00 2d 90 
0.155000 1 421 Rx d 7 00 14 00 00 00 d0 48 
0.156000 1 737 Rx d 7 00 00 00 00 e0 f0 80 
0.156300 1 201 Rx d 8 83 02 00 00 00 00 b8 3b 
0.156500 1 261 Rx d 8 31 00 a4 00 ea 49 ba b8 
0.156800 1 2c1 Rx d 8 04 00 10 0e 0d 11 08 10 
0.157000 1 2a8 Rx d 8 c2 10 00 00 06 00 10 92 
0.157200 1 381 Rx d 8 d9 12 00 39 00 1e 00 00 
0.157500 1 677 Rx d 8 04 00 00 00 00 00 00 00 
0.157700 1 3f9 Rx d 8 03 00 00 00 00 00 00 00 
0.158000 1 3ae Rx d 8 00 40 00 08 00 00 d1 1a 
0.158200 1 718 Rx d 7 00 00 00 00 00 00 00 
0.158700 1 225 Rx d 4 05 45 d2 00 
0.159400 1 1fa Rx d 3 02 c0 01 
0.160600 1 132 Rx d 6 4e 88 f8 ff 29 40 
0.161000 1 129 Rx d 8 d4 2c 42 20 00 20 ff 3f 
0.161600 1 2f3 Rx d 8 0e 0e 0b 00 00 20 00 00 
0.161900 1 273 Rx d 8 81 e1 10 00 4f 00 10 01 
0.162100 1 3fd Rx d 8 01 00 02 00 00 08 12 80 
0.162800 1 243 Rx d 8 00 fc cf 0c b1 02 41 29 
0.163000 1 428 Rx d 7 00 00 10 10 00 00 00 
0.164100 1 2e1 Rx d 8 29 6a 44 a6 1f 28 00 00 
0.164700 1 339 Rx d 8 01 41 02 00 00 02 40 02 
0.164900 1 283 Rx d 6 00 00 00 00 00 00 
0.166300 1 797 Rx d 4 14 09 d0 88 
0.166500 1 242 Rx d 4 10 15 04 05 
0.167000 1 2a1 Rx d 6 00 00 98 3a 00 00 
0.170500 1 3a2 Rx d 8 42 27 00 00 20 00 00 00 
0.170700 1 132 Rx d 6 5b 88 f7 ff 28 40 
0.171000 1 320 Rx d 8 03 00 00 00 00 00 00 00 
0.171200 1 129 Rx d 8 af 2d 42 20 ff 1f ff 3f 
0.171400 1 372 Rx d 8 0a 01 40 06 00 00 00 82 
0.171700 1 1f9 Rx d 8 00 00 00 00 00 00 00 00 
0.171900 1 249 Rx d 4 5e 09 00 00 
0.172100 1 221 Rx d 8 41 01 55 51 01 02 a0 ae 
0.172300 1 261 Rx d 8 3a 2b 34 02 80 5c c2 2f 
0.172600 1 3c0 Rx d 8 02 00 00 00 00 00 00 00 
0.172800 1 3e8 Rx d 8 04 00 00 00 00 00 00 00 
0.173100 1 263 Rx d 8 00 d0 e7 89 d4 07 55 1f 
0.173300 1 401 Rx d 8 1e 2a 9d 80 a5 80 9d 80 
0.173600 1 360 Rx d 8 02 00 00 00 00 00 00 00 
0.174100 1 545 Rx d 8 02 00 10 00 00 00 90 ec 
0.174600 1 24a Rx d 1 03 
0.175200 1 78a Rx d 8 01 00 05 00 9d 0d 07 00 
0.176000 1 2c1 Rx d 8 58 24 7e 00 00 8a 02 47 
0.176800 1 103 Rx d 8 22 b3 48 04 92 2c 21 02 
0.177500 1 22b Rx d 8 ff ff ff df ff ff ff 3f 
0.177800 1 142 Rx d 8 28 00 02 5c 00 00 01 00 
0.178100 1 682 Rx d 8 00 00 00 40 05 02 d0 f7 
0.178300 1 2ec Rx d 3 2f d0 ed 
0.178500 1 119 Rx d 4 00 00 00 00 
0.178700 1 739 Rx d 5 2c 06 23 01 00 
0.180000 1 2e1 Rx d 8 02 6c 7f 02 3c 5e 00 00 
0.180500 1 102 Rx d 8 22 b3 48 04 8a 0c 21 08 
0.180700 1 132 Rx d 6 4b 88 f8 ff 28 40 
0.180900 1 708 Rx d 5 30 22 0d 00 00 
0.181200 1 129 Rx d 8 2a 2e 41 20 00 20 ff 3f 
0.181400 1 201 Rx d 8 f8 c9 01 80 22 7b 31 05 
0.182000 1 39d Rx d 5 e0 58 c1 27 00 
0.182800 1 123 Rx d 8 01 00 00 00 00 3f 00 00 
0.183000 1 243 Rx d 8 01 fc 66 00 66 00 7c 7c 
0.184400 1 7a8 Rx d 8 02 40 cb 07 00 07 00 00 
0.185600 1 439 Rx d 8 02 00 40 00 00 38 00 00 
0.187500 1 122 Rx d 8 00 00 12 92 12 00 00 00 
0.188000 1 261 Rx d 8 6b 4f 0a 00 00 40 d5 cf 
0.188200 1 3a1 Rx d 8 68 42 0e 8a 00 2d c2 f1 
0.188600 1 52f Rx d 8 00 06 59 d5 96 03 c7 00 
0.188800 1 348 Rx d 8 16 00 00 03 16 08 01 10 
0.189100 1 3a3 Rx d 8 00 d0 00 00 38 03 fc 01 
0.189200 1 528 Rx d 4 6a 8c f9 3c 
0.189300 1 3ed Rx d 1 00 
0.189600 1 414 Rx d 8 10 00 00 00 00 20 20 20 
0.189800 1 113 Rx d 3 01 97 01 
0.189900 1 22a Rx d 4 00 00 d9 15 
0.190200 1 23e Rx d 8 f4 01 3a a8 fa fc 1f 2c 
0.190400 1 318 Rx d 8 1a 08 00 02 19 09 25 86 
0.190600 1 132 Rx d 6 4a 88 f7 ff 25 40 
0.190700 1 20e Rx d 3 16 06 00 
0.191000 1 228 Rx d 8 03 16 54 8c 80 8c e1 10 
0.191200 1 129 Rx d 8 db 2f 41 20 00 20 ff 3f 
0.191400 1 401 Rx d 8 1f 2a 9a 80 98 80 99 80 
0.191700 1 405 Rx d 8 10 00 00 00 00 4c 52 57 
0.191800 1 419 Rx d 1 00 
0.192000 1 55a Rx d 8 01 00 00 00 00 00 00 00 
0.192300 1 381 Rx d 8 1a 16 16 70 00 00 00 00 
0.192500 1 666 Rx d 4 00 00 a0 00 
0.192600 1 7f4 Rx d 1 01 
0.192800 1 263 Rx d 8 01 d0 bf b1 8c c7 54 1f 
0.193100 1 7ff Rx d 8 07 20 80 44 40 00 02 20 
0.193300 1 458 Rx d 7 00 00 00 00 40 00 00 
0.193900 1 234 Rx d 8 37 e1 03 80 43 00 54 cd 
0.194500 1 272 Rx d 8 06 00 fc e0 07 b0 07 08 
0.194800 1 393 Rx d 8 06 00 fb d8 07 b0 07 08 
0.195000 1 719 Rx d 8 16 79 00 ff ff 01 00 00 
0.196000 1 2e1 Rx d 8 fb 19 f0 49 9c e8 09 00 
0.196300 1 2c1 Rx d 8 21 1b 0d 0a 02 00 00 00 
0.196500 1 677 Rx d 8 00 00 00 00 00 00 00 00 
0.196800 1 7b8 Rx d 8 05 40 50 aa 31 03 d0 5d 
0.197800 1 3ae Rx d 8 00 40 00 08 00 00 e1 2a 
0.200100 1 340 Rx d 8 00 00 00 00 00 00 00 00 
0.200600 1 132 Rx d 6 45 88 f8 ff 28 40 
0.200800 1 20c Rx d 8 00 e0 55 17 00 a0 08 00 
0.201100 1 129 Rx d 8 3e 20 41 20 00 20 ff 3f 
0.201300 1 7aa Rx d 8 23 6c f9 12 07 16 00 1c 
0.201600 1 282 Rx d 8 00 00 00 00 e8 03 0b 24 
0.201800 1 379 Rx d 8 07 60 6c 19 d0 c0 14 06 
0.202500 1 2e8 Rx d 8 c2 10 00 00 06 00 10 d2 
0.202700 1 3c2 Rx d 8 00 55 55 55 00 00 55 49 
0.202900 1 21d Rx d 8 04 00 35 00 00 00 00 00 
0.203200 1 243 Rx d 8 02 9c 29 11 00 11 00 00 
0.203400 1 25d Rx d 8 36 41 01 16 04 f0 d9 03 
0.203600 1 3a2 Rx d 8 a0 85 72 fa 04 00 c5 6f 
0.203900 1 27d Rx d 8 00 00 00 00 00 00 00 00 
0.204100 1 261 Rx d 8 a4 fe 27 4e 00 40 e4 31 
0.204300 1 29d Rx d 5 00 00 00 20 00 
0.204500 1 3e2 Rx d 7 00 00 80 fa 3f c0 04 
0.204700 1 2bd Rx d 4 00 00 00 00 
0.204800 1 41d Rx d 1 00 
0.205000 1 43d Rx d 6 00 00 ff 1f 40 00 
0.205300 1 441 Rx d 8 68 85 89 00 32 00 30 41 
0.205500 1 45a Rx d 8 20 46 46 c6 3f 5e 00 66 
0.205700 1 49d Rx d 7 00 00 00 00 00 00 00 
0.206000 1 420 Rx d 8 28 01 40 4b 00 00 80 02 
0.206200 1 201 Rx d 8 01 04 18 01 00 00 80 c4 
0.206800 1 4e3 Rx d 8 cd 04 6b 51 00 0a 00 00 
0.207000 1 545 Rx d 8 f0 00 27 00 9f e7 a9 90 
0.207500 1 2d2 Rx d 8 6f 29 a4 4e 00 00 a1 01 
0.207800 1 212 Rx d 8 58 04 00 00 82 ff 77 62 
0.208000 1 252 Rx d 8 00 00 7e 06 00 c0 16 00 
0.208200 1 292 Rx d 8 2b e2 68 64 8b 01 00 00 
0.208400 1 2f2 Rx d 2 12 01 
0.208500 1 139 Rx d 1 00 
0.208700 1 1f8 Rx d 4 00 00 00 00 
0.208900 1 312 Rx d 8 31 82 c7 14 1c 8d 00 00 
0.209100 1 392 Rx d 8 01 1c a9 67 10 27 02 00 
0.209400 1 3b2 Rx d 8 23 00 00 65 24 aa 80 00 
0.209600 1 448 Rx d 7 00 00 10 10 00 00 00 
0.209900 1 712 Rx d 8 05 00 00 00 00 00 00 00 
0.210800 1 132 Rx d 6 3d 88 f8 ff 29 40 
0.211000 1 401 Rx d 8 20 2a 90 80 97 80 9e 80 
0.211200 1 129 Rx d 8 1a 21 42 20 00 20 ff 3f 
0.211500 1 241 Rx d 7 28 28 0c 0a 0a 53 00 
0.212000 1 294 Rx d 8 14 c1 40 00 00 00 00 00 
0.212300 1 2e1 Rx d 8 04 00 00 80 48 44 26 00 
0.212500 1 3fd Rx d 8 02 00 00 00 00 00 00 90 
0.212800 1 7b1 Rx d 8 00 ff ff ff ff ff ff ff 
0.213000 1 263 Rx d 8 02 00 00 00 00 00 00 00 
0.213200 1 2b3 Rx d 8 0c 00 20 30 f0 4a 53 00 
0.213500 1 343 Rx d 8 00 92 60 ae 9f 00 00 00 
0.215500 1 289 Rx d 8 a6 04 81 00 88 00 3d 0f 
0.215800 1 37a Rx d 8 03 e0 01 00 00 00 00 00 
0.216100 1 2c1 Rx d 8 02 0d 06 05 00 d0 92 c1 
0.217500 1 22b Rx d 8 ff ff ff cf ff ff ff 3f 
0.218800 1 3c3 Rx d 8 00 00 00 00 00 45 00 00 
0.219000 1 3e3 Rx d 4 00 00 00 00 
0.220000 1 261 Rx d 8 05 22 02 c9 9a 42 f0 b4 
0.220300 1 2c7 Rx d 8 00 00 00 00 00 00 49 ff 
0.220500 1 2a6 Rx d 8 00 00 6a 18 00 00 00 00 
0.220700 1 132 Rx d 6 55 88 f8 ff 28 40 
0.221000 1 2a7 Rx d 8 00 00 00 00 00 74 05 84 
0.221200 1 129 Rx d 8 fe 22 42 20 01 20 ff 3f 
0.221400 1 366 Rx d 8 0a 01 ff ff 01 00 b0 00 
0.221600 1 229 Rx d 3 f9 07 00 
0.221700 1 789 Rx d 4 54 11 e0 47 
0.221900 1 249 Rx d 4 e2 0a 00 00 
0.222200 1 221 Rx d 8 40 41 05 05 00 50 b1 af 
0.222400 1 2f1 Rx d 8 11 49 00 42 00 f0 0c 00 
0.222600 1 359 Rx d 8 4c 00 00 00 00 00 00 00 
0.222900 1 243 Rx d 8 03 00 00 00 32 7a 36 00 
0.223000 1 39d Rx d 5 e1 59 c1 27 00 
0.223300 1 25b Rx d 8 d3 c0 02 05 6a 86 c0 a5 
0.223500 1 4e2 Rx d 8 45 03 66 41 03 08 00 00 
0.223800 1 54f Rx d 8 00 00 00 00 00 00 00 00 
0.224800 1 553 Rx d 8 00 00 00 00 00 00 e0 38 
0.226800 1 3c8 Rx d 8 05 00 00 00 00 00 00 00 
0.227500 1 142 Rx d 8 01 00 40 0a c0 1b 00 00 
0.228000 1 2e1 Rx d 8 45 00 00 00 0c f9 8c 6a 
0.228300 1 381 Rx d 8 e0 c3 e5 92 b9 5c b2 10 
0.229200 1 23e Rx d 8 f4 01 3a a8 fa fc 2f 3c 
0.229600 1 552 Rx d 8 00 00 00 00 00 00 e0 37 
0.229800 1 38a Rx d 8 01 00 00 00 00 00 00 00 
0.230600 1 232 Rx d 8 4a 00 e0 09 e2 04 00 00 
0.230800 1 132 Rx d 6 46 88 f8 ff 27 40 
0.231000 1 129 Rx d 8 44 23 42 20 00 20 ff 3f 
0.231300 1 201 Rx d 8 82 02 00 00 00 00 98 3b 
0.231500 1 372 Rx d 8 0b f2 ff 38 00 65 66 00 
0.231700 1 383 Rx d 8 a3 18 65 00 45 00 e1 27 
0.232000 1 401 Rx d 8 21 2a 94 80 97 80 a6 80 
0.232800 1 263 Rx d 8 03 00 00 00 00 00 00 4f 
0.232900 1 2aa Rx d 3 2f e0 bb 
0.233200 1 3f5 Rx d 8 00 c8 4f 09 80 04 00 00 
0.236100 1 261 Rx d 8 00 10 97 00 c9 4c 00 b2 
0.236300 1 2c1 Rx d 8 03 17 13 00 00 00 00 00 
0.236500 1 362 Rx d 3 00 00 00 
0.236700 1 39a Rx d 8 79 ff fd fd fd 01 00 08 
0.237000 1 3a2 Rx d 8 01 10 20 00 0b f0 ff 00 
0.237200 1 422 Rx d 6 00 00 10 00 00 00 
0.237400 1 423 Rx d 7 f8 00 00 00 08 00 00 
0.237600 1 677 Rx d 8 01 00 00 00 00 00 00 00 
0.237900 1 3ae Rx d 8 00 40 00 08 00 00 f1 3a 
0.238100 1 3a1 Rx d 8 2b 91 40 bd 3e 00 d0 87 
0.238800 1 788 Rx d 8 f8 d4 a1 63 00 00 80 00 
0.240000 1 545 Rx d 8 01 00 00 00 00 10 b0 0b 
0.240600 1 132 Rx d 6 49 88 f8 ff 29 40 
0.241000 1 129 Rx d 8 c2 24 42 20 00 20 ff 3f 
0.242800 1 2c3 Rx d 8 55 5b a9 b6 02 00 12 a5 
0.243000 1 243 Rx d 8 04 9c f1 ff fd 7f 66 66 
0.243100 1 409 Rx d 1 00 
0.243600 1 2c2 Rx d 8 20 40 c0 4b 01 00 80 cb 
0.243800 1 219 Rx d 7 01 80 ff ff ff f9 0f 
0.244000 1 234 Rx d 8 18 90 01 37 dd 04 60 bc 
0.244200 1 2d1 Rx d 2 7f 01 
0.244400 1 2e1 Rx d 8 10 21 04 00 12 00 20 08 
0.244600 1 719 Rx d 8 17 00 00 00 00 00 00 00 
0.244900 1 288 Rx d 8 03 16 54 8c 80 8c f1 80 
0.246000 1 2c4 Rx d 8 49 d9 05 2f ab 9c a5 89 
0.246500 1 204 Rx d 8 01 00 00 ff 00 00 00 10 
0.246700 1 264 Rx d 6 38 00 00 00 a0 00 
0.247000 1 224 Rx d 8 04 08 00 48 19 01 10 08 
0.247100 1 2b4 Rx d 6 66 05 a5 0d ad 00 
0.247700 1 400 Rx d 7 00 e0 fb be ef fb 00 
0.250600 1 2f9 Rx d 8 d0 fb 07 08 00 00 00 00 
0.250800 1 132 Rx d 6 4e 88 f8 ff 25 40 
0.251000 1 129 Rx d 8 78 25 42 20 01 20 ff 3f 
0.251300 1 401 Rx d 8 22 2a a4 80 a5 80 a4 80 
0.251500 1 798 Rx d 8 06 05 00 00 00 00 e0 97 
0.252000 1 261 Rx d 8 31 00 9a 00 f0 49 1a 14 
0.252300 1 709 Rx d 8 0c e2 00 00 00 00 00 00 
0.252600 1 3a8 Rx d 8 01 02 00 00 00 03 ff 00 
0.252800 1 263 Rx d 8 04 00 00 00 60 10 00 00 
0.253100 1 3c2 Rx d 8 29 55 00 00 00 00 00 40 
0.253300 1 45a Rx d 8 fd 07 f8 ff 03 00 0b 00 
0.254100 1 441 Rx d 8 29 00 b6 c3 58 00 35 98 
0.255000 1 421 Rx d 7 00 14 00 00 00 d0 48 
0.256100 1 2c1 Rx d 8 04 00 10 0e 0d 11 08 10 
0.256300 1 201 Rx d 8 83 02 00 00 00 00 b8 3b 
0.256500 1 2bf Rx d 7 0a 00 00 00 00 10 00 
0.256800 1 2a8 Rx d 8 c2 10 00 00 06 00 20 a2 
0.257600 1 3f9 Rx d 8 04 00 00 00 00 00 00 00 
0.258700 1 225 Rx d 4 05 45 d2 00 
0.259400 1 1fa Rx d 3 02 c0 01 
0.260100 1 2e1 Rx d 8 29 6a 44 a6 1f 28 00 00 
0.260600 1 132 Rx d 6 52 88 f8 ff 28 40 
0.260800 1 3cc Rx d 8 03 11 03 18 00 0e 09 00 
0.261100 1 129 Rx d 8 0f 26 42 20 00 20 ff 3f 
0.261700 1 61d Rx d 8 01 14 8a 34 ac 36 1b 08 
0.262000 1 238 Rx d 8 f0 27 9c d0 1f 00 f6 d2 
0.262400 1 39d Rx d 5 e2 5a c1 27 00 
0.262800 1 243 Rx d 8 00 fc cf 0c b1 02 41 29 
0.263000 1 428 Rx d 7 00 00 10 10 00 00 00 
0.263600 1 7b1 Rx d 8 01 ff ff ff ff 3f 3f 3f 
0.264100 1 381 Rx d 8 01 00 00 14 93 92 92 00 
0.264700 1 339 Rx d 8 01 41 02 00 00 02 40 02 
0.264900 1 283 Rx d 6 00 00 00 00 00 00 
0.266300 1 797 Rx d 4 14 09 e0 98 
0.266500 1 242 Rx d 4 10 15 04 05 
0.267000 1 2a1 Rx d 6 00 00 98 3a 00 00 
0.267500 1 22b Rx d 8 ff ff ff cf ff ff ff 3f 
0.268000 1 261 Rx d 8 3a 2b 34 02 80 5c 22 8f 
0.269100 1 23e Rx d 8 f4 01 3a a8 fa fc 3f 4c 
0.269500 1 3a2 Rx d 8 42 27 00 00 20 00 00 00 
0.270600 1 132 Rx d 6 53 88 f7 ff 25 40 
0.270900 1 3c0 Rx d 8 03 00 00 00 00 00 00 00 
0.271100 1 129 Rx d 8 18 27 42 20 00 20 ff 3f 
0.271300 1 401 Rx d 8 23 02 ab 80 00 00 00 00 
0.271500 1 249 Rx d 4 28 0b 00 00 
0.271800 1 1f9 Rx d 8 00 00 00 00 00 00 00 00 
0.272100 1 221 Rx d 8 41 01 55 51 01 02 c0 ce 
0.272500 1 3e8 Rx d 8 05 00 00 00 00 00 00 00 
0.272800 1 263 Rx d 8 00 d0 e7 89 d4 07 55 1f 
0.273000 1 2b3 Rx d 8 0d 05 a0 94 3e 42 29 a2 
0.273300 1 545 Rx d 8 02 00 10 00 00 00 c0 1c 
0.273600 1 360 Rx d 8 03 00 00 00 00 00 00 00 
0.274700 1 78a Rx d 8 01 00 06 00 01 00 00 00 
0.276100 1 2e1 Rx d 8 02 6c 7f 02 3c 5e 00 00 
0.276300 1 2c1 Rx d 8 58 24 7e 00 00 8a 02 47 
0.276600 1 677 Rx d 8 02 00 00 00 00 00 00 00 
0.276800 1 103 Rx d 8 22 b3 48 04 92 2c 21 02 
0.277600 1 142 Rx d 8 28 00 02 5c 00 00 01 00 
0.277800 1 3ae Rx d 8 00 40 00 08 00 00 01 4a 
0.278100 1 682 Rx d 8 00 00 00 40 05 02 e0 07 
0.278300 1 2ec Rx d 3 2f e0 fd 
0.278500 1 119 Rx d 4 00 00 00 00 
0.280300 1 7aa Rx d 8 04 00 0f c0 00 1a 00 00 
0.280500 1 102 Rx d 8 22 b3 48 04 8a 0c 21 08 
0.280700 1 132 Rx d 6 58 88 f8 ff 27 40 
0.281000 1 129 Rx d 8 cf 28 42 20 00 20 ff 3f 
0.281300 1 201 Rx d 8 08 ba 01 80 22 7b 31 05 
0.282800 1 123 Rx d 8 00 00 12 92 d2 00 00 80 
0.283000 1 243 Rx d 8 01 fc 66 00 66 00 7c 7c 
0.284000 1 261 Rx d 8 6b 4f 0a 00 00 40 35 2f 
0.284400 1 7a8 Rx d 8 f8 cc a1 63 00 00 82 00 
0.284700 1 3d3 Rx d 3 00 00 00 
0.284900 1 31a Rx d 8 60 fc ff 02 00 00 f0 6a 
0.285600 1 439 Rx d 8 02 00 40 00 00 38 00 00 
0.287500 1 122 Rx d 8 01 00 00 00 00 3f 00 00 
0.288100 1 3a1 Rx d 8 68 42 0e 8a 00 2d e2 11 
0.288400 1 113 Rx d 3 01 97 01 
0.288500 1 7f4 Rx d 1 01 
0.288800 1 7ff Rx d 8 08 00 00 01 00 00 00 00 
0.289000 1 3a3 Rx d 8 00 d0 00 00 38 03 fc 01 
0.289200 1 318 Rx d 8 1a 08 00 02 19 09 27 88 
0.289400 1 419 Rx d 1 00 
0.289600 1 458 Rx d 7 00 00 00 00 40 00 00 
0.289800 1 22a Rx d 4 00 00 d9 15 
0.290500 1 228 Rx d 8 03 16 54 8c 80 8c f1 20 
0.290700 1 132 Rx d 6 44 88 f7 ff 24 40 
0.290800 1 20e Rx d 3 17 07 00 
0.291000 1 129 Rx d 8 a9 29 41 20 00 20 ff 3f 
0.291300 1 372 Rx d 8 0c ed 7f 77 0f 00 00 00 
0.292100 1 2e1 Rx d 8 fb 19 f0 49 9c df 09 00 
0.292800 1 263 Rx d 8 01 d0 bf b1 8c c7 54 1f 
0.293900 1 234 Rx d 8 38 e1 03 80 43 00 74 ee 
0.294500 1 272 Rx d 8 09 80 63 00 00 00 00 00 
0.294800 1 393 Rx d 8 09 80 63 00 00 00 00 00 
0.295000 1 42a Rx d 8 f9 6b fe 9a bf e6 af 55 
0.295200 1 719 Rx d 8 20 03 14 02 14 27 25 00 
0.296000 1 2c1 Rx d 8 21 1b 0d 0a 02 00 00 00 
0.296400 1 7b8 Rx d 8 06 00 00 00 00 00 e0 00 
0.300100 1 340 Rx d 8 01 00 00 00 00 00 00 00 
0.300300 1 261 Rx d 8 a4 fe 27 4e 00 40 44 91 
0.300500 1 381 Rx d 8 22 62 f6 f7 0d 10 01 00 
0.300700 1 132 Rx d 6 3f 88 f7 ff 27 40 
0.301000 1 20c Rx d 8 00 e0 55 17 00 a0 08 00 
0.301200 1 129 Rx d 8 76 2a 41 20 00 20 ff 3f 
0.301600 1 282 Rx d 8 00 00 00 00 e8 03 0b 24 
0.301800 1 379 Rx d 8 08 00 00 00 00 00 0d 03 
0.302000 1 39d Rx d 5 e3 5b c1 27 00 
0.302500 1 2e8 Rx d 8 c2 10 00 00 06 00 20 e2 
0.302700 1 21d Rx d 8 04 00 35 00 00 00 00 00 
0.303000 1 243 Rx d 8 02 9c 29 11 00 11 00 00 
0.303200 1 25d Rx d 8 36 41 01 16 04 f0 d7 03 
0.303400 1 3a2 Rx d 8 a0 85 72 fa 04 00 c5 6f 
0.303700 1 27d Rx d 8 00 00 00 00 00 00 00 00 
0.303900 1 29d Rx d 5 00 00 00 20 00 
0.304100 1 3c2 Rx d 8 00 55 55 55 00 00 55 49 
0.304300 1 40a Rx d 8 00 04 01 00 00 00 f0 03 
0.304500 1 2bd Rx d 4 00 00 00 00 
0.304600 1 41d Rx d 1 00 
0.304800 1 43d Rx d 6 00 00 ff 1f 40 00 
0.305100 1 441 Rx d 8 66 85 89 00 32 00 38 47 
0.305300 1 45a Rx d 8 20 46 46 c6 3f 5e 00 66 
0.305500 1 49d Rx d 7 00 00 00 00 00 00 00 
0.305800 1 75d Rx d 8 a0 dd 82 17 00 00 00 00 
0.306000 1 420 Rx d 8 28 01 40 4b 00 00 00 03 
0.306300 1 201 Rx d 8 01 04 18 01 00 00 80 c4 
0.306500 1 545 Rx d 8 f0 00 22 e0 9e e2 d9 95 
0.306800 1 4e3 Rx d 8 06 00 00 00 00 00 00 00 
0.307500 1 2d2 Rx d 8 6e 29 a4 4e 00 00 a1 01 
0.307700 1 212 Rx d 8 58 04 00 00 82 ff 77 62 
0.307900 1 252 Rx d 8 00 00 7e 06 00 c0 16 00 
0.308200 1 292 Rx d 8 2b e2 68 64 8b 01 00 00 
0.308400 1 2e1 Rx d 8 04 00 00 80 48 44 26 00 
0.308500 1 139 Rx d 1 00 
0.308700 1 1f8 Rx d 4 00 00 00 00 
0.308800 1 2f2 Rx d 2 12 01 
0.309100 1 352 Rx d 8 01 00 df 00 7e 05 2d 04 
0.309300 1 23e Rx d 8 f4 01 3a a8 fa fc 4f 5c 
0.309500 1 448 Rx d 7 00 00 10 10 00 00 00 
0.310800 1 132 Rx d 6 4c 88 f8 ff 28 40 
0.311000 1 129 Rx d 8 b4 2b 42 20 00 20 ff 3f 
0.311200 1 241 Rx d 7 28 28 0c 0a 0a 53 00 
0.311400 1 1bb Rx d 1 02 
0.311600 1 284 Rx d 8 30 00 00 00 40 08 50 4e 
0.312800 1 343 Rx d 8 00 92 64 7e 9f 00 00 00 
0.313000 1 263 Rx d 8 02 00 00 00 00 00 00 00 
0.314300 1 7b1 Rx d 8 02 3f 3f 3f 3f 3f 3f 3f 
0.315500 1 289 Rx d 8 a6 04 81 c0 a5 00 3d 0f 
0.315800 1 37a Rx d 8 00 0c 00 00 00 00 00 00 
0.316100 1 261 Rx d 8 05 22 02 c9 9a 42 50 14 
0.316300 1 2c1 Rx d 8 02 0d 06 05 00 d0 92 c1 
0.316600 1 677 Rx d 8 03 00 00 00 00 00 00 00 
0.317500 1 22b Rx d 8 ff ff ff cf ff ff ff 3f 
0.317800 1 3ae Rx d 8 00 40 00 08 00 00 11 5a 
0.318800 1 3c3 Rx d 8 55 55 55 01 00 80 43 00 
0.320200 1 2c7 Rx d 8 00 00 00 00 00 00 49 ff 
0.320500 1 2a6 Rx d 8 00 00 6a 18 00 00 00 00 
0.320700 1 132 Rx d 6 4f 88 f7 ff 25 40 
0.320900 1 25a Rx d 6 ff ff ff ff 00 00 
0.321100 1 129 Rx d 8 d4 2c 42 20 00 20 ff 3f 
0.321400 1 2a7 Rx d 8 00 00 00 00 00 74 05 84 
0.321500 1 229 Rx d 3 4c 08 00 
0.321700 1 789 Rx d 4 54 11 f0 57 
0.321800 1 249 Rx d 4 3a 0c 00 00 
0.322100 1 2f1 Rx d 8 32 16 00 89 00 01 00 00 
0.322300 1 221 Rx d 8 40 41 05 05 00 50 d1 cf 
0.322600 1 54f Rx d 8 00 00 00 00 00 00 00 00 
0.322800 1 243 Rx d 8 03 00 00 00 32 7a 36 00 
0.323000 1 25b Rx d 8 d3 c0 02 05 6a 86 d0 b5 
0.323300 1 359 Rx d 8 80 3f 00 00 00 00 00 00 
0.323500 1 4e2 Rx d 8 06 00 00 00 00 00 00 00 
0.324100 1 2e1 Rx d 8 45 00 00 00 0c f9 8c 6a 
0.324800 1 553 Rx d 8 00 00 00 00 00 00 f0 48 
0.326800 1 3c8 Rx d 8 06 00 00 00 00 00 00 00 
0.327500 1 142 Rx d 8 01 00 40 0a c0 1b 00 00 
0.329500 1 552 Rx d 8 00 00 00 00 00 00 f0 47 
0.329800 1 38a Rx d 8 03 00 00 00 00 00 00 00 
0.330600 1 132 Rx d 6 48 88 f8 ff 28 40 
0.330800 1 383 Rx d 8 a3 18 65 00 45 00 e1 27 
0.331000 1 129 Rx d 8 f5 2d 41 20 00 20 ff 3f 
0.331300 1 201 Rx d 8 82 02 00 00 00 00 98 3b 
0.332000 1 261 Rx d 8 00 10 97 00 c9 4c 60 12 
0.332800 1 263 Rx d 8 03 00 00 00 00 00 00 4f 
0.333000 1 2aa Rx d 3 2f f0 cb 
0.333200 1 2b3 Rx d 8 ae 55 00 fc bf 3f 19 00 
0.333400 1 3f5 Rx d 8 00 c8 4f 09 80 04 00 00 
0.335500 1 3a2 Rx d 8 01 10 20 00 09 f0 ff 00 
0.336100 1 2c1 Rx d 8 03 17 13 00 00 00 00 00 
0.336300 1 381 Rx d 8 03 b0 be 07 00 10 04 00 
0.336500 1 422 Rx d 6 00 00 10 00 00 00 
0.336700 1 39a Rx d 8 fc fd fd fd 21 27 0b 13 
0.337000 1 423 Rx d 7 f8 00 00 00 08 00 00 
0.338100 1 3a1 Rx d 8 2b 91 40 bb 3e 00 f0 a5 
0.338800 1 788 Rx d 8 01 00 00 00 ff a1 d8 13 
0.339000 1 545 Rx d 8 01 00 00 00 00 10 e0 3b 
0.340100 1 2e1 Rx d 8 10 21 04 00 12 00 20 08 
0.340600 1 132 Rx d 6 55 88 f8 ff 27 40 
0.341000 1 129 Rx d 8 2a 2e 41 20 00 20 ff 3f 
0.342000 1 39d Rx d 5 e4 5c c1 27 00 
0.342800 1 2c3 Rx d 8 00 00 c0 4b 01 00 80 cb 
0.343000 1 243 Rx d 8 04 9c f1 ff fd 7f 66 66 
0.343600 1 2c2 Rx d 8 55 5b a9 06 00 00 12 a5 
0.343800 1 219 Rx d 7 02 80 ff ff ff fa 0f 
0.344000 1 234 Rx d 8 18 90 01 37 dd 04 80 dc 
0.344200 1 2d1 Rx d 2 7f 01 
0.344300 1 409 Rx d 1 00 
0.344600 1 719 Rx d 8 01 00 06 00 00 00 00 00 
0.344900 1 288 Rx d 8 03 16 54 8c 80 8c 01 90 
0.346000 1 2c4 Rx d 8 0a 00 00 80 4c 68 02 00 
0.346400 1 204 Rx d 8 01 00 00 ff 00 00 00 10 
0.346600 1 264 Rx d 6 38 00 00 00 a0 00 
0.346900 1 7c8 Rx d 8 14 05 00 d4 45 02 73 00 
0.347100 1 224 Rx d 8 04 08 00 48 19 01 10 08 
0.347300 1 2b4 Rx d 6 66 05 a5 0d ae 00 
0.347700 1 400 Rx d 7 00 e0 fb be ef fb 00 
0.347900 1 2a4 Rx d 8 97 df 7c e6 43 3f 7c 3d 
0.348100 1 261 Rx d 8 31 00 a6 00 ed 49 7a 7d 
0.348300 1 364 Rx d 4 00 82 0c 1f 
0.348600 1 3a4 Rx d 8 00 00 00 00 00 00 00 00 
0.349700 1 23e Rx d 8 f4 01 3a a8 fa fc 5f 6c 
0.350300 1 7aa Rx d 8 d5 60 83 0d a0 08 13 00 
0.350600 1 2f9 Rx d 8 d0 fb 07 10 a1 ee 6f c9 
0.350800 1 132 Rx d 6 4a 88 f8 ff 29 40 
0.351000 1 129 Rx d 8 e8 2f 42 20 00 20 ff 3f 
0.351200 1 2e3 Rx d 7 94 12 62 00 1c 06 00 
0.351500 1 372 Rx d 8 0d 32 00 00 00 40 58 88 
0.351700 1 798 Rx d 8 40 a2 08 6c 28 02 f0 1c 
0.352600 1 2e2 Rx d 8 03 00 00 56 02 1b 00 80 
0.352800 1 263 Rx d 8 04 00 00 00 60 10 00 00 
0.353100 1 3c2 Rx d 8 29 55 00 00 00 00 00 40 
0.353300 1 45a Rx d 8 fd 07 f8 ff 03 00 0b 00 
0.354100 1 441 Rx d 8 29 00 b6 c3 58 00 3d a0 
0.355000 1 421 Rx d 7 00 14 00 00 00 d0 48 
0.356100 1 301 Rx d 8 1f 00 00 00 f6 71 80 49 
0.356300 1 201 Rx d 8 83 02 00 00 00 00 b8 3b 
0.356500 1 2c1 Rx d 8 04 00 10 0e 0d 11 08 10 
0.356800 1 2a8 Rx d 8 c2 10 00 00 06 00 30 b2 
0.357000 1 2e1 Rx d 8 29 6a 44 a6 1f 28 00 00 
0.357300 1 677 Rx d 8 04 00 00 00 00 00 00 00 
0.357500 1 718 Rx d 7 01 00 00 00 00 00 00 
0.357700 1 3f9 Rx d 8 05 00 00 00 00 00 00 00 
0.358000 1 3ae Rx d 8 00 40 00 08 00 00 21 6a 
0.358700 1 225 Rx d 4 05 45 d2 00 
0.359400 1 1fa Rx d 3 02 c0 01 
0.360600 1 132 Rx d 6 3d 88 f8 ff 28 40 
0.361000 1 129 Rx d 8 3e 20 41 20 00 20 ff 3f 
0.362200 1 285 Rx d 8 41 03 65 01 0d 00 08 00 
0.362400 1 286 Rx d 5 ff ff ff ff 31 
0.362800 1 243 Rx d 8 00 fc cf 0c b1 02 41 29 
0.363000 1 428 Rx d 7 00 00 10 10 00 00 00 
0.364100 1 261 Rx d 8 3a 2b 34 02 80 5c 82 ef 
0.364700 1 339 Rx d 8 01 41 02 00 00 02 40 02 
0.364900 1 283 Rx d 6 00 00 00 00 00 00 
0.365900 1 7b1 Rx d 8 03 3f 3f 3f 3f 3f 3f 3f 
0.366300 1 797 Rx d 4 14 09 f0 a8 
0.366500 1 242 Rx d 4 10 15 04 05 
0.367000 1 2a1 Rx d 6 00 00 98 3a 00 00 
0.367500 1 22b Rx d 8 ff ff ff cf ff ff ff 3f 
0.368600 1 3a2 Rx d 8 32 27 00 00 20 00 00 00 
0.370600 1 132 Rx d 6 3e 88 f8 ff 27 40 
0.370900 1 320 Rx d 8 04 00 00 00 00 00 00 00 
0.371100 1 129 Rx d 8 1a 21 42 20 00 20 ff 3f 
0.371300 1 3c0 Rx d 8 04 00 00 00 00 00 00 00 
0.371500 1 249 Rx d 4 13 0d 00 00 
0.371800 1 1f9 Rx d 8 00 00 00 00 00 00 00 00 
0.372100 1 2e1 Rx d 8 02 6c 7f 02 3c 5e 00 00 
0.372300 1 221 Rx d 8 41 01 55 51 01 02 e0 ee 
0.372500 1 381 Rx d 8 04 91 93 90 97 94 97 69 
0.372800 1 3e8 Rx d 8 06 00 00 00 00 00 00 00 
0.373000 1 263 Rx d 8 00 d0 e7 89 d4 07 55 1f 
0.373300 1 545 Rx d 8 02 00 10 00 00 00 f0 4c 
0.373600 1 360 Rx d 8 04 00 00 00 00 00 00 00 
0.374700 1 78a Rx d 8 01 00 00 00 1e 13 11 0d 
0.376100 1 2c1 Rx d 8 58 24 7e 00 00 8a 02 47 
0.376800 1 103 Rx d 8 22 b3 48 04 92 2c 21 02 
0.377600 1 142 Rx d 8 28 00 02 5c 00 00 01 00 
0.378300 1 2ec Rx d 3 2f f0 0d 
0.378600 1 302 Rx d 8 1f 00 00 00 fa 1c 67 6c 
0.378700 1 119 Rx d 4 00 00 00 00 
0.379000 1 682 Rx d 8 00 00 00 40 05 02 f0 17 
0.379500 1 20a Rx d 6 f6 15 09 82 18 01 
0.380000 1 261 Rx d 8 6b 4f 0a 00 00 40 95 8f 
0.380600 1 102 Rx d 8 22 b3 48 04 8a 0c 21 08 
0.380800 1 132 Rx d 6 50 88 f9 ff 2a 40 
0.381000 1 129 Rx d 8 53 22 42 20 00 20 ff 3f 
0.381300 1 201 Rx d 8 08 ca 01 80 22 7b 31 05 
0.382000 1 39d Rx d 5 e5 5d c1 27 00 
0.382800 1 123 Rx d 8 01 00 00 00 00 3f 00 00 
0.383000 1 243 Rx d 8 01 fc 66 00 66 00 7c 7c 
0.384400 1 7a8 Rx d 8 01 00 00 00 ff a1 d8 13 
0.385600 1 439 Rx d 8 02 00 40 00 00 38 00 00 
0.387500 1 122 Rx d 8 00 00 12 92 12 00 00 00 
0.388000 1 2e1 Rx d 8 fb 19 ea 49 9c de 09 00 
0.388300 1 3a1 Rx d 8 68 42 0e 8a 00 29 02 2d 
0.388400 1 113 Rx d 3 01 97 01 
0.388500 1 7f4 Rx d 1 01 
0.388800 1 318 Rx d 8 1a 08 00 02 19 09 29 8a 
0.389000 1 3a3 Rx d 8 00 d0 00 00 38 03 fc 01 
0.389200 1 458 Rx d 7 00 00 00 00 40 00 00 
0.389500 1 7ff Rx d 8 09 ef 00 00 08 00 00 00 
0.389700 1 22a Rx d 4 00 00 d9 15 
0.389900 1 23e Rx d 8 f4 01 3a a8 fa fc 6f 7c 
0.390000 1 419 Rx d 1 00 
0.390500 1 228 Rx d 8 03 16 54 8c 80 8c 01 30 
0.390700 1 132 Rx d 6 4c 88 f8 ff 29 40 
0.390800 1 20e Rx d 3 10 00 00 
0.391100 1 129 Rx d 8 44 23 42 20 00 20 ff 3f 
0.392800 1 263 Rx d 8 01 d0 bf b1 8c c7 54 1f 
0.393000 1 2b3 Rx d 8 2f 06 80 d4 e1 0e 00 00 
0.393600 1 407 Rx d 8 17 0c 00 00 00 00 00 00 
0.393900 1 234 Rx d 8 37 e1 03 80 43 00 94 0d 
0.394600 1 272 Rx d 8 06 00 fc e0 07 b0 07 08 
0.394800 1 393 Rx d 8 06 00 fa d8 07 b0 07 08 
0.395000 1 3db Rx d 8 06 61 00 b7 00 20 07 00 
0.395300 1 43b Rx d 8 01 7f 00 ff 00 00 00 00 
0.395500 1 719 Rx d 8 ee 01 5f 00 00 5f 00 14 
0.396100 1 261 Rx d 8 a4 fe 27 4e 00 40 a4 f1 
0.396300 1 2c1 Rx d 8 21 1b 0d 0a 02 00 00 00 
0.396500 1 677 Rx d 8 00 00 00 00 00 00 00 00 
0.396800 1 7b8 Rx d 8 60 42 09 95 c4 02 f0 10 
0.397800 1 3ae Rx d 8 00 40 00 08 00 00 31 7a 
0.400100 1 340 Rx d 8 02 00 00 00 00 00 00 00 
0.400600 1 132 Rx d 6 4e 88 f7 ff 27 40 
0.400800 1 20c Rx d 8 00 e0 55 17 00 a0 08 00 
0.401100 1 129 Rx d 8 f1 24 41 20 00 20 ff 3f 
0.401600 1 282 Rx d 8 00 00 00 00 e8 03 0b 24 
0.401800 1 379 Rx d 8 09 00 00 00 00 00 0d 03 
0.402000 1 3a2 Rx d 8 a0 85 72 f8 04 00 c5 6f 
0.402500 1 2e8 Rx d 8 c2 10 00 00 06 00 30 f2 
0.402700 1 37d Rx d 8 01 6a 69 68 00 00 00 00 
0.403000 1 243 Rx d 8 02 9c 29 11 00 11 00 00 
0.403200 1 3c2 Rx d 8 00 55 55 55 00 00 55 49 
0.403400 1 21d Rx d 8 04 00 35 00 00 00 00 00 
0.403700 1 3dd Rx d 8 06 00 00 00 00 78 00 00 
0.403900 1 25d Rx d 8 36 41 01 16 04 f0 d8 03 
0.404100 1 2e1 Rx d 8 04 00 00 80 48 44 26 00 
0.404400 1 27d Rx d 8 00 00 00 00 00 00 00 00 
0.404600 1 3e2 Rx d 7 00 00 80 fa 3f c0 04 
0.404800 1 29d Rx d 5 00 00 00 20 00 
0.404900 1 41d Rx d 1 00 
0.405100 1 2bd Rx d 4 00 00 00 00 
0.405300 1 43d Rx d 6 00 00 ff 1f 40 00 
0.405500 1 441 Rx d 8 68 85 89 00 32 00 00 11 
0.405800 1 45a Rx d 8 20 46 46 c6 3f 5e 00 66 
0.406000 1 420 Rx d 8 28 01 40 4b 00 00 80 03 
0.406300 1 201 Rx d 8 01 04 18 01 00 00 80 c4 
0.406500 1 49d Rx d 7 00 00 00 00 00 00 00 
0.406700 1 545 Rx d 8 30 01 27 c0 9e df 09 e8 
0.407000 1 4e3 Rx d 8 07 00 00 00 00 00 00 00 
0.407500 1 2d2 Rx d 8 6f 29 a4 4e 00 00 a1 01 
0.407700 1 212 Rx d 8 58 04 00 00 82 ff 77 62 
0.408000 1 252 Rx d 8 00 00 7e 06 00 c0 16 00 
0.408200 1 292 Rx d 8 2b e2 68 64 8b 01 00 00 
0.408300 1 2f2 Rx d 2 12 01 
0.408600 1 381 Rx d 8 05 5a 45 ff 80 64 c8 28 
0.408700 1 139 Rx d 1 00 
0.408900 1 1f8 Rx d 4 00 00 00 00 
0.409100 1 448 Rx d 7 00 00 10 10 00 00 00 
0.410800 1 132 Rx d 6 3f 88 f8 ff 28 40 
0.411000 1 372 Rx d 8 0e 00 00 0c 06 7d 00 00 
0.411300 1 129 Rx d 8 e6 25 41 20 00 20 ff 3f 
0.411500 1 241 Rx d 7 29 28 4c 0a 0a 53 00 
0.411700 1 313 Rx d 8 02 64 64 05 00 00 70 55 
0.412100 1 261 Rx d 8 05 22 02 c9 9a 42 b0 74 
0.412300 1 285 Rx d 8 02 d5 00 00 00 00 de 00 
0.412800 1 343 Rx d 8 00 92 5c 0e 9f 00 00 00 
0.413000 1 263 Rx d 8 02 00 00 00 00 00 00 00 
0.415500 1 289 Rx d 8 a6 04 81 00 99 00 3d 0f 
0.415800 1 37a Rx d 8 01 0d 00 00 00 00 00 00 
0.416100 1 2c1 Rx d 8 02 0d 06 05 00 d0 92 c1 
0.416600 1 7b1 Rx d 8 04 3f 3f 3f 3f 3f 00 00 
0.417500 1 22b Rx d 8 ff ff ff cf ff ff ff 3f 
0.418800 1 3c3 Rx d 8 00 00 00 00 00 45 00 00 
0.419000 1 3e3 Rx d 4 00 00 00 00 
0.420100 1 2e1 Rx d 8 45 00 00 00 0c f9 8c 6a 
0.420300 1 2a6 Rx d 8 00 00 6a 18 00 00 00 00 
0.420500 1 2a7 Rx d 8 00 00 00 00 00 74 05 84 
0.420700 1 132 Rx d 6 4b 88 f8 ff 28 40 
0.421000 1 2c7 Rx d 8 00 00 00 00 00 00 49 ff 
0.421200 1 129 Rx d 8 3c 26 41 20 00 20 ff 3f 
0.421400 1 789 Rx d 4 54 11 00 67 
0.421500 1 229 Rx d 3 a5 09 00 
0.421700 1 249 Rx d 4 af 0e 00 00 
0.422000 1 54f Rx d 8 00 00 00 00 00 00 00 00 
0.422200 1 221 Rx d 8 40 41 05 05 00 50 f1 ef 
0.422500 1 2f1 Rx d 8 00 11 2a 01 45 80 09 00 
0.422700 1 359 Rx d 8 01 00 00 00 00 00 00 00 
0.422900 1 243 Rx d 8 03 00 00 00 32 7a 36 00 
0.423100 1 39d Rx d 5 e6 5e c1 27 00 
0.423400 1 25b Rx d 8 d3 c0 02 05 6a 86 e0 c5 
0.423600 1 4e2 Rx d 8 17 08 00 00 00 00 00 00 
0.424800 1 553 Rx d 8 00 00 00 00 00 00 00 58 
0.426800 1 3c8 Rx d 8 00 00 00 00 00 00 00 00 
0.427500 1 142 Rx d 8 01 00 40 0a c0 1b 00 00 
0.428000 1 261 Rx d 8 00 10 97 00 c9 4c c0 72 
0.429200 1 23e Rx d 8 f4 01 3a a8 fa fc 7f 8c 
0.429600 1 552 Rx d 8 00 00 00 00 00 00 00 57 
0.429800 1 38a Rx d 8 00 00 00 00 00 00 00 00 
0.430000 1 7aa Rx d 8 46 05 a0 b5 90 92 a0 29 
0.430600 1 132 Rx d 6 46 88 f8 ff 25 40 
0.430800 1 383 Rx d 8 a3 18 65 00 45 00 e1 27 
0.431100 1 129 Rx d 8 18 27 42 20 00 20 ff 3f 
0.431300 1 201 Rx d 8 82 02 00 00 00 00 98 3b 
0.432800 1 263 Rx d 8 03 00 00 00 00 00 00 4f 
0.432900 1 2aa Rx d 3 2f 00 db 
0.433200 1 3f5 Rx d 8 00 c8 4f 09 80 04 00 00 
0.434500 1 3a2 Rx d 8 01 10 20 00 09 f0 ff 00 
0.436100 1 2e1 Rx d 8 10 21 04 00 12 00 20 08 
0.436300 1 2c1 Rx d 8 03 17 13 00 00 00 00 00 
0.436500 1 422 Rx d 6 00 00 10 00 00 00 
0.436800 1 39a Rx d 8 79 ff fd fd fd 01 00 08 
0.437000 1 423 Rx d 7 f8 00 00 00 08 00 00 
0.437200 1 677 Rx d 8 01 00 00 00 00 00 00 00 
0.438000 1 3ae Rx d 8 00 40 00 08 00 00 41 8a 
0.438200 1 3a1 Rx d 8 2b 91 40 a3 3e 00 10 ad 
0.438500 1 545 Rx d 8 01 00 00 00 00 10 10 6b 
0.438700 1 414 Rx d 8 11 20 20 20 20 20 20 20 
0.438900 1 666 Rx d 4 00 00 a0 00 
0.439100 1 788 Rx d 8 02 40 ca 07 00 00 00 00 
0.439300 1 405 Rx d 8 11 33 45 37 46 41 35 4d 
0.439600 1 55a Rx d 8 02 00 00 00 00 00 00 00 
0.440600 1 132 Rx d 6 4a 88 f8 ff 25 40 
0.441000 1 129 Rx d 8 cf 28 42 20 00 20 ff 3f 
0.442800 1 2c3 Rx d 8 55 5b a9 b6 02 00 12 a5 
0.443000 1 243 Rx d 8 04 9c f1 ff fd 7f 66 66 
0.443600 1 2c2 Rx d 8 20 40 c0 4b 01 00 80 cb 
0.443800 1 219 Rx d 7 03 80 ff ff ff fb 0f 
0.444000 1 234 Rx d 8 19 90 01 37 dd 04 a0 fd 
0.444300 1 261 Rx d 8 31 00 89 00 ea 49 da bd 
0.444400 1 2d1 Rx d 2 7f 01 
0.444600 1 381 Rx d 8 46 00 00 00 08 01 00 00 
0.444900 1 288 Rx d 8 03 16 54 8c 80 8c 11 a0 
0.445000 1 409 Rx d 1 00 
0.445200 1 719 Rx d 8 0c 72 0f 00 50 00 40 00 
0.446000 1 2c4 Rx d 8 0b 40 00 00 3b 47 01 00 
0.446500 1 204 Rx d 8 01 00 00 ff 00 00 00 10 
0.446700 1 264 Rx d 6 38 00 00 00 a0 00 
0.447000 1 224 Rx d 8 04 08 00 48 19 01 10 08 
0.447200 1 2b4 Rx d 6 67 05 a4 0d bc 00 
0.447700 1 38d Rx d 8 56 00 aa aa aa 24 49 02 
0.447900 1 400 Rx d 7 00 e0 fb be ef fb 00 
0.450600 1 2f9 Rx d 8 d0 fb 07 18 00 00 00 00 
0.450800 1 132 Rx d 6 4c 88 f8 ff 29 40 
0.451000 1 129 Rx d 8 9a 29 42 20 00 20 ff 3f 
0.451300 1 303 Rx d 8 1f 00 00 00 ff ff ff ff 
0.451500 1 798 Rx d 8 d9 d7 02 47 18 01 00 be 
0.452100 1 2e1 Rx d 8 29 6a 44 a6 1f 28 00 00 
0.452600 1 3a8 Rx d 8 02 00 18 00 00 00 00 00 
0.452900 1 263 Rx d 8 04 00 00 00 60 10 00 00 
0.453100 1 2b3 Rx d 8 10 00 00 7c 7c 00 00 00 
0.453400 1 3c2 Rx d 8 29 55 00 00 00 00 00 40 
0.453600 1 45a Rx d 8 fd 07 f8 ff 03 00 0b 00 
0.454100 1 441 Rx d 8 29 00 b6 c3 58 00 05 68 
0.455000 1 421 Rx d 7 00 14 00 00 00 d0 48 
0.456100 1 3f6 Rx d 8 00 00 00 00 b6 14 00 00 
0.456400 1 201 Rx d 8 83 02 00 00 00 00 b8 3b 
0.456600 1 2bf Rx d 7 0a 00 00 00 00 10 00 
0.456800 1 2a8 Rx d 8 c2 10 00 00 06 00 40 c2 
0.457100 1 2c1 Rx d 8 04 00 10 0e 0d 11 08 10 
0.457300 1 443 Rx d 6 77 0c ff 03 00 00 
0.457700 1 3f9 Rx d 8 06 00 00 00 00 00 00 00 
0.457900 1 3ae Rx d 8 00 40 00 08 00 00 50 99 
0.458700 1 225 Rx d 4 05 45 d2 00 
0.459500 1 1fa Rx d 3 02 c0 01 
0.460000 1 261 Rx d 8 3a 2b 34 02 80 5c e2 4f 
0.460600 1 132 Rx d 6 4e 88 f7 ff 28 40 
0.461000 1 129 Rx d 8 45 2a 42 20 00 20 ff 3f 
0.462000 1 39d Rx d 5 e7 5f c1 27 00 
0.462300 1 3df Rx d 8 00 00 00 00 01 d0 00 1b 
0.462500 1 293 Rx d 8 01 0c 15 90 55 14 4f ff 
0.462800 1 285 Rx d 8 03 47 86 48 95 00 00 00 
0.463000 1 243 Rx d 8 00 fc cf 0c b1 02 41 29 
0.463200 1 428 Rx d 7 00 00 10 10 00 00 00 
0.464700 1 339 Rx d 8 01 41 02 00 00 02 40 02 
0.464900 1 283 Rx d 6 00 00 00 00 00 00 
0.466300 1 797 Rx d 4 14 09 00 b8 
0.466500 1 242 Rx d 4 10 15 04 05 
0.467000 1 2a1 Rx d 6 00 00 98 3a 00 00 
0.467500 1 22b Rx d 8 ff ff ff cf ff ff ff 3f 
0.467800 1 3a2 Rx d 8 32 27 00 00 20 00 00 00 
0.468100 1 2e1 Rx d 8 02 6c 7f 02 3c 5e 00 00 
0.469200 1 23e Rx d 8 f4 01 3a a8 fa fc 8f 9c 
0.470600 1 132 Rx d 6 4e 88 f8 ff 29 40 
0.470900 1 3c0 Rx d 8 05 00 00 00 00 00 00 00 
0.471100 1 129 Rx d 8 87 2b 41 20 00 20 ff 3f 
0.471300 1 545 Rx d 8 02 00 0f 00 00 00 20 7b 
0.471500 1 249 Rx d 4 ce 0f 00 00 
0.471800 1 1f9 Rx d 8 00 00 00 00 00 00 00 00 
0.472100 1 221 Rx d 8 41 01 55 51 01 02 00 0e 
0.472500 1 3e8 Rx d 8 00 00 00 00 00 00 00 00 
0.472800 1 3e9 Rx d 8 f1 80 02 00 00 00 e0 3f 
0.473000 1 263 Rx d 8 00 d0 e7 89 d4 07 55 1f 
0.473600 1 360 Rx d 8 05 00 00 00 00 00 00 00 
0.474800 1 78a Rx d 8 01 00 01 00 e4 5d 9c 5d 
0.476100 1 261 Rx d 8 6b 4f 0a 00 00 40 f5 ef 
0.476300 1 2c1 Rx d 8 58 24 7e 00 00 8a 02 47 
0.476600 1 677 Rx d 8 02 00 00 00 00 00 00 00 
0.476800 1 103 Rx d 8 22 b3 48 04 92 2c 21 02 
0.477600 1 142 Rx d 8 28 00 02 5c 00 00 01 00 
0.477800 1 39b Rx d 8 00 06 df e0 b0 48 21 7c 
0.478300 1 2ec Rx d 3 2f 00 1d 
0.478600 1 119 Rx d 4 00 00 00 00 
0.479000 1 682 Rx d 8 00 00 00 40 05 02 00 27 
0.480100 1 381 Rx d 8 07 00 00 54 7d 27 00 00 
0.480600 1 102 Rx d 8 22 b3 48 04 8c 0c 21 08 
0.480800 1 132 Rx d 6 44 88 f8 ff 28 40 
0.481000 1 129 Rx d 8 e7 2c 41 20 00 20 ff 3f 
0.481300 1 201 Rx d 8 f8 d1 01 80 22 7b 31 05 
0.482800 1 123 Rx d 8 00 00 12 92 d2 00 00 80 
0.483100 1 243 Rx d 8 01 fc 66 00 66 00 7c 7c 
0.484100 1 2e1 Rx d 8 fb 19 ee 29 9c e4 09 00 
0.484400 1 7a8 Rx d 8 02 40 cc 07 00 07 00 00 
0.484800 1 31a Rx d 8 60 fc ff 02 00 00 00 7a 
0.485600 1 439 Rx d 8 02 00 40 00 00 38 00 00 
0.487500 1 122 Rx d 8 01 00 00 00 00 3f 00 00 
0.488100 1 3a1 Rx d 8 68 42 0e 8a 00 2d 22 51 
0.488400 1 113 Rx d 3 01 97 01 
0.488500 1 7f4 Rx d 1 01 
0.488800 1 7ff Rx d 8 01 a5 4e 43 42 4c 7b 00 
0.489000 1 318 Rx d 8 1a 08 00 02 19 09 2b 8c 
0.489200 1 3a3 Rx d 8 00 d0 00 00 38 03 fc 01 
0.489400 1 419 Rx d 1 00 
0.489600 1 458 Rx d 7 00 00 00 00 40 00 00 
0.489800 1 22a Rx d 4 00 00 d9 15 
0.490500 1 228 Rx d 8 03 16 54 8c 80 8c 11 40 
0.490700 1 132 Rx d 6 39 88 f8 ff 28 40 
0.490800 1 20e Rx d 3 11 01 00 
0.491100 1 129 Rx d 8 c6 2d 42 20 00 20 ff 3f 
0.492100 1 261 Rx d 8 a4 fe 17 4e 00 40 04 41 
0.492800 1 263 Rx d 8 01 d0 bf b1 8c c7 54 1f 
0.493800 1 234 Rx d 8 38 e1 03 80 43 00 b4 2e 
0.494600 1 272 Rx d 8 09 80 63 00 00 00 00 00 
0.494800 1 393 Rx d 8 09 80 63 00 00 00 00 00 
0.495000 1 42a Rx d 8 f9 6b fe 9a bf e6 af 55 
0.495300 1 719 Rx d 8 0d 00 00 00 00 00 00 00 
0.496100 1 2c1 Rx d 8 21 1b 0d 0a 02 00 00 00 
0.496400 1 7b8 Rx d 8 c1 d7 02 a9 04 00 00 61 
0.497800 1 3ae Rx d 8 00 40 00 08 00 00 60 a9 
0.500100 1 340 Rx d 8 03 01 00 00 00 00 00 00 
0.500300 1 2e1 Rx d 8 04 00 00 80 48 44 26 00 
0.500600 1 3a2 Rx d 8 a0 85 72 fa 04 00 c5 6f 
0.500800 1 132 Rx d 6 53 88 f8 ff 29 40 
0.501000 1 20c Rx d 8 00 e0 55 17 00 a0 08 00 
0.501200 1 129 Rx d 8 2a 2e 41 20 00 20 ff 3f 
0.501600 1 282 Rx d 8 00 00 00 00 e8 03 0b 24 
0.501800 1 379 Rx d 8 0a 00 00 00 00 00 0d 03 
0.502100 1 39d Rx d 5 d8 50 c1 27 00 
0.502500 1 2e8 Rx d 8 c2 10 00 00 06 00 40 02 
0.502700 1 38b Rx d 8 fe fe 2f 0f 35 40 2a 03 
0.502900 1 243 Rx d 8 02 9c 29 11 00 11 00 00 
0.503200 1 21d Rx d 8 04 00 35 00 00 00 00 00 
0.503400 1 3c2 Rx d 8 00 55 55 55 00 00 55 49 
0.503700 1 25d Rx d 8 36 41 01 16 04 f0 d8 03 
0.503900 1 40a Rx d 8 00 04 01 00 00 00 00 13 
0.504200 1 27d Rx d 8 00 00 00 00 00 00 00 00 
0.504300 1 41d Rx d 1 00 
0.504500 1 29d Rx d 5 00 00 00 20 00 
0.504700 1 43d Rx d 6 00 00 ff 1f 40 00 
0.504800 1 2bd Rx d 4 00 00 00 00 
0.505100 1 441 Rx d 8 68 85 89 00 32 00 08 19 
0.505300 1 45a Rx d 8 20 46 46 c6 3f 5e 00 66 
0.505500 1 49d Rx d 7 00 00 00 00 00 00 00 
0.505800 1 545 Rx d 8 f0 00 27 e0 9e e6 39 fe 
0.506000 1 420 Rx d 8 28 01 40 4b 00 00 00 04 
0.506300 1 201 Rx d 8 01 04 18 01 00 00 80 c4 
0.506500 1 75d Rx d 8 01 00 00 00 00 00 20 a2 
0.506800 1 31e Rx d 8 00 00 00 00 00 00 00 00 
0.507000 1 4e3 Rx d 8 20 06 03 00 00 00 a8 1f 
0.507500 1 2d2 Rx d 8 6e 29 a4 4e 00 00 a1 01 
0.507700 1 212 Rx d 8 58 04 00 00 82 ff 77 62 
0.507900 1 252 Rx d 8 00 00 7e 06 00 c0 16 00 
0.508200 1 261 Rx d 8 05 22 02 c9 9a 42 10 d4 
0.508400 1 292 Rx d 8 2b e2 68 64 8b 01 00 00 
0.508500 1 139 Rx d 1 00 
0.508700 1 1f8 Rx d 4 00 00 00 00 
0.508800 1 2f2 Rx d 2 12 01 
0.509100 1 3b2 Rx d 8 24 00 00 00 00 00 00 7d 
0.509300 1 448 Rx d 7 00 00 10 10 00 00 00 
0.509500 1 23e Rx d 8 f4 01 3a a8 fa fc 9f ac 
0.510700 1 7aa Rx d 8 07 f8 ff f8 ff f3 ff 48 
0.510900 1 132 Rx d 6 43 88 f8 ff 28 40 
0.511100 1 129 Rx d 8 db 2f 41 20 00 20 ff 3f 
0.511300 1 241 Rx d 7 29 28 4c 0a 0a 53 00 
0.511700 1 253 Rx d 8 00 64 34 85 64 62 00 15 
0.511800 1 213 Rx d 2 88 9d 
0.512000 1 4f3 Rx d 4 00 00 00 00 
0.512800 1 343 Rx d 8 00 92 60 0e 9f 00 00 00 
0.513100 1 263 Rx d 8 02 00 00 00 00 00 00 00 
0.513300 1 2b3 Rx d 8 00 8f 8d 75 8f 89 73 86 
0.513500 1 6c8 Rx d 8 5c 62 00 13 04 00 00 00 
0.513800 1 285 Rx d 8 04 53 93 47 8b 00 00 00 
0.515500 1 289 Rx d 8 a6 04 81 40 8c 00 3d 0f 
0.515800 1 37a Rx d 8 02 0d 00 00 00 00 00 00 
0.516100 1 2e1 Rx d 8 45 00 00 00 0c f9 8c 6a 
0.516300 1 2c1 Rx d 8 02 0d 06 05 00 d0 92 c1 
0.516500 1 381 Rx d 8 c8 83 3e c2 00 00 00 00 
0.516800 1 677 Rx d 8 03 00 00 00 00 00 00 00 
0.517500 1 22b Rx d 8 ff ff ff cf ff ff ff 3f 
0.518800 1 3c3 Rx d 8 55 55 55 01 00 80 43 00 
0.520200 1 2c7 Rx d 8 00 00 00 00 00 00 49 ff 
0.520500 1 2a6 Rx d 8 00 00 6a 18 00 00 00 00 
0.520700 1 132 Rx d 6 44 88 f8 ff 27 40 
0.520900 1 2a7 Rx d 8 00 00 00 00 00 74 05 84 
0.521200 1 129 Rx d 8 0d 20 42 20 00 20 ff 3f 
0.521300 1 726 Rx d 3 0a 00 00 
0.521500 1 229 Rx d 3 f6 0a 00 
0.521600 1 789 Rx d 4 54 11 10 77 
0.521800 1 249 Rx d 4 9b 00 00 00 
0.522100 1 54f Rx d 8 00 00 00 00 00 00 00 00 
0.522300 1 221 Rx d 8 40 41 05 05 00 50 11 0f 
0.522500 1 2f1 Rx d 8 01 91 2b 81 45 80 03 00 
0.522800 1 25b Rx d 8 d3 c0 02 05 6a 86 f0 d5 
0.523000 1 243 Rx d 8 03 00 00 00 32 7a 36 00 
0.523200 1 359 Rx d 8 02 02 00 00 64 82 86 24 
0.523500 1 4e2 Rx d 8 20 0e 02 00 00 00 a8 15 
0.524100 1 261 Rx d 8 00 10 97 00 c9 4c 20 d2 
0.524800 1 553 Rx d 8 00 00 00 00 00 00 10 68 
0.526800 1 3c8 Rx d 8 01 00 00 00 00 00 00 00 
0.527500 1 142 Rx d 8 01 00 40 0a c0 1b 00 00 
0.529600 1 552 Rx d 8 00 00 00 00 00 00 10 67 
0.529800 1 38a Rx d 8 01 00 00 00 00 00 00 00 
0.530600 1 132 Rx d 6 4d 88 f7 ff 2a 40 
0.530800 1 383 Rx d 8 a3 18 65 00 45 00 e1 27 
0.531000 1 129 Rx d 8 1a 21 42 20 00 20 ff 3f 
0.531300 1 201 Rx d 8 82 02 00 00 00 00 98 3b 
0.532100 1 2e1 Rx d 8 10 21 04 00 12 00 20 08 
0.532800 1 263 Rx d 8 03 00 00 00 00 00 00 4f 
0.533000 1 2aa Rx d 3 2f 10 eb 
0.533200 1 3f5 Rx d 8 00 c8 4f 09 80 04 00 00 
0.533600 1 3a2 Rx d 8 01 10 20 00 0b f0 ff 00 
0.536100 1 2c1 Rx d 8 03 17 13 00 00 00 00 00 
0.536500 1 422 Rx d 6 00 00 10 00 00 00 
0.536800 1 39a Rx d 8 fc fd fd fd 1d 27 0f 13 
0.537000 1 423 Rx d 7 f8 00 00 00 08 00 00 
0.537200 1 545 Rx d 8 01 00 00 00 00 10 40 9b 
0.537800 1 3ae Rx d 8 00 40 00 08 00 00 70 b9 
0.538100 1 3a1 Rx d 8 2b 91 40 b1 3e 00 30 db 
0.538800 1 788 Rx d 8 f8 d4 a1 63 00 00 80 00 
0.540000 1 261 Rx d 8 31 00 a7 00 ec 49 3a 3d 
0.540600 1 132 Rx d 6 43 88 f8 ff 25 40 
0.541000 1 129 Rx d 8 53 22 42 20 00 20 ff 3f 
0.542000 1 39d Rx d 5 d9 51 c1 27 00 
0.542800 1 2c3 Rx d 8 00 00 c0 4b 01 00 80 cb 
0.543000 1 243 Rx d 8 04 9c f1 ff fd 7f 66 66 
0.543200 1 409 Rx d 1 00 
0.543600 1 2c2 Rx d 8 55 5b a9 06 00 00 12 a5 
0.543800 1 219 Rx d 7 04 74 74 00 00 00 00 
0.544000 1 234 Rx d 8 19 90 01 37 dd 04 c0 1d 
0.544200 1 2d1 Rx d 2 7f 01 
0.544700 1 719 Rx d 8 13 02 40 00 00 00 00 00 
0.544900 1 288 Rx d 8 03 16 54 8c 80 8c 21 b0 
0.546000 1 2c4 Rx d 8 0c 00 00 00 d8 48 01 00 
0.546200 1 204 Rx d 8 01 00 00 ff 00 00 00 10 
0.546600 1 264 Rx d 6 38 00 00 00 a0 00 
0.546900 1 224 Rx d 8 04 08 00 48 19 01 10 08 
0.547100 1 2b4 Rx d 6 67 05 a5 0d b4 00 
0.547700 1 400 Rx d 7 00 e0 fb be ef fb 00 
0.548100 1 2e1 Rx d 8 29 6a 44 a6 1f 28 00 00 
0.549700 1 23e Rx d 8 f4 01 3a a8 fa fc af bc 
0.550600 1 2f9 Rx d 8 d0 fb 07 20 00 00 00 00 
0.550800 1 132 Rx d 6 55 88 f8 ff 27 40 
0.551000 1 129 Rx d 8 77 23 41 20 00 20 ff 3f 
0.551300 1 2e3 Rx d 7 06 00 00 00 00 00 00 
0.551500 1 798 Rx d 8 02 84 76 40 20 01 10 19 
0.552100 1 381 Rx d 8 09 00 00 82 00 00 00 6c 
0.552600 1 2e2 Rx d 8 04 00 00 52 02 1b 00 80 
0.552800 1 263 Rx d 8 04 00 00 00 60 10 00 00 
0.553100 1 2d3 Rx d 8 65 00 b1 03 32 fd 36 79 
0.553300 1 3c2 Rx d 8 29 55 00 00 00 00 00 40 
0.553600 1 45a Rx d 8 fd 07 f8 ff 03 00 0b 00 
0.554100 1 441 Rx d 8 29 00 b6 c3 58 00 0d 70 
0.555100 1 421 Rx d 7 00 14 00 00 00 d0 48 
0.556000 1 724 Rx d 3 00 00 00 
0.556200 1 201 Rx d 8 83 02 00 00 00 00 b8 3b 
0.556500 1 261 Rx d 8 3a 2b 34 02 80 5c 42 af 
0.556700 1 2c1 Rx d 8 04 00 10 0e 0d 11 08 10 
0.556900 1 2a8 Rx d 8 c2 10 00 00 06 00 50 d2 
0.557200 1 677 Rx d 8 04 00 00 00 00 00 00 00 
0.557400 1 718 Rx d 7 02 00 00 00 00 00 00 
0.557700 1 3f9 Rx d 8 07 00 00 00 00 00 00 00 
0.558700 1 225 Rx d 4 05 45 d2 00 
0.559500 1 1fa Rx d 3 02 c0 01 
0.560600 1 132 Rx d 6 50 88 f8 ff 28 40 
0.561000 1 129 Rx d 8 c2 24 42 20 00 20 ff 3f 
0.561800 1 332 Rx d 6 bd 19 6e 06 69 45 
0.562000 1 300 Rx d 8 12 78 ce a8 7f 02 f3 c3 
0.562200 1 311 Rx d 2 ff 03 
0.562400 1 3d2 Rx d 8 32 c2 d5 00 0a 01 df 00 
0.562600 1 3f2 Rx d 8 04 62 86 32 c0 87 47 03 
0.562900 1 243 Rx d 8 00 fc cf 0c b1 02 41 29 
0.563100 1 324 Rx d 8 74 99 ad 36 a0 01 00 00 
0.563300 1 428 Rx d 7 00 00 10 10 00 00 00 
0.563500 1 452 Rx d 3 10 79 00 
0.563700 1 472 Rx d 8 ff 00 80 02 00 7f ff 07 
0.564000 1 473 Rx d 8 00 00 0f 00 00 00 00 00 
0.564200 1 2e1 Rx d 8 02 6c 7f 02 3c 5e 00 00 
0.564400 1 492 Rx d 7 7d 03 ff 0f 28 00 00 
0.564600 1 5f3 Rx d 3 36 4c 09 
0.564800 1 283 Rx d 6 00 00 00 00 00 00 
0.565000 1 253 Rx d 8 01 64 34 85 64 62 00 15 
0.565300 1 339 Rx d 8 01 41 02 00 00 02 40 02 
0.565500 1 3b3 Rx d 8 8c 80 04 30 01 00 a8 80 
0.565700 1 709 Rx d 8 0d 91 00 47 e0 4e 00 00 
0.566400 1 797 Rx d 4 14 09 10 c8 
0.566500 1 242 Rx d 4 10 15 04 05 
0.566800 1 3a2 Rx d 8 42 27 00 00 20 00 00 00 
0.567000 1 2a1 Rx d 6 00 00 98 3a 00 00 
0.567500 1 22b Rx d 8 ff ff ff cf ff ff ff 3f 
0.570100 1 545 Rx d 8 02 00 10 00 00 00 50 ac 
0.570600 1 132 Rx d 6 55 88 f8 ff 27 40 
0.570900 1 320 Rx d 8 80 00 00 00 00 00 00 00 
0.571100 1 129 Rx d 8 78 25 42 20 01 20 ff 3f 
0.571400 1 3c0 Rx d 8 06 00 00 00 00 00 00 00 
0.571500 1 249 Rx d 4 e8 01 00 00 
0.571800 1 1f9 Rx d 8 00 00 00 00 00 00 00 00 
0.572000 1 372 Rx d 8 00 08 00 8c c2 11 ec 23 
0.572300 1 221 Rx d 8 41 01 55 51 01 02 20 2e 
0.572500 1 261 Rx d 8 6b 4f 0a 00 00 40 55 4f 
0.572700 1 3e8 Rx d 8 01 00 00 00 00 00 00 00 
0.573000 1 263 Rx d 8 00 d0 e7 89 d4 07 55 1f 
0.573200 1 2b3 Rx d 8 01 8c 8c 8f 77 8c 8c 8e 
0.573400 1 401 Rx d 8 00 2a 9b 80 97 80 9d 80 
0.573700 1 360 Rx d 8 06 00 00 00 00 00 00 00 
0.576100 1 2c1 Rx d 8 58 24 7e 00 00 8a 02 47 
0.576300 1 3aa Rx d 8 01 00 00 00 00 00 00 00 
0.576800 1 103 Rx d 8 22 b3 48 04 92 2c 21 02 
0.577000 1 77a Rx d 8 a1 16 e4 5d fc 5d e4 5d 
0.577300 1 78a Rx d 8 01 00 02 00 66 06 65 06 
0.577600 1 142 Rx d 8 28 00 02 5c 00 00 01 00 
0.577800 1 3ae Rx d 8 00 40 00 08 00 00 80 c9 
0.578300 1 2ec Rx d 3 2f 10 2d 
0.578500 1 119 Rx d 4 00 00 00 00 
0.579000 1 682 Rx d 8 00 00 00 40 05 02 10 37 
0.580000 1 2e1 Rx d 8 fb 19 ec 29 9c e4 09 00 
0.580600 1 102 Rx d 8 22 b3 48 04 8a 0c 21 08 
0.580800 1 132 Rx d 6 47 88 f8 ff 29 40 
0.581000 1 129 Rx d 8 3c 26 41 20 00 20 ff 3f 
0.581300 1 201 Rx d 8 08 ca 01 80 22 7b 31 05 
0.582000 1 39d Rx d 5 da 52 c1 27 00 
0.582800 1 123 Rx d 8 01 00 00 00 00 3f 00 00 
0.583100 1 243 Rx d 8 01 fc 66 00 66 00 7c 7c 
0.584400 1 7a8 Rx d 8 f8 cc a1 63 00 00 82 00 
0.585600 1 439 Rx d 8 02 00 40 00 00 38 00 00 
0.587500 1 122 Rx d 8 00 00 12 92 12 00 00 00 
0.588000 1 261 Rx d 8 a4 fe 17 4e 00 40 64 a1 
0.588300 1 381 Rx d 8 0a e0 e1 01 00 34 9b 00 
0.588500 1 3a1 Rx d 8 68 42 0e 8a 00 29 42 6d 
0.588700 1 113 Rx d 3 01 97 01 
0.588900 1 318 Rx d 8 1a 08 00 02 19 09 2d 8e 
0.589100 1 3a3 Rx d 8 00 d0 00 00 38 03 fc 01 
0.589300 1 419 Rx d 1 00 
0.589500 1 23e Rx d 8 f4 01 3a a8 fa fc bf cc 
0.589700 1 458 Rx d 7 00 00 00 00 40 00 00 
0.589900 1 22a Rx d 4 00 00 d9 15 
0.590000 1 7f4 Rx d 1 01 
0.590200 1 7ff Rx d 8 02 53 26 2c 8c 51 a3 90 
0.590500 1 7aa Rx d 8 08 00 00 00 18 01 1b 0e 
0.590700 1 132 Rx d 6 4f 88 f8 ff 27 40 
0.590800 1 20e Rx d 3 12 02 00 
0.591100 1 129 Rx d 8 18 27 42 20 00 20 ff 3f 
0.591300 1 228 Rx d 8 03 16 54 8c 80 8c 21 50 
0.591600 1 401 Rx d 8 01 2a 9e 80 a6 80 98 80 
0.592800 1 263 Rx d 8 01 d0 bf b1 8c c7 54 1f 
0.593800 1 234 Rx d 8 38 e1 03 80 43 00 d4 4e 
0.594600 1 272 Rx d 8 06 00 fc e0 07 b0 07 08 
0.594800 1 393 Rx d 8 06 00 fb d8 07 b0 07 08 
0.595100 1 719 Rx d 8 03 00 00 00 00 00 00 00 
0.596100 1 2e1 Rx d 8 04 00 00 80 48 44 26 00 
0.596300 1 2c1 Rx d 8 21 1b 0d 0a 02 00 00 00 
0.596500 1 677 Rx d 8 00 00 00 00 00 00 00 00 
0.596800 1 7b8 Rx d 8 72 3d 15 d2 a8 04 10 6c 
0.599600 1 3a2 Rx d 8 a0 85 72 fa 04 00 c5 6f 
0.600100 1 340 Rx d 8 04 00 00 00 00 00 00 00 
0.600600 1 132 Rx d 6 45 88 f8 ff 29 40 
0.600800 1 20c Rx d 8 00 e0 55 17 00 a0 08 00 
0.601000 1 129 Rx d 8 cf 28 42 20 00 20 ff 3f 
0.601600 1 282 Rx d 8 00 00 00 00 e8 03 0b 24 
0.601800 1 379 Rx d 8 0b 00 00 00 00 00 14 0a 
0.602500 1 2e8 Rx d 8 c2 10 00 00 06 00 50 12 
0.602700 1 31e Rx d 8 01 00 00 00 00 00 00 00 
0.603000 1 21d Rx d 8 04 00 35 00 00 00 00 00 
0.603200 1 243 Rx d 8 02 9c 31 11 00 11 00 00 
0.603400 1 3c2 Rx d 8 00 55 55 55 00 00 55 49 
0.603700 1 25d Rx d 8 36 41 01 16 04 f0 d8 03 
0.603900 1 3e2 Rx d 7 00 00 80 fa 3f c0 04 
0.604200 1 27d Rx d 8 00 00 00 00 00 00 00 00 
0.604400 1 261 Rx d 8 05 22 02 c9 9a 42 70 34 
0.604500 1 41d Rx d 1 00 
0.604800 1 23a Rx d 8 1e 00 00 00 00 00 00 00 
0.604900 1 29d Rx d 5 00 00 00 20 00 
0.605100 1 2bd Rx d 4 00 00 00 00 
0.605300 1 43d Rx d 6 00 00 ff 1f 40 00 
0.605600 1 441 Rx d 8 68 85 89 00 32 00 10 21 
0.605800 1 45a Rx d 8 20 46 46 c6 3f 5e 00 66 
0.606000 1 420 Rx d 8 28 01 40 4b 00 00 80 04 
0.606300 1 201 Rx d 8 01 04 18 01 00 00 80 c4 
0.606500 1 49d Rx d 7 00 00 00 00 00 00 00 
0.606700 1 545 Rx d 8 f0 00 27 00 9f e3 69 4c 
0.607000 1 4e3 Rx d 8 01 e3 06 00 00 00 28 29 
0.608400 1 448 Rx d 7 00 00 10 10 00 00 00 
0.608500 1 139 Rx d 1 00 
0.608700 1 1f8 Rx d 4 00 00 00 00 
0.609400 1 2d2 Rx d 8 6f 29 a4 4e 00 00 a1 01 
0.609700 1 212 Rx d 8 58 04 00 00 82 ff 77 62 
0.609900 1 252 Rx d 8 00 00 7e 06 00 c0 16 00 
0.610200 1 292 Rx d 8 2b e2 68 64 8b 01 00 00 
0.610300 1 2f2 Rx d 2 12 01 
0.610400 1 35f Rx d 1 00 
0.610700 1 42e Rx d 8 00 e0 bf ff fe ef bf ff 
0.610900 1 42f Rx d 7 bc 5b c9 02 fa 00 ff 
0.611100 1 129 Rx d 8 9a 29 42 20 00 20 ff 3f 
0.611300 1 132 Rx d 6 51 88 f8 ff 2a 40 
0.611500 1 241 Rx d 7 29 28 4c 0a 0a 53 00 
0.611800 1 401 Rx d 8 02 2a a0 80 9e 80 a9 80 
0.612100 1 2e1 Rx d 8 45 00 00 00 0c f9 8c 6a 
0.612800 1 343 Rx d 8 00 92 5c 4e 9f 00 00 00 
0.613100 1 263 Rx d 8 02 00 00 00 00 00 00 00 
0.614100 1 4f Rx d 8 12 93 5c 21 9a 5b 67 14 
0.614300 1 3bc Rx d 4 00 00 00 00 
0.614500 1 333 Rx d 5 04 10 e8 07 00 
0.614700 1 334 Rx d 8 bf 3f 0a 04 ff 01 11 54 
0.614900 1 3fd Rx d 8 00 00 00 3c 20 00 01 80 
0.615600 1 289 Rx d 8 a6 04 81 00 82 00 3d 0f 
0.615800 1 37a Rx d 8 03 e0 01 00 00 00 00 00 
0.616100 1 2c1 Rx d 8 02 0d 06 05 00 d0 92 c1 
0.616700 1 727 Rx d 2 0a 00 
0.617500 1 22b Rx d 8 ff ff ff cf ff ff ff 3f 
0.617800 1 3ae Rx d 8 00 40 00 08 00 00 90 d9 
0.618800 1 3c3 Rx d 8 00 00 00 00 00 45 00 00 
0.619000 1 3e3 Rx d 4 00 00 00 00 
0.620100 1 261 Rx d 8 00 10 97 00 c9 4c 80 32 
0.620300 1 2a6 Rx d 8 00 00 6a 18 00 00 00 00 
0.620600 1 2a7 Rx d 8 00 00 00 00 00 74 05 84 
0.620800 1 132 Rx d 6 52 88 f8 ff 29 40 
0.621000 1 2c7 Rx d 8 00 00 00 00 00 00 49 ff 
0.621200 1 129 Rx d 8 76 2a 41 20 00 20 ff 3f 
0.621400 1 789 Rx d 4 54 11 20 87 
0.621600 1 229 Rx d 3 8c 0b 00 
0.621700 1 249 Rx d 4 2a 02 00 00 
0.622000 1 54f Rx d 8 00 00 00 00 00 00 00 00 
0.622200 1 221 Rx d 8 40 41 05 05 00 50 31 2f 
0.622500 1 2f1 Rx d 8 02 91 2a 01 45 00 00 00 
0.622700 1 359 Rx d 8 03 00 00 00 ff 01 00 00 
0.623000 1 243 Rx d 8 03 00 00 00 32 7a 36 00 
0.623100 1 39d Rx d 5 db 53 c1 27 00 
0.623400 1 25b Rx d 8 d3 c0 02 05 6a 86 00 e5 
0.623600 1 4e2 Rx d 8 01 c9 06 00 00 00 a8 28 
0.624100 1 381 Rx d 8 0b 00 00 c8 00 00 3c 06 
0.624800 1 553 Rx d 8 00 00 00 00 00 00 20 78 
0.626800 1 3c8 Rx d 8 02 00 00 00 00 00 00 00 
0.627600 1 142 Rx d 8 01 00 40 0a c0 1b 00 00 
0.628100 1 2e1 Rx d 8 10 21 04 00 12 00 20 08 
0.629200 1 23e Rx d 8 f4 01 3a a8 fa fc cf dc 
0.629600 1 552 Rx d 8 00 00 00 00 00 00 20 77 
0.629800 1 38a Rx d 8 03 00 00 00 00 00 00 00 
0.630600 1 132 Rx d 6 3f 88 f8 ff 2a 40 
0.630800 1 372 Rx d 8 01 b4 15 04 40 00 34 01 
0.631100 1 129 Rx d 8 87 2b 41 20 00 20 ff 3f 
0.631300 1 201 Rx d 8 82 02 00 00 00 00 98 3b 
0.631500 1 383 Rx d 8 a3 18 65 00 45 00 e1 27 
0.631800 1 401 Rx d 8 03 2a a0 80 9d 80 97 80 
0.632600 1 3a2 Rx d 8 01 10 20 00 0b f0 ff 00 
0.632800 1 263 Rx d 8 03 00 00 00 00 00 00 4f 
0.633000 1 2aa Rx d 3 2f 20 fb 
0.633200 1 2b3 Rx d 8 42 4c 00 00 00 00 00 0e 
0.633500 1 3f5 Rx d 8 00 c8 4f 09 80 04 00 00 
0.636100 1 261 Rx d 8 31 00 75 00 ea 49 9a 69 
0.636400 1 2c1 Rx d 8 03 17 13 00 00 00 00 00 
0.636600 1 422 Rx d 6 00 00 10 00 00 00 
0.636800 1 39a Rx d 8 79 ff fd fd fd 01 00 08 
0.637000 1 423 Rx d 7 f8 00 00 00 08 00 00 
0.637300 1 545 Rx d 8 01 00 00 00 00 10 70 cb 
0.637500 1 677 Rx d 8 01 00 00 00 00 00 00 00 
0.638100 1 3a1 Rx d 8 2b 91 40 a3 3e 00 50 ed 
0.638800 1 788 Rx d 8 01 00 00 00 ff a1 d8 13 
0.640600 1 132 Rx d 6 4f 88 f8 ff 25 40 
0.641000 1 129 Rx d 8 d4 2c 42 20 00 20 ff 3f 
0.642800 1 2c3 Rx d 8 55 5b a9 b6 02 00 12 a5 
0.643000 1 243 Rx d 8 04 9c f1 ff fd 7f 66 66 
0.643100 1 409 Rx d 1 00 
0.643600 1 2c2 Rx d 8 20 40 c0 4b 01 00 80 cb 
0.643800 1 219 Rx d 7 05 00 6f 6f 6f 6f 00 
0.644100 1 234 Rx d 8 19 90 01 37 dd 04 e0 3d 
0.644200 1 2d1 Rx d 2 7f 01 
0.644400 1 2e1 Rx d 8 29 6a 44 a6 1f 28 00 00 
0.644700 1 43b Rx d 8 02 7f 00 ff 00 00 00 00 
0.644900 1 288 Rx d 8 03 16 54 8c 80 8c 31 c0 
0.645100 1 34a Rx d 8 01 07 00 00 00 00 00 60 
0.645400 1 719 Rx d 8 14 00 00 00 00 00 bd 00 
0.646000 1 2c4 Rx d 8 6d 80 00 02 00 00 00 00 
0.646200 1 204 Rx d 8 01 00 00 ff 00 00 00 10 
0.646600 1 264 Rx d 6 38 00 00 00 a0 00 
0.646900 1 224 Rx d 8 04 08 00 48 19 01 10 08 
0.647100 1 2b4 Rx d 6 6b 05 a5 0d b6 00 
0.647700 1 400 Rx d 7 00 e0 fb be ef fb 00 
0.650600 1 2f9 Rx d 8 d0 fb 07 28 00 00 00 00 
0.650800 1 132 Rx d 6 4d 88 f8 ff 28 40 
0.651000 1 129 Rx d 8 c6 2d 42 20 00 20 ff 3f 
0.651300 1 401 Rx d 8 04 2a a5 80 9c 80 91 80 
0.651500 1 798 Rx d 8 4b d4 50 89 1e 0a 20 ec 
0.652100 1 261 Rx d 8 3a 2b 34 02 80 5c a2 0f 
0.652600 1 3a8 Rx d 8 03 00 00 00 00 00 00 00 
0.652800 1 3c2 Rx d 8 29 55 00 00 00 00 00 40 
0.653100 1 263 Rx d 8 04 00 00 00 60 10 00 00 
0.653300 1 45a Rx d 8 fd 07 f8 ff 03 00 0b 00 
0.654100 1 441 Rx d 8 29 00 b6 c3 58 00 15 78 
0.655100 1 421 Rx d 7 00 14 00 00 00 d0 48 
0.656100 1 3bd Rx d 8 08 06 00 00 00 00 00 00 
0.656300 1 201 Rx d 8 83 02 00 00 00 00 b8 3b 
0.656600 1 2bf Rx d 7 0a 00 00 00 00 10 00 
0.656800 1 2c1 Rx d 8 04 00 10 0e 0d 11 08 10 
0.657000 1 2a8 Rx d 8 c2 10 00 00 06 00 60 e2 
0.657700 1 3f9 Rx d 8 08 00 00 00 00 00 00 00 
0.657900 1 3ae Rx d 8 00 40 00 08 00 00 a0 e9 
0.658700 1 225 Rx d 4 05 45 d2 00 
0.659400 1 7aa Rx d 8 09 fa 06 fa 06 01 00 00 
0.659600 1 1fa Rx d 3 02 c0 01 
0.660100 1 2e1 Rx d 8 02 6c 7f 02 3c 5e 00 00 
0.660300 1 381 Rx d 8 0c 20 00 19 19 c0 00 06 
0.660600 1 132 Rx d 6 41 88 f8 ff 29 40 
0.661000 1 129 Rx d 8 2a 2e 41 20 00 20 ff 3f 
0.661700 1 3bb Rx d 3 14 0f 14 
0.661900 1 2f3 Rx d 8 0e 0e 0b 00 00 20 00 00 
0.662100 1 273 Rx d 8 81 e1 10 00 4f 00 10 01 
0.662400 1 33a Rx d 8 84 34 53 ab fd ff 03 45 
0.662500 1 2d7 Rx d 4 01 00 00 80 
0.662700 1 39d Rx d 5 dc 54 c1 27 00 
0.663000 1 243 Rx d 8 00 fc cf 0c b1 02 41 29 
0.663200 1 428 Rx d 7 00 00 10 10 00 00 00 
0.664400 1 3fd Rx d 8 01 00 02 00 00 08 12 80 
0.664700 1 339 Rx d 8 01 41 02 00 00 02 40 02 
0.664900 1 283 Rx d 6 00 00 00 00 00 00 
0.665600 1 3a2 Rx d 8 42 27 00 00 20 00 00 00 
0.666400 1 797 Rx d 4 14 09 20 d8 
0.666500 1 242 Rx d 4 10 15 04 05 
0.667000 1 2a1 Rx d 6 00 00 98 3a 00 00 
0.667500 1 22b Rx d 8 ff ff ff cf ff ff ff 3f 
0.668100 1 261 Rx d 8 6b 4f 0a 00 00 40 b5 af 
0.669100 1 545 Rx d 8 02 00 0f 00 00 00 80 db 
0.669300 1 23e Rx d 8 f4 01 3a a8 fa fc df ec 
0.670600 1 132 Rx d 6 52 88 f8 ff 29 40 
0.670900 1 3c0 Rx d 8 07 00 00 00 00 00 00 00 
0.671100 1 129 Rx d 8 e8 2f 42 20 00 20 ff 3f 
0.671300 1 401 Rx d 8 05 2a 97 80 99 80 9c 80 
0.671500 1 249 Rx d 4 d3 03 00 00 
0.671700 1 1f9 Rx d 8 00 00 00 00 00 00 00 00 
0.672100 1 221 Rx d 8 41 01 55 51 01 02 40 4e 
0.672500 1 3e8 Rx d 8 02 00 00 00 00 00 00 00 
0.672800 1 263 Rx d 8 00 d0 e7 89 d4 07 55 1f 
0.673600 1 360 Rx d 8 07 00 00 00 00 00 00 00 
0.674800 1 78a Rx d 8 01 00 03 00 a6 04 7a 02 
0.676100 1 2e1 Rx d 8 fb 19 ee 29 9c e3 09 00 
0.676300 1 2c1 Rx d 8 58 24 7e 00 00 8a 02 47 
0.676600 1 677 Rx d 8 02 00 00 00 00 00 00 00 
0.676800 1 748 Rx d 5 2e 22 0b 00 00 
0.677000 1 103 Rx d 8 22 b3 48 04 92 2c 21 02 
0.677600 1 142 Rx d 8 28 00 02 5c 00 00 01 00 
0.678300 1 2ec Rx d 3 2f 20 3d 
0.678500 1 119 Rx d 4 00 00 00 00 
0.679000 1 682 Rx d 8 00 00 00 40 05 02 20 47 
0.680600 1 102 Rx d 8 22 b3 48 04 8a 0c 21 08 
0.680800 1 132 Rx d 6 4a 88 f8 ff 28 40 
0.681000 1 129 Rx d 8 0d 20 42 20 00 20 ff 3f 
0.681300 1 201 Rx d 8 f8 c9 01 80 22 7b 31 05 
0.682800 1 123 Rx d 8 00 00 12 92 d2 00 00 80 
0.683100 1 243 Rx d 8 01 fc 66 00 66 00 7c 7c 
0.684100 1 261 Rx d 8 a4 fe 17 4e 00 40 c4 01 
0.684400 1 7a8 Rx d 8 01 00 00 00 ff a1 d8 13 
0.684800 1 31a Rx d 8 60 fc ff 02 00 00 10 8a 
0.685600 1 439 Rx d 8 02 00 40 00 00 38 00 00 
0.687600 1 122 Rx d 8 01 00 00 00 00 3f 00 00 
0.688100 1 3a1 Rx d 8 68 42 0e 8a 00 2d 62 91 
0.688500 1 414 Rx d 8 12 20 20 20 20 20 20 20 
0.688700 1 666 Rx d 4 00 00 a0 00 
0.688800 1 113 Rx d 3 01 97 01 
0.689100 1 318 Rx d 8 1a 08 00 02 19 09 2f 90 
0.689300 1 3a3 Rx d 8 00 d0 00 00 38 03 fc 01 
0.689500 1 405 Rx d 8 12 43 32 35 36 38 32 33 
0.689700 1 22a Rx d 4 00 00 d9 15 
0.689800 1 419 Rx d 1 00 
0.690000 1 458 Rx d 7 00 00 00 00 40 00 00 
0.690300 1 55a Rx d 8 04 00 00 00 00 00 00 00 
0.690500 1 228 Rx d 8 03 16 54 8c 80 8c 31 60 
0.690700 1 132 Rx d 6 47 88 f7 ff 25 40 
0.690900 1 20e Rx d 3 13 03 00 
0.691100 1 129 Rx d 8 1a 21 42 20 00 20 ff 3f 
0.691300 1 372 Rx d 8 02 85 40 3b 80 01 44 59 
0.691600 1 401 Rx d 8 06 2a 9c 80 a0 80 9b 80 
0.691700 1 7f4 Rx d 1 01 
0.691900 1 7ff Rx d 8 03 33 08 00 e0 22 16 00 
0.692200 1 2e1 Rx d 8 04 00 00 80 48 44 26 00 
0.692900 1 263 Rx d 8 01 d0 bf b1 8c c7 54 1f 
0.693100 1 2b3 Rx d 8 03 46 46 11 00 00 80 3c 
0.693800 1 234 Rx d 8 37 e1 03 80 43 00 f4 6d 
0.694600 1 272 Rx d 8 09 80 63 00 00 00 00 00 
0.694800 1 393 Rx d 8 09 80 63 00 00 00 00 00 
0.695000 1 42a Rx d 8 f9 6b fe 9a bf e6 af 55 
0.695300 1 719 Rx d 8 15 00 00 00 00 00 00 00 
0.696100 1 2c1 Rx d 8 21 1b 0d 0a 02 00 00 00 
0.696300 1 381 Rx d 8 6d 83 01 e7 00 20 4b 05 
0.696500 1 7b8 Rx d 8 7b 0e 3a d1 49 07 20 1e 
0.697800 1 3ae Rx d 8 00 40 00 08 00 00 b0 f9 
0.698600 1 3a2 Rx d 8 a0 85 72 fa 04 00 c5 6f 
0.700100 1 340 Rx d 8 05 00 00 00 00 00 00 00 
0.700300 1 261 Rx d 8 05 22 02 c9 9a 42 d0 94 
0.700600 1 132 Rx d 6 49 88 f8 ff 29 40 
0.700800 1 20c Rx d 8 00 e0 55 17 00 a0 08 00 
0.701100 1 129 Rx d 8 53 22 42 20 00 20 ff 3f 
0.701600 1 282 Rx d 8 00 00 00 00 e8 03 0b 24 
0.701800 1 379 Rx d 8 00 00 0a 48 33 bf 21 00 
0.702100 1 545 Rx d 8 f0 00 27 30 9f e6 99 af 
0.702300 1 39d Rx d 5 dd 55 c1 27 00 
0.702500 1 2e8 Rx d 8 c2 10 00 00 06 00 60 22 
0.702800 1 3c2 Rx d 8 00 55 55 55 00 00 55 49 
0.703000 1 243 Rx d 8 02 9c 31 11 00 11 00 00 
0.703200 1 21d Rx d 8 04 00 35 00 00 00 00 00 
0.703500 1 40a Rx d 8 00 04 01 00 00 00 10 23 
0.703700 1 25d Rx d 8 36 41 01 16 04 f0 d8 03 
0.703800 1 41d Rx d 1 00 
0.704100 1 27d Rx d 8 00 00 00 00 00 00 00 00 
0.704300 1 43d Rx d 6 00 00 ff 1f 40 00 
0.704500 1 441 Rx d 8 68 85 89 00 32 00 18 29 
0.704700 1 29d Rx d 5 00 00 00 20 00 
0.704900 1 45a Rx d 8 20 46 46 c6 3f 5e 00 66 
0.705100 1 2bd Rx d 4 00 00 00 00 
0.705300 1 49d Rx d 7 00 00 00 00 00 00 00 
0.705600 1 75d Rx d 8 52 b8 ac 79 40 d6 f4 41 
0.705800 1 31e Rx d 8 02 00 00 00 00 00 00 00 
0.706100 1 420 Rx d 8 28 01 40 4b 00 00 00 05 
0.706300 1 201 Rx d 8 01 04 18 01 00 00 80 c4 
0.706800 1 4e3 Rx d 8 02 7e 00 00 00 00 a8 03 
0.708100 1 2e1 Rx d 8 45 00 00 00 0c f9 8c 6a 
0.708400 1 448 Rx d 7 00 00 10 10 00 00 00 
0.708500 1 139 Rx d 1 00 
0.708700 1 1f8 Rx d 4 00 00 00 00 
0.708900 1 212 Rx d 8 58 04 00 00 82 ff 77 62 
0.709200 1 252 Rx d 8 00 00 7e 06 00 c0 16 00 
0.709400 1 23e Rx d 8 f4 01 3a a8 fa fc ef fc 
0.709700 1 292 Rx d 8 2b e2 68 64 8b 01 00 00 
0.709900 1 2d2 Rx d 8 6f 29 a4 4e 00 00 a1 01 
0.710000 1 2f2 Rx d 2 12 01 
0.710300 1 312 Rx d 8 70 e4 66 04 53 a9 15 14 
0.710500 1 392 Rx d 8 00 10 00 00 00 00 00 00 
0.710700 1 712 Rx d 8 00 2a 53 0b 4f 0b 61 0b 
0.710900 1 132 Rx d 6 43 88 f8 ff 27 40 
0.711200 1 129 Rx d 8 44 23 42 20 00 20 ff 3f 
0.711400 1 241 Rx d 7 28 28 0c 0a 0a 53 00 
0.711600 1 401 Rx d 8 07 2a 94 80 9a 80 a0 80 
0.711900 1 294 Rx d 8 14 c1 40 00 00 00 00 00 
0.712800 1 343 Rx d 8 00 92 60 7e 9f 00 00 00 
0.713100 1 263 Rx d 8 02 00 00 00 00 00 00 00 
0.715600 1 289 Rx d 8 a6 04 81 40 9d 00 3d 0f 
0.715800 1 37a Rx d 8 00 0c 00 00 00 00 00 00 
0.716100 1 261 Rx d 8 00 10 97 00 c9 4c e0 92 
0.716400 1 2c1 Rx d 8 02 0d 06 05 00 d0 92 c1 
0.716600 1 677 Rx d 8 03 00 00 00 00 00 00 00 
0.717000 1 3fd Rx d 8 02 00 00 00 00 00 00 90 
0.717500 1 22b Rx d 8 ff ff ff cf ff ff ff 3f 
0.718900 1 3c3 Rx d 8 55 55 55 01 00 80 43 00 
0.720200 1 2c7 Rx d 8 00 00 00 00 00 00 49 ff 
0.720500 1 2a6 Rx d 8 00 00 6a 18 00 00 00 00 
0.720700 1 132 Rx d 6 44 88 f8 ff 28 40 
0.720900 1 2a7 Rx d 8 00 00 00 00 00 74 05 84 
0.721200 1 129 Rx d 8 c2 24 42 20 00 20 ff 3f 
0.721300 1 789 Rx d 4 54 11 30 97 
0.721500 1 229 Rx d 3 49 0c 00 
0.721600 1 249 Rx d 4 d3 04 00 00 
0.721900 1 330 Rx d 8 10 00 39 2e 32 52 00 00 
0.722100 1 221 Rx d 8 40 41 05 05 00 50 51 4f 
0.722400 1 2f1 Rx d 8 03 91 2e 01 45 00 01 00 
0.722600 1 54f Rx d 8 00 00 00 00 00 00 00 00 
0.722900 1 243 Rx d 8 03 00 00 00 32 7a 36 00 
0.723100 1 25b Rx d 8 d3 c0 02 05 6a 86 10 f5 
0.723300 1 359 Rx d 8 04 00 00 00 00 00 00 00 
0.723600 1 4e2 Rx d 8 02 38 05 00 00 00 28 25 
0.724100 1 2e1 Rx d 8 10 21 04 00 12 00 20 08 
0.724800 1 553 Rx d 8 00 00 00 00 00 00 30 88 
0.726800 1 3c8 Rx d 8 03 00 00 00 00 00 00 00 
0.727600 1 142 Rx d 8 01 00 40 0a c0 1b 00 00 
0.729600 1 552 Rx d 8 00 00 00 00 00 00 30 87 
0.729800 1 38a Rx d 8 00 00 00 00 00 00 00 00 
0.730600 1 132 Rx d 6 43 88 f8 ff 28 40 
0.730800 1 401 Rx d 8 08 2a 9d 80 99 80 97 80 
0.731000 1 129 Rx d 8 d5 25 42 20 00 20 ff 3f 
0.731300 1 201 Rx d 8 82 02 00 00 00 00 98 3b 
0.731500 1 383 Rx d 8 a3 18 65 00 45 00 e1 27 
0.731800 1 3a2 Rx d 8 01 10 20 00 09 f0 ff 00 
0.732100 1 261 Rx d 8 31 00 9b 00 eb 49 fa f0 
0.732300 1 381 Rx d 8 8e ef fb 41 81 07 45 00 
0.732900 1 263 Rx d 8 03 00 00 00 00 00 00 4f 
0.733000 1 2aa Rx d 3 2f 30 0b 
0.733200 1 3f5 Rx d 8 00 c8 4f 09 80 04 00 00 
0.735100 1 545 Rx d 8 01 00 00 00 00 10 a0 fb 
0.736100 1 2c1 Rx d 8 03 17 13 00 00 00 00 00 
0.736500 1 422 Rx d 6 00 00 10 00 00 00 
0.736800 1 39a Rx d 8 fc fd fd fd 1d 27 0b 13 
0.737000 1 423 Rx d 7 f8 00 00 00 08 00 00 
0.737800 1 3ae Rx d 8 00 40 00 08 00 00 c0 09 
0.738100 1 3a1 Rx d 8 2b 91 40 b1 3e 00 70 1b 
0.738900 1 788 Rx d 8 02 40 ca 07 00 00 00 00 
0.740100 1 2e1 Rx d 8 29 6a 44 a6 1f 28 00 00 
0.740300 1 7aa Rx d 8 0a df 06 df 06 00 4b 00 
0.740600 1 132 Rx d 6 43 88 f8 ff 28 40 
0.741000 1 129 Rx d 8 0f 26 42 20 00 20 ff 3f 
0.742000 1 39d Rx d 5 de 56 c1 27 00 
0.742800 1 2c3 Rx d 8 00 00 c0 4b 01 00 80 cb 
0.743100 1 243 Rx d 8 04 9c f1 ff fd 7f 66 66 
0.743200 1 409 Rx d 1 00 
0.743600 1 2c2 Rx d 8 55 5b a9 06 00 00 12 a5 
0.743800 1 219 Rx d 7 00 80 ff ff ff f8 0f 
0.744100 1 234 Rx d 8 19 90 01 37 dd 04 00 5d 
0.744200 1 2d1 Rx d 2 7f 01 
0.744600 1 719 Rx d 8 16 79 00 ff ff 01 00 00 
0.744900 1 288 Rx d 8 03 16 54 8c 80 8c 41 d0 
0.746000 1 2c4 Rx d 8 12 b2 00 a6 0d 74 35 01 
0.746300 1 204 Rx d 8 01 00 00 ff 00 00 00 10 
0.746500 1 399 Rx d 3 00 00 00 
0.746700 1 264 Rx d 6 38 00 00 00 a0 00 
0.747000 1 224 Rx d 8 04 08 00 48 19 01 10 08 
0.747200 1 2b4 Rx d 6 6a 05 a4 0d b4 00 
0.747500 1 3c4 Rx d 8 0a 01 77 02 fc 00 1b 00 
0.747700 1 400 Rx d 7 00 e0 fb be ef fb 00 
0.748100 1 261 Rx d 8 3a 2b 34 02 80 5c 02 6f 
0.749700 1 23e Rx d 8 f4 01 3a a8 fa fc ff 0c 
0.750600 1 132 Rx d 6 46 88 f8 ff 29 40 
0.750800 1 2f9 Rx d 8 d0 fb 07 00 ff ff ff ff 
0.751100 1 129 Rx d 8 18 27 42 20 00 20 ff 3f 
0.751300 1 2e3 Rx d 7 f7 d3 4f 3f c9 f4 0f 
0.751500 1 372 Rx d 8 03 00 0b 50 00 01 00 00 
0.751800 1 401 Rx d 8 09 2a 9a 80 9f 80 a1 80 
0.752000 1 798 Rx d 8 cc 29 62 11 43 0c 30 93 
0.752600 1 2e2 Rx d 8 05 00 00 58 02 1b 00 80 
0.752900 1 263 Rx d 8 04 00 00 00 60 10 00 00 
0.753100 1 2b3 Rx d 8 04 61 42 7e fc 06 01 80 
0.753400 1 3c2 Rx d 8 29 55 00 00 00 00 00 40 
0.753600 1 45a Rx d 8 fd 07 f8 ff 03 00 0b 00 
0.754100 1 441 Rx d 8 29 00 b6 c3 58 00 1d 80 
0.755100 1 421 Rx d 7 00 14 00 00 00 d0 48 
0.756100 1 321 Rx d 8 2d b6 a8 8a 01 89 70 33 
0.756300 1 201 Rx d 8 83 02 00 00 00 00 b8 3b 
0.756600 1 2c1 Rx d 8 04 00 10 0e 0d 11 08 10 
0.756800 1 2e1 Rx d 8 02 6c 7f 02 3c 5e 00 00 
0.757000 1 2a8 Rx d 8 c2 10 00 00 06 00 70 f2 
0.757300 1 677 Rx d 8 04 00 00 00 00 00 00 00 
0.757500 1 718 Rx d 7 03 00 00 00 00 00 00 
0.757800 1 3f9 Rx d 8 00 00 00 00 00 00 00 00 
0.758700 1 225 Rx d 4 05 45 d2 00 
0.759500 1 1fa Rx d 3 02 c0 01 
0.760600 1 132 Rx d 6 45 88 f8 ff 29 40 
0.760800 1 3cc Rx d 8 03 11 43 18 00 0e 09 00 
0.761100 1 129 Rx d 8 cf 28 42 20 00 20 ff 3f 
0.761900 1 61d Rx d 8 01 14 8a 34 ac 36 1b 08 
0.762100 1 238 Rx d 8 f0 27 9c d0 1f 00 06 e2 
0.762800 1 243 Rx d 8 00 fc cf 0c b1 02 41 29 
0.763100 1 428 Rx d 7 00 00 10 10 00 00 00 
0.764100 1 261 Rx d 8 6b 4f 0a 00 00 40 15 0f 
0.764600 1 3a2 Rx d 8 32 27 00 00 20 00 00 00 
0.764800 1 339 Rx d 8 01 41 02 00 00 02 40 02 
0.765000 1 283 Rx d 6 00 00 00 00 00 00 
0.766400 1 797 Rx d 4 14 09 30 e8 
0.766500 1 242 Rx d 4 10 15 04 05 
0.767000 1 2a1 Rx d 6 00 00 98 3a 00 00 
0.767600 1 22b Rx d 8 ff ff ff cf ff ff ff 3f 
0.767800 1 3ae Rx d 8 00 40 00 08 00 00 d1 1a 
0.768100 1 545 Rx d 8 02 00 0f 00 00 00 b0 0b 
0.768300 1 381 Rx d 8 cf 73 37 64 00 00 3b 06 
0.770600 1 132 Rx d 6 48 88 f8 ff 29 40 
0.770900 1 320 Rx d 8 01 00 00 08 00 00 00 00 
0.771100 1 129 Rx d 8 9a 29 42 20 00 20 ff 3f 
0.771400 1 3c0 Rx d 8 08 00 00 00 00 00 00 00 
0.771500 1 249 Rx d 4 83 05 00 00 
0.771800 1 1f9 Rx d 8 00 00 00 00 00 00 00 00 
0.772000 1 401 Rx d 8 0a 2a a0 80 9b 80 a0 80 
0.772200 1 221 Rx d 8 41 01 55 51 01 02 60 6e 
0.772500 1 2e1 Rx d 8 fb 19 ee 29 9c e5 09 00 
0.772700 1 3e8 Rx d 8 03 00 00 00 00 00 00 00 
0.773000 1 263 Rx d 8 00 d0 e7 89 d4 07 55 1f 
0.773600 1 360 Rx d 8 08 00 00 00 00 00 04 00 
0.774600 1 78a Rx d 8 01 00 04 00 a4 04 8f 00 
0.776100 1 2c1 Rx d 8 58 24 7e 00 00 8a 02 47 
0.776800 1 103 Rx d 8 22 b3 48 04 92 2c 21 02 
0.777600 1 142 Rx d 8 28 00 02 5c 00 00 01 00 
0.778300 1 682 Rx d 8 00 00 00 40 05 02 30 57 
0.778500 1 2ec Rx d 3 2f 30 4d 
0.778600 1 119 Rx d 4 00 00 00 00 
0.780100 1 261 Rx d 8 a4 fe 17 4e 00 40 24 61 
0.780600 1 102 Rx d 8 22 b3 48 04 8a 0c 21 08 
0.780800 1 132 Rx d 6 4b 88 f7 ff 24 40 
0.781000 1 129 Rx d 8 76 2a 41 20 00 20 ff 3f 
0.781300 1 201 Rx d 8 08 ca 01 80 22 7b 31 05 
0.782100 1 39d Rx d 5 df 57 c1 27 00 
0.782800 1 123 Rx d 8 01 00 00 00 00 3f 00 00 
0.783100 1 243 Rx d 8 01 fc 66 00 66 00 7c 7c 
0.783300 1 70b Rx d 8 80 80 40 12 20 04 f2 1f 
0.784400 1 7a8 Rx d 8 02 40 ca 07 00 07 00 00 
0.785600 1 439 Rx d 8 02 00 40 00 00 38 00 00 
0.787600 1 122 Rx d 8 00 00 12 92 12 00 00 00 
0.788100 1 2e1 Rx d 8 04 00 00 80 48 44 26 00 
0.788300 1 3a1 Rx d 8 68 42 0e 8a 00 2d 82 b1 
0.788500 1 113 Rx d 3 01 97 01 
0.788700 1 318 Rx d 8 1a 08 00 02 19 09 31 92 
0.788900 1 3a3 Rx d 8 00 d0 00 00 38 03 fc 01 
0.789200 1 458 Rx d 7 00 00 00 00 40 00 00 
0.789300 1 419 Rx d 1 00 
0.789600 1 23e Rx d 8 f4 01 3a a8 fa fc 0f 1c 
0.789600 1 7f4 Rx d 1 01 
0.789800 1 22a Rx d 4 00 00 d9 15 
0.790000 1 7ff Rx d 8 04 21 fb a8 60 20 a4 20 
0.790500 1 228 Rx d 8 03 16 54 8c 80 8c 41 70 
0.790700 1 132 Rx d 6 51 88 f8 ff 28 40 
0.790900 1 20e Rx d 3 14 04 00 
0.791100 1 129 Rx d 8 b4 2b 42 20 00 20 ff 3f 
0.791300 1 401 Rx d 8 0b 2a 9d 80 9f 80 9d 80 
0.792800 1 263 Rx d 8 01 d0 bf b1 8c c7 54 1f 
0.793900 1 234 Rx d 8 37 e1 03 80 43 00 14 8d 
0.794600 1 272 Rx d 8 06 00 fc e0 07 b0 07 08 
0.794800 1 393 Rx d 8 06 00 fa d8 07 b0 07 08 
0.795100 1 719 Rx d 8 17 00 00 00 00 00 00 00 
0.796100 1 261 Rx d 8 05 22 02 c9 9a 42 30 f4 
0.796300 1 2c1 Rx d 8 21 1b 0d 0a 02 00 00 00 
0.796600 1 677 Rx d 8 00 00 00 00 00 00 00 00 
0.796800 1 7b8 Rx d 8 a4 b8 61 00 00 00 30 07 
0.797600 1 3a2 Rx d 8 a0 85 72 fa 04 00 c5 6f 
0.800100 1 340 Rx d 8 06 00 00 00 00 00 00 00 
0.800600 1 132 Rx d 6 48 88 f8 ff 28 40 
0.800800 1 20c Rx d 8 00 e0 55 17 00 90 08 00 
0.801100 1 129 Rx d 8 e7 2c 41 20 00 20 ff 3f 
0.801300 1 545 Rx d 8 f0 00 27 40 9f e7 c9 f0 
0.801600 1 282 Rx d 8 00 00 00 00 e8 03 0b 24 
0.801900 1 379 Rx d 8 01 00 0a 48 33 bf 21 00 
0.802500 1 2e8 Rx d 8 c2 10 00 00 06 00 70 32 
0.802700 1 3c2 Rx d 8 00 55 55 55 00 00 55 49 
0.803000 1 243 Rx d 8 02 9c 29 11 00 11 00 00 
0.803200 1 21d Rx d 8 04 00 35 00 00 00 00 00 
0.803500 1 31e Rx d 8 03 00 00 00 00 00 00 00 
0.803700 1 25d Rx d 8 36 41 01 16 04 f0 d8 03 
0.803900 1 3e2 Rx d 7 00 00 80 fa 3f c0 04 
0.804200 1 27d Rx d 8 00 00 00 00 00 00 00 00 
0.804400 1 2e1 Rx d 8 45 00 00 00 0c f9 8c 6a 
0.804700 1 381 Rx d 8 30 00 41 1e 43 0c 00 60 
0.804800 1 29d Rx d 5 00 00 00 20 00 
0.805000 1 2bd Rx d 4 00 00 00 00 
0.805100 1 41d Rx d 1 00 
0.805300 1 43d Rx d 6 00 00 ff 1f 40 00 
0.805600 1 441 Rx d 8 68 85 89 00 32 00 20 31 
0.805800 1 45a Rx d 8 20 46 46 c6 3f 5e 00 66 
0.806100 1 420 Rx d 8 28 01 40 4b 00 00 80 05 
0.806300 1 201 Rx d 8 01 04 18 01 00 00 80 c4 
0.806500 1 49d Rx d 7 00 00 00 00 00 00 00 
0.806600 1 744 Rx d 1 00 
0.806900 1 4e3 Rx d 8 03 59 00 00 00 00 a8 0c 
0.807400 1 2d2 Rx d 8 6f 29 a4 4e 00 00 a1 01 
0.807700 1 212 Rx d 8 58 04 00 00 82 ff 77 62 
0.807900 1 252 Rx d 8 00 00 7e 06 00 c0 16 00 
0.808200 1 292 Rx d 8 2b e2 68 64 8b 01 00 00 
0.808300 1 2f2 Rx d 2 12 01 
0.808500 1 3ae Rx d 8 00 40 00 08 00 00 e1 2a 
0.808600 1 139 Rx d 1 00 
0.808800 1 1f8 Rx d 4 00 00 00 00 
0.809100 1 3b2 Rx d 8 25 00 00 00 00 00 80 0c 
0.809300 1 448 Rx d 7 00 00 10 10 00 00 00 
0.809500 1 712 Rx d 8 01 2a 56 0b 44 0b 5f 0b 
0.810800 1 132 Rx d 6 44 88 f8 ff 27 40 
0.811000 1 372 Rx d 8 04 00 00 00 00 00 fa 10 
0.811300 1 129 Rx d 8 c6 2d 42 20 00 20 ff 3f 
0.811500 1 241 Rx d 7 29 28 4c 0a 0a 53 00 
0.811700 1 401 Rx d 8 0c 2a 97 80 97 80 97 80 
0.811900 1 453 Rx d 4 00 00 00 00 
0.812100 1 261 Rx d 8 00 10 97 00 c9 4c 40 f2 
0.812200 1 1bb Rx d 1 02 
0.812500 1 284 Rx d 8 30 00 00 00 40 08 60 5e 
0.812600 1 390 Rx d 2 17 06 
0.812800 1 343 Rx d 8 00 92 5c 4e 9f 00 00 00 
0.813100 1 263 Rx d 8 02 00 00 00 00 00 00 00 
0.813300 1 2b3 Rx d 8 05 00 7c 00 1f 81 8c 8c 
0.815600 1 289 Rx d 8 a6 04 81 80 90 00 3d 0f 
0.815800 1 37a Rx d 8 01 0d 00 00 00 00 00 00 
0.816100 1 2c1 Rx d 8 02 0d 06 05 00 d0 92 c1 
0.817500 1 22b Rx d 8 ff ff ff cf ff ff ff 3f 
0.818800 1 3c3 Rx d 8 00 00 00 00 00 45 00 00 
0.819000 1 3e3 Rx d 4 00 00 00 00 
0.820100 1 2e1 Rx d 8 10 21 04 00 12 00 20 08 
0.820400 1 2a6 Rx d 8 00 00 6a 18 00 00 00 00 
0.820600 1 2a7 Rx d 8 00 00 00 00 00 74 05 84 
0.820800 1 132 Rx d 6 4e 88 f8 ff 28 40 
0.821000 1 2c7 Rx d 8 00 00 00 00 00 00 49 ff 
0.821300 1 129 Rx d 8 19 2e 42 20 00 20 ff 3f 
0.821400 1 789 Rx d 4 54 11 40 a7 
0.821600 1 229 Rx d 3 2f 0d 00 
0.821800 1 7aa Rx d 8 0b 43 00 28 40 00 36 00 
0.822000 1 249 Rx d 4 4c 06 00 00 
0.822200 1 221 Rx d 8 40 41 05 05 00 50 71 6f 
0.822500 1 2f1 Rx d 8 04 90 2b 81 34 00 01 00 
0.822700 1 359 Rx d 8 86 3f d0 11 81 04 00 0e 
0.822900 1 243 Rx d 8 03 00 00 00 32 7a 36 00 
0.823100 1 39d Rx d 5 e0 58 c1 27 00 
0.823300 1 25b Rx d 8 d3 c0 02 05 6a 86 20 05 
0.823600 1 4e2 Rx d 8 03 49 00 05 00 00 a8 0c 
0.823800 1 54f Rx d 8 00 00 00 00 00 00 00 00 
0.824800 1 553 Rx d 8 00 00 00 00 00 00 40 98 
0.826800 1 3c8 Rx d 8 04 00 00 00 00 00 00 00 
0.827600 1 142 Rx d 8 01 00 40 0a c0 1b 00 00 
0.828100 1 261 Rx d 8 31 00 9b 00 f1 49 5a 56 
0.829200 1 23e Rx d 8 f4 01 3a a8 fa fc 1f 2c 
0.829600 1 552 Rx d 8 00 00 00 00 00 00 40 97 
0.829800 1 38a Rx d 8 01 00 00 00 00 00 00 00 
0.830600 1 3a2 Rx d 8 01 10 20 00 09 f0 ff 00 
0.830800 1 132 Rx d 6 3f 88 f8 ff 28 40 
0.831000 1 383 Rx d 8 a3 18 65 00 45 00 e1 27 
0.831200 1 129 Rx d 8 e8 2f 42 20 00 20 ff 3f 
0.831500 1 201 Rx d 8 82 02 00 00 00 00 98 3b 
0.831700 1 401 Rx d 8 0d 2a 91 80 9d 80 95 80 
0.832800 1 263 Rx d 8 03 00 00 00 00 00 00 4f 
0.833000 1 2aa Rx d 3 2f 40 1b 
0.833200 1 3f5 Rx d 8 00 c8 4f 09 80 04 00 00 
0.834100 1 545 Rx d 8 01 00 00 00 00 10 d0 2b 
0.836100 1 2e1 Rx d 8 29 6a 44 a6 1f 28 00 00 
0.836300 1 2c1 Rx d 8 03 17 13 00 00 00 00 00 
0.836500 1 422 Rx d 6 00 00 10 00 00 00 
0.836800 1 39a Rx d 8 79 ff fd fd fd 01 00 08 
0.837000 1 423 Rx d 7 f8 00 00 00 08 00 00 
0.837300 1 677 Rx d 8 01 00 00 00 00 00 00 00 
0.838100 1 3a1 Rx d 8 2b 91 40 b3 3e 00 90 3d 
0.838800 1 788 Rx d 8 f8 d4 a1 63 00 00 80 00 
0.840100 1 381 Rx d 8 11 32 4b 00 23 00 00 9e 
0.840600 1 132 Rx d 6 42 88 f8 ff 28 40 
0.841000 1 129 Rx d 8 3e 20 41 20 00 20 ff 3f 
0.842500 1 7e8 Rx d 8 14 05 00 c2 65 37 86 00 
0.842800 1 2c3 Rx d 8 55 5b a9 b6 02 00 12 a5 
0.843000 1 243 Rx d 8 04 9c f1 ff fd 7f 66 66 
0.843200 1 409 Rx d 1 00 
0.843600 1 2c2 Rx d 8 20 40 c0 4b 01 00 80 cb 
0.843900 1 219 Rx d 7 01 80 ff ff ff f9 0f 
0.844100 1 234 Rx d 8 19 90 01 37 dd 04 20 7d 
0.844300 1 261 Rx d 8 3a 2b 34 02 80 5c 62 cf 
0.844400 1 2d1 Rx d 2 7f 01 
0.844700 1 719 Rx d 8 20 03 14 02 14 27 25 00 
0.844900 1 288 Rx d 8 03 16 54 8c 80 8c 51 e0 
0.845900 1 2c4 Rx d 8 13 9c 00 a4 0d 5e 05 01 
0.846200 1 204 Rx d 8 01 00 00 ff 00 00 00 10 
0.846600 1 264 Rx d 6 38 00 00 00 a0 00 
0.846900 1 224 Rx d 8 04 08 00 48 19 01 10 08 
0.847100 1 2b4 Rx d 6 67 05 a5 0d b2 00 
0.847700 1 400 Rx d 7 00 e0 fb be ef fb 00 
0.850200 1 3ae Rx d 8 00 40 00 08 00 00 f1 3a 
0.850600 1 132 Rx d 6 37 88 f8 ff 27 40 
0.850800 1 2f9 Rx d 8 d0 fb 07 08 00 00 00 00 
0.851100 1 129 Rx d 8 1a 21 42 20 00 20 ff 3f 
0.851300 1 401 Rx d 8 0e 2a 9e 80 9a 80 98 80 
0.851500 1 798 Rx d 8 05 00 00 00 00 00 40 f1 
0.852100 1 2e1 Rx d 8 02 6c 7f 02 3c 5e 00 00 
0.852600 1 3a8 Rx d 8 04 60 03 7e 00 00 00 00 
0.852800 1 3c2 Rx d 8 29 55 00 00 00 00 00 40 
0.853100 1 263 Rx d 8 04 00 00 00 60 10 00 00 
0.853300 1 45a Rx d 8 fd 07 f8 ff 03 00 0b 00 
0.854100 1 441 Rx d 8 29 00 b6 c3 58 00 25 88 
0.855100 1 421 Rx d 7 00 14 00 00 00 d0 48 
0.856100 1 2c1 Rx d 8 04 00 10 0e 0d 11 08 10 
0.856300 1 201 Rx d 8 83 02 00 00 00 00 b8 3b 
0.856600 1 2bf Rx d 7 0a 00 00 00 00 10 00 
0.856800 1 2a8 Rx d 8 c2 10 00 00 06 00 80 02 
0.857700 1 3f9 Rx d 8 01 00 00 00 00 00 00 00 
0.858700 1 225 Rx d 4 05 45 d2 00 
0.859500 1 1fa Rx d 3 02 c0 01 
0.860100 1 261 Rx d 8 6b 4f 0a 00 00 40 75 6f 
0.860600 1 132 Rx d 6 48 88 f8 ff 28 40 
0.861000 1 129 Rx d 8 53 22 42 20 00 20 ff 3f 
0.862000 1 285 Rx d 8 41 03 65 01 0d 00 08 00 
0.862200 1 286 Rx d 5 ff ff ff ff 31 
0.862500 1 353 Rx d 8 7b 0f 39 80 07 10 fd 01 
0.862700 1 373 Rx d 8 10 a2 ab 00 00 de 06 1f 
0.862900 1 243 Rx d 8 00 fc cf 0c b1 02 41 29 
0.863100 1 39d Rx d 5 e1 59 c1 27 00 
0.863300 1 3d8 Rx d 4 68 00 68 00 
0.863500 1 428 Rx d 7 00 00 10 10 00 00 00 
0.863800 1 3a2 Rx d 8 32 27 00 00 20 00 00 00 
0.864700 1 339 Rx d 8 01 41 02 00 00 02 40 02 
0.864900 1 283 Rx d 6 00 00 00 00 00 00 
0.866400 1 797 Rx d 4 14 09 40 f8 
0.866500 1 242 Rx d 4 10 15 04 05 
0.867000 1 2a1 Rx d 6 00 00 98 3a 00 00 
0.867300 1 545 Rx d 8 02 00 0f 00 00 00 e0 3b 
0.867500 1 22b Rx d 8 ff ff ff cf ff ff ff 3f 
0.868100 1 2e1 Rx d 8 fb 19 ef 29 9c e1 09 00 
0.869200 1 23e Rx d 8 f4 01 3a a8 fa fc 2f 3c 
0.870600 1 132 Rx d 6 39 88 f8 ff 29 40 
0.870800 1 372 Rx d 8 05 46 3b 0d 00 00 00 00 
0.871100 1 129 Rx d 8 44 23 42 20 00 20 ff 3f 
0.871300 1 3c0 Rx d 8 09 00 00 00 00 00 00 00 
0.871500 1 249 Rx d 4 5e 07 00 00 
0.871800 1 1f9 Rx d 8 00 00 00 00 00 00 00 00 
0.872000 1 401 Rx d 8 0f 2a 95 80 a4 80 a9 80 
0.872200 1 221 Rx d 8 41 01 55 51 01 02 80 8e 
0.872500 1 3e8 Rx d 8 04 00 00 00 00 00 00 00 
0.872800 1 263 Rx d 8 00 d0 e7 89 d4 07 55 1f 
0.873100 1 2b3 Rx d 8 06 19 d9 3f 93 40 a2 d4 
0.873600 1 360 Rx d 8 09 00 00 00 00 00 00 00 
0.874700 1 78a Rx d 8 01 00 05 00 9d 0d 07 00 
0.876100 1 261 Rx d 8 a4 fe 17 4e 00 40 84 c1 
0.876400 1 2c1 Rx d 8 58 24 7e 00 00 8a 02 47 
0.876600 1 381 Rx d 8 72 00 32 36 00 40 48 01 
0.876800 1 103 Rx d 8 22 b3 48 04 92 2c 21 02 
0.877100 1 677 Rx d 8 02 00 00 00 00 00 00 00 
0.877300 1 709 Rx d 8 0e f3 00 00 00 00 00 00 
0.877600 1 142 Rx d 8 28 00 02 5c 00 00 01 00 
0.878100 1 682 Rx d 8 00 00 00 40 05 02 40 67 
0.878300 1 2ec Rx d 3 2f 40 5d 
0.878600 1 119 Rx d 4 00 00 00 00 
0.880600 1 102 Rx d 8 22 b3 48 04 8c 0c 21 08 
0.880800 1 132 Rx d 6 4e 88 f8 ff 28 40 
0.881000 1 129 Rx d 8 f1 24 41 20 00 20 ff 3f 
0.881300 1 201 Rx d 8 f8 b9 01 80 22 7b 31 05 
0.882800 1 123 Rx d 8 00 00 12 92 d2 00 00 80 
0.883100 1 243 Rx d 8 01 fc 66 00 66 00 7c 7c 
0.884100 1 2e1 Rx d 8 04 00 00 80 48 44 26 00 
0.884500 1 7a8 Rx d 8 f8 cc a1 63 00 00 82 00 
0.884800 1 31a Rx d 8 60 fc ff 02 00 00 20 9a 
0.885700 1 439 Rx d 8 02 00 40 00 00 38 00 00 
0.887600 1 122 Rx d 8 01 00 00 00 00 3f 00 00 
0.887800 1 3ae Rx d 8 00 40 00 08 00 00 01 4a 
0.888100 1 3a1 Rx d 8 68 42 0e 8a 00 2d a2 d1 
0.888400 1 113 Rx d 3 01 97 01 
0.888700 1 319 Rx d 8 22 00 00 00 ff ff ff ff 
0.888900 1 318 Rx d 8 1a 08 00 02 19 09 33 94 
0.889200 1 3a3 Rx d 8 00 d0 00 00 38 03 fc 01 
0.889300 1 419 Rx d 1 00 
0.889500 1 458 Rx d 7 00 00 00 00 40 00 00 
0.889600 1 7f4 Rx d 1 01 
0.889900 1 7ff Rx d 8 05 09 20 41 20 04 81 00 
0.890000 1 22a Rx d 4 00 00 d9 15 
0.890500 1 7aa Rx d 8 0c 00 00 00 00 00 00 39 
0.890700 1 132 Rx d 6 39 88 f8 ff 28 40 
0.890900 1 20e Rx d 3 15 05 00 
0.891100 1 129 Rx d 8 e6 25 41 20 00 20 ff 3f 
0.891300 1 228 Rx d 8 03 16 54 8c 80 8c 51 80 
0.891600 1 401 Rx d 8 10 2a a2 80 99 80 a2 80 
0.892100 1 261 Rx d 8 05 22 02 c9 9a 42 90 54 
0.892800 1 263 Rx d 8 01 d0 bf b1 8c c7 54 1f 
0.893600 1 407 Rx d 8 18 0d 00 00 00 00 00 00 
0.893900 1 234 Rx d 8 37 e1 03 80 43 00 34 ad 
0.894600 1 272 Rx d 8 09 80 63 00 00 00 00 00 
0.894800 1 393 Rx d 8 09 80 63 00 00 00 00 00 
0.895100 1 3db Rx d 8 04 00 00 d5 05 00 00 00 
0.895300 1 42a Rx d 8 f9 6b fe 9a bf e6 af 55 
0.895500 1 43b Rx d 8 03 7f 00 ff 00 00 00 00 
0.895800 1 719 Rx d 8 01 00 06 00 00 00 00 00 
0.896100 1 2c1 Rx d 8 21 1b 0d 0a 02 00 00 00 
0.896500 1 7b8 Rx d 8 05 60 50 ab 31 03 40 ee 
0.896700 1 3a2 Rx d 8 a0 85 72 fa 04 00 c5 6f 
0.900100 1 340 Rx d 8 07 00 00 00 00 00 00 00 
0.900300 1 2e1 Rx d 8 45 00 00 00 0c f9 8c 6a 
0.900600 1 545 Rx d 8 f0 00 27 30 9f e6 f9 0f 
0.900800 1 132 Rx d 6 46 88 f7 ff 27 40 
0.901000 1 20c Rx d 8 00 e0 55 17 00 90 08 00 
0.901200 1 129 Rx d 8 3c 26 41 20 00 20 ff 3f 
0.901500 1 752 Rx d 8 0b 00 00 00 00 00 00 00 
0.901700 1 282 Rx d 8 00 00 00 00 e8 03 0b 24 
0.902000 1 379 Rx d 8 02 00 0a 48 33 bf 21 00 
0.902100 1 39d Rx d 5 e2 5a c1 27 00 
0.902500 1 2e8 Rx d 8 c2 10 00 00 06 00 80 42 
0.902700 1 3c2 Rx d 8 00 55 55 55 00 00 55 49 
0.903000 1 21d Rx d 8 04 00 35 00 00 00 00 00 
0.903200 1 243 Rx d 8 02 9c 29 11 00 11 00 00 
0.903500 1 25d Rx d 8 36 41 01 16 04 f0 d8 03 
0.903700 1 27d Rx d 8 00 00 00 00 00 00 00 00 
0.904000 1 40a Rx d 8 00 04 01 00 00 00 20 33 
0.904100 1 29d Rx d 5 00 00 00 20 00 
0.904300 1 41d Rx d 1 00 
0.904500 1 43d Rx d 6 00 00 ff 1f 40 00 
0.904600 1 2bd Rx d 4 00 00 00 00 
0.904900 1 441 Rx d 8 66 85 89 00 32 00 28 37 
0.905100 1 45a Rx d 8 20 46 46 c6 3f 5e 00 66 
0.905300 1 49d Rx d 7 00 00 00 00 00 00 00 
0.905600 1 75d Rx d 8 03 00 80 00 00 00 00 00 
0.905900 1 420 Rx d 8 28 01 40 4b 00 00 00 06 
0.906100 1 201 Rx d 8 01 04 18 01 00 00 80 c4 
0.906800 1 4e3 Rx d 8 04 00 00 00 00 00 00 00 
0.907500 1 2d2 Rx d 8 6f 29 a4 4e 00 00 a1 01 
0.907700 1 212 Rx d 8 58 04 00 00 82 ff 77 62 
0.908000 1 252 Rx d 8 00 00 7e 06 00 c0 16 00 
0.908200 1 261 Rx d 8 00 10 97 00 c9 4c a0 52 
0.908400 1 292 Rx d 8 2b e2 68 64 8b 01 00 00 
0.908500 1 139 Rx d 1 00 
0.908700 1 1f8 Rx d 4 00 00 00 00 
0.908800 1 2f2 Rx d 2 12 01 
0.909100 1 352 Rx d 8 02 4d 05 4c 05 48 50 42 
0.909300 1 448 Rx d 7 00 00 10 10 00 00 00 
0.909500 1 23e Rx d 8 f4 01 3a a8 fa fc 3f 4c 
0.909800 1 712 Rx d 8 02 2a 5b 0b 6d 0b 4e 0b 
0.910800 1 132 Rx d 6 3a 88 f8 ff 2a 40 
0.911000 1 401 Rx d 8 11 2a a0 80 9d 80 91 80 
0.911300 1 129 Rx d 8 18 27 42 20 00 20 ff 3f 
0.911500 1 241 Rx d 7 27 28 cc 09 0a 53 00 
0.912100 1 381 Rx d 8 13 00 00 00 00 00 00 ff 
0.912800 1 343 Rx d 8 00 92 60 0e 9f 00 00 00 
0.913100 1 263 Rx d 8 02 00 00 00 00 00 00 00 
0.913600 1 355 Rx d 7 80 ec 00 bc 94 00 00 
0.913800 1 285 Rx d 8 02 d5 00 00 00 00 de 00 
0.914000 1 313 Rx d 8 02 64 64 05 00 00 80 65 
0.915600 1 289 Rx d 8 a6 04 81 40 86 00 3d 0f 
0.915800 1 37a Rx d 8 02 0d 00 00 00 00 00 00 
0.916100 1 2e1 Rx d 8 10 21 04 00 12 00 20 08 
0.916300 1 2c1 Rx d 8 02 0d 06 05 00 d0 92 c1 
0.916600 1 677 Rx d 8 03 00 00 00 00 00 00 00 
0.917500 1 22b Rx d 8 ff ff ff cf ff ff ff 3f 
0.918900 1 3c3 Rx d 8 55 55 55 01 00 80 43 00 
0.920200 1 2c7 Rx d 8 00 00 00 00 00 00 49 ff 
0.920500 1 2a6 Rx d 8 00 00 6a 18 00 00 00 00 
0.920700 1 132 Rx d 6 48 88 f8 ff 28 40 
0.920900 1 2a7 Rx d 8 00 00 00 00 00 74 05 84 
0.921100 1 129 Rx d 8 cf 28 42 20 00 20 ff 3f 
0.921300 1 789 Rx d 4 54 11 50 b7 
0.921500 1 229 Rx d 3 31 0e 00 
0.921600 1 249 Rx d 4 3f 08 00 00 
0.921900 1 54f Rx d 8 00 00 00 00 00 00 00 00 
0.922100 1 221 Rx d 8 40 41 05 05 00 50 91 8f 
0.922400 1 2f1 Rx d 8 05 10 2a 81 34 00 01 00 
0.922700 1 4e2 Rx d 8 04 0e 40 81 03 50 00 00 
0.922900 1 243 Rx d 8 03 00 00 00 32 7a 36 00 
0.923100 1 25b Rx d 8 d3 c0 02 05 6a 86 30 15 
0.923400 1 359 Rx d 8 07 00 00 00 00 00 00 00 
0.924100 1 261 Rx d 8 31 00 aa 00 ed 49 ba c1 
0.924800 1 553 Rx d 8 00 00 00 00 00 00 50 a8 
0.926800 1 3c8 Rx d 8 05 00 00 00 00 00 00 00 
0.927600 1 142 Rx d 8 01 00 40 0a c0 1b 00 00 
0.927800 1 3ae Rx d 8 00 40 00 08 00 00 11 5a 
0.929600 1 552 Rx d 8 00 00 00 00 00 00 50 a7 
0.929800 1 38a Rx d 8 03 00 00 00 00 00 00 00 
0.930100 1 3a2 Rx d 8 01 10 20 00 09 f0 ff 00 
0.930600 1 132 Rx d 6 41 88 f8 ff 29 40 
0.930800 1 372 Rx d 8 06 0a cb 18 17 a3 cf 00 
0.931100 1 129 Rx d 8 a9 29 41 20 00 20 ff 3f 
0.931300 1 201 Rx d 8 82 02 00 00 00 00 98 3b 
0.931500 1 383 Rx d 8 a3 18 65 00 45 00 e1 27 
0.931800 1 401 Rx d 8 12 2a 90 80 96 80 92 80 
0.932100 1 2e1 Rx d 8 29 6a 44 a6 1f 28 00 00 
0.932900 1 263 Rx d 8 03 00 00 00 00 00 00 4f 
0.933000 1 2aa Rx d 3 2f 50 2b 
0.933200 1 2b3 Rx d 8 07 50 8e 50 7e af 02 00 
0.933500 1 3f5 Rx d 8 00 c8 4f 09 80 04 00 00 
0.933700 1 545 Rx d 8 01 00 00 00 00 10 00 5b 
0.936100 1 2c1 Rx d 8 03 17 13 00 00 00 00 00 
0.936500 1 422 Rx d 6 00 00 10 00 00 00 
0.936800 1 39a Rx d 8 fc fd fd fd 1d 27 0b 13 
0.937000 1 423 Rx d 7 f8 00 00 00 08 00 00 
0.938100 1 3a1 Rx d 8 2b 91 40 b1 3e 00 b0 5b 
0.938500 1 414 Rx d 8 10 00 00 00 00 20 20 20 
0.938700 1 666 Rx d 4 00 00 a0 00 
0.938900 1 788 Rx d 8 01 00 00 00 ff a1 d8 13 
0.939200 1 405 Rx d 8 10 00 00 00 00 4c 52 57 
0.939400 1 55a Rx d 8 05 00 00 00 00 00 00 00 
0.940100 1 261 Rx d 8 3a 2b 34 02 80 5c c2 2f 
0.940600 1 132 Rx d 6 49 88 f8 ff 29 40 
0.941000 1 129 Rx d 8 76 2a 41 20 00 20 ff 3f 
0.942000 1 39d Rx d 5 e3 5b c1 27 00 
0.942800 1 2c3 Rx d 8 00 00 c0 4b 01 00 80 cb 
0.943100 1 243 Rx d 8 04 9c f1 ff fd 7f 66 66 
0.943200 1 409 Rx d 1 00 
0.943600 1 2c2 Rx d 8 55 5b a9 06 00 00 12 a5 
0.943800 1 219 Rx d 7 02 80 ff ff ff fa 0f 
0.944100 1 234 Rx d 8 18 90 01 37 dd 04 40 9c 
0.944200 1 2d1 Rx d 2 7f 01 
0.944700 1 719 Rx d 8 ee 01 5f 00 00 5f 00 14 
0.944900 1 288 Rx d 8 03 16 54 8c 80 8c 61 f0 
0.946000 1 2c4 Rx d 8 14 00 00 00 00 00 00 00 
0.946200 1 204 Rx d 8 01 00 00 ff 00 00 00 10 
0.946600 1 262 Rx d 8 0b 00 d5 de 00 f0 d2 12 
0.946800 1 264 Rx d 6 38 00 00 00 a0 00 
0.947000 1 224 Rx d 8 04 08 00 48 19 01 10 08 
0.947200 1 2b4 Rx d 6 67 05 a5 0d ae 00 
0.947600 1 400 Rx d 7 00 e0 fb be ef fb 00 
0.948100 1 2e1 Rx d 8 02 6c 7f 02 3c 5e 00 00 
0.948400 1 381 Rx d 8 14 00 20 00 00 00 00 fe 
0.948700 1 743 Rx d 1 00 
0.949800 1 23e Rx d 8 f4 01 3a a8 fa fc 4f 5c 
0.950600 1 132 Rx d 6 47 88 f8 ff 27 40 
0.950800 1 2f9 Rx d 8 d0 fb 07 10 a1 ee 6f c9 
0.951100 1 129 Rx d 8 87 2b 41 20 00 20 ff 3f 
0.951300 1 2e3 Rx d 7 48 46 1b 00 00 00 00 
0.951500 1 401 Rx d 8 13 2a 94 80 93 80 92 80 
0.951700 1 798 Rx d 8 4e 05 00 00 00 00 50 4f 
0.952600 1 2e2 Rx d 8 f7 13 50 3f 6d 06 13 55 
0.952900 1 263 Rx d 8 04 00 00 00 60 10 00 00 
0.953100 1 3c2 Rx d 8 29 55 00 00 00 00 00 40 
0.953400 1 45a Rx d 8 fd 07 f8 ff 03 00 0b 00 
0.954100 1 441 Rx d 8 29 00 b6 c3 58 00 2d 90 
0.955100 1 421 Rx d 7 00 14 00 00 00 d0 48 
0.956100 1 261 Rx d 8 6b 4f 0a 00 00 40 d5 cf 
0.956300 1 201 Rx d 8 83 02 00 00 00 00 b8 3b 
0.956600 1 2c1 Rx d 8 04 00 10 0e 0d 11 08 10 
0.956800 1 443 Rx d 6 78 0d ff 03 00 00 
0.957000 1 2a8 Rx d 8 c2 10 00 00 06 00 90 12 
0.957300 1 677 Rx d 8 04 00 00 00 00 00 00 00 
0.957500 1 718 Rx d 7 04 00 00 00 00 00 00 
0.957700 1 3f9 Rx d 8 02 00 00 00 00 00 00 00 
0.958800 1 225 Rx d 4 05 45 d2 00 
0.959500 1 1fa Rx d 3 02 c0 01 
0.960600 1 132 Rx d 6 48 88 f9 ff 2c 40 
0.961000 1 129 Rx d 8 d4 2c 42 20 00 20 ff 3f 
0.962200 1 2d3 Rx d 8 65 00 b1 03 32 fd 36 79 
0.962500 1 293 Rx d 8 01 0c 15 90 55 14 5f 0f 
0.962700 1 3a2 Rx d 8 32 27 00 00 20 00 00 00 
0.962900 1 243 Rx d 8 00 fc cf 0c b1 02 41 29 
0.963200 1 3df Rx d 8 00 00 00 00 01 d0 00 1b 
0.963400 1 428 Rx d 7 00 00 10 10 00 00 00 
0.963800 1 285 Rx d 8 03 47 86 48 95 00 00 00 
0.964100 1 2e1 Rx d 8 fb 19 ed 29 9c e1 09 00 
0.964700 1 339 Rx d 8 01 41 02 00 00 02 40 02 
0.965000 1 283 Rx d 6 00 00 00 00 00 00 
0.966100 1 545 Rx d 8 02 00 10 00 00 00 10 6c 
0.966400 1 797 Rx d 4 14 09 50 08 
0.966600 1 242 Rx d 4 10 15 04 05 
0.967100 1 2a1 Rx d 6 00 00 98 3a 00 00 
0.967600 1 22b Rx d 8 ff ff ff cf ff ff ff 3f 
0.967800 1 3e9 Rx d 8 f1 80 02 00 00 00 f0 4f 
0.968000 1 3ae Rx d 8 00 40 00 08 00 00 21 6a 
0.970700 1 7aa Rx d 8 c0 eb 8e 3c 00 08 8c 29 
0.970900 1 132 Rx d 6 41 88 f8 ff 27 40 
0.971100 1 129 Rx d 8 c6 2d 42 20 00 20 ff 3f 
0.971300 1 320 Rx d 8 02 00 00 00 00 00 00 00 
0.971500 1 249 Rx d 4 5e 09 00 00 
0.971800 1 1f9 Rx d 8 00 00 00 00 00 00 00 00 
0.972000 1 3c0 Rx d 8 0a 00 10 00 00 00 00 00 
0.972200 1 221 Rx d 8 41 01 55 51 01 02 a0 ae 
0.972500 1 261 Rx d 8 a4 fe 17 4e 00 40 e4 21 
0.972700 1 3e8 Rx d 8 05 00 00 00 00 00 00 00 
0.972900 1 263 Rx d 8 00 d0 e7 89 d4 07 55 1f 
0.973200 1 39b Rx d 8 00 06 df e0 b0 48 31 8c 
0.973400 1 401 Rx d 8 14 2a 9b 80 9d 80 99 80 
0.973700 1 360 Rx d 8 0a 00 00 00 00 00 00 00 
0.974700 1 78a Rx d 8 01 00 06 00 01 00 00 00 
0.976100 1 2c1 Rx d 8 58 24 7e 00 00 8a 02 47 
0.976600 1 310 Rx d 8 0a 01 6d 10 04 00 87 00 
0.976800 1 103 Rx d 8 22 b3 48 04 92 2c 21 02 
0.977600 1 142 Rx d 8 28 00 02 5c 00 00 01 00 
0.978100 1 682 Rx d 8 00 00 00 40 05 02 50 77 
0.978400 1 2ec Rx d 3 2f 50 6d 
0.978600 1 119 Rx d 4 00 00 00 00 
0.980100 1 2e1 Rx d 8 04 00 00 80 48 44 26 00 
0.980600 1 102 Rx d 8 22 b3 48 04 8a 0c 21 08 
0.980800 1 132 Rx d 6 44 88 f8 ff 28 40 
0.981000 1 129 Rx d 8 19 2e 42 20 00 20 ff 3f 
0.981300 1 201 Rx d 8 08 ca 01 80 22 7b 31 05 
0.982100 1 39d Rx d 5 e4 5c c1 27 00 
0.982800 1 123 Rx d 8 01 00 00 00 00 3f 00 00 
0.983100 1 243 Rx d 8 01 fc 66 00 66 00 7c 7c 
0.984100 1 381 Rx d 8 d5 52 45 3f 3a 00 00 01 
0.984500 1 7a8 Rx d 8 01 00 00 00 ff a1 d8 13 
0.985600 1 439 Rx d 8 02 00 40 00 00 38 00 00 
0.987600 1 122 Rx d 8 00 00 12 92 12 00 00 00 
0.988100 1 261 Rx d 8 05 22 02 c9 9a 42 f0 b4 
0.988300 1 3a1 Rx d 8 68 42 0e 8a 00 29 c2 ed 
0.988500 1 113 Rx d 3 01 97 01 
0.988600 1 7f4 Rx d 1 01 
0.988800 1 7ff Rx d 8 06 84 32 00 00 00 08 c0 
0.989100 1 3a3 Rx d 8 00 d0 00 00 38 03 fc 01 
0.989300 1 318 Rx d 8 1a 08 00 02 19 09 35 96 
0.989500 1 23e Rx d 8 f4 01 3a a8 fa fc 5f 6c 
0.989600 1 419 Rx d 1 00 
0.989900 1 458 Rx d 7 00 00 00 00 40 00 00 
0.990000 1 22a Rx d 4 00 00 d9 15 
0.990500 1 228 Rx d 8 03 16 54 8c 80 8c 61 90 
0.990700 1 132 Rx d 6 43 88 f8 ff 27 40 
0.990900 1 20e Rx d 3 16 06 00 
0.991100 1 129 Rx d 8 e8 2f 42 20 00 20 ff 3f 
0.991400 1 372 Rx d 8 07 00 00 00 00 00 00 00 
0.991600 1 401 Rx d 8 15 2a 9c 80 99 80 a8 80 
0.992800 1 263 Rx d 8 01 d0 bf b1 8c c7 54 1f 
0.993100 1 2b3 Rx d 8 08 fa fc c9 14 8f a2 a2 
0.993800 1 234 Rx d 8 37 e1 03 80 43 00 54 cd 
0.994600 1 272 Rx d 8 06 00 fb e0 07 b0 07 08 
0.994800 1 719 Rx d 8 0c 72 0f 00 50 00 40 00 
0.995100 1 393 Rx d 8 06 00 fa d8 07 b0 07 08 
0.995600 1 3a2 Rx d 8 a0 85 72 f8 04 00 c5 6f 
0.996100 1 2e1 Rx d 8 45 00 00 00 0c f9 8c 6a 
0.996300 1 2c1 Rx d 8 21 1b 0d 0a 02 00 00 00 
0.996600 1 677 Rx d 8 00 00 00 00 00 00 00 00 
