date Mon Aug 24 05:50:40 PM 2026
base hex timestamps absolute
// version 7.0.0
0.000000 1 2aa Rx d 3 2f 40 1b 
0.000600 1 419 Rx d 1 00 
0.001400 1 20e Rx d 3 14 04 00 
0.001600 1 2e1 Rx d 8 45 80 00 00 38 12 8c 6a 
0.001900 1 2c1 Rx d 8 8b 16 13 00 00 00 00 00 
0.002300 1 677 Rx d 8 01 00 00 00 00 00 00 00 
0.002900 1 423 Rx d 7 00 00 00 00 08 00 00 
0.003400 1 39a Rx d 8 fd fd fd fd fd 01 00 02 
0.005100 1 3a1 Rx d 8 2b fa 40 61 3e 00 90 54 
0.005700 1 422 Rx d 6 70 00 10 00 00 00 
0.008300 1 788 Rx d 8 01 00 00 00 ff a1 98 12 
0.008500 1 2c3 Rx d 8 00 00 00 4b 01 00 80 cb 
0.008800 1 243 Rx d 8 04 cc f1 ff fd 7f 6b 6f 
0.009400 1 129 Rx d 8 ca 20 40 20 00 20 ff 3f 
0.009600 1 7e8 Rx d 8 0d c7 ab cd 3e 00 00 00 
0.009800 1 132 Rx d 6 59 88 f7 ff 27 40 
0.010000 1 261 Rx d 8 00 10 da ff d0 4c a0 9b 
0.010200 1 219 Rx d 7 05 00 6f 6f 6f 6f 00 
0.010400 1 2d1 Rx d 2 7f 01 
0.010600 1 293 Rx d 8 01 0c 15 90 55 14 3f ef 
0.010900 1 3df Rx d 8 00 00 00 00 01 d0 00 1b 
0.011100 1 401 Rx d 8 0e 2a b0 80 ac 80 aa 80 
0.011400 1 719 Rx d 8 0c 61 0f 00 50 00 20 00 
0.011700 1 285 Rx d 8 03 47 86 48 95 00 00 00 
0.012200 1 288 Rx d 8 03 16 54 8c 80 80 51 d4 
0.013400 1 2c2 Rx d 8 20 40 40 6a 01 00 00 cb 
0.014900 1 381 Rx d 8 cf 73 37 80 00 00 3b 06 
0.015900 1 39d Rx d 5 07 5f e1 27 00 
0.016800 1 420 Rx d 8 28 01 40 4b 00 00 80 05 
0.017400 1 2f9 Rx d 8 88 fb 07 28 00 00 00 00 
0.017700 1 2e1 Rx d 8 10 21 04 00 12 00 20 08 
0.018300 1 798 Rx d 8 18 22 08 56 a8 01 40 2d 
0.018600 1 263 Rx d 8 04 00 00 00 20 04 00 00 
0.018800 1 129 Rx d 8 dd 21 40 20 00 20 ff 3f 
0.019000 1 45a Rx d 8 fd 07 f8 ff 03 00 00 36 
0.019400 1 249 Rx d 4 13 0d 00 00 
0.019600 1 441 Rx d 8 2e 00 b6 c3 58 00 25 8d 
0.020400 1 132 Rx d 6 58 88 f7 ff 24 40 
0.021200 1 421 Rx d 7 00 14 00 00 00 d0 48 
0.021400 1 3a8 Rx d 8 04 60 03 7e 00 00 00 00 
0.021600 1 3c2 Rx d 8 29 55 00 00 00 00 00 80 
0.021900 1 201 Rx d 8 83 02 00 00 00 00 b8 3b 
0.022100 1 2bf Rx d 7 0a 00 00 00 00 10 00 
0.023700 1 2c1 Rx d 8 04 00 10 0e 0d 10 08 12 
0.023900 1 2a8 Rx d 8 02 10 00 00 06 00 80 42 
0.024200 1 3f9 Rx d 8 08 00 00 00 00 00 00 00 
0.025100 1 225 Rx d 4 05 45 d2 00 
0.025400 1 3a2 Rx d 8 01 10 20 00 0b f0 ff 00 
0.025600 1 23e Rx d 8 f4 01 3a b8 fa fc 8f ac 
0.025900 1 22b Rx d 8 ff ff ff ff ff ff ff ff 
0.026100 1 261 Rx d 8 31 00 94 ff 54 49 ba 11 
0.026900 1 545 Rx d 8 01 00 00 00 00 10 70 cb 
0.028000 1 20a Rx d 6 f6 15 09 82 18 01 
0.028300 1 1fa Rx d 3 22 c0 01 
0.028500 1 243 Rx d 8 00 fc cf 8c be 02 41 29 
0.029600 1 129 Rx d 8 94 22 40 20 00 20 ff 3f 
0.029800 1 132 Rx d 6 44 88 f8 ff 28 40 
0.030000 1 372 Rx d 8 05 46 3b 0d 00 00 00 00 
0.030200 1 401 Rx d 8 0f 2a a6 80 b6 80 bb 80 
0.030500 1 283 Rx d 6 00 00 00 00 00 00 
0.030900 1 428 Rx d 7 00 00 10 10 00 00 00 
0.031000 1 339 Rx d 8 01 71 02 00 00 02 40 02 
0.032300 1 409 Rx d 1 00 
0.032500 1 78a Rx d 8 01 00 00 00 22 13 13 0d 
0.033300 1 2a1 Rx d 6 00 00 98 3a 00 00 
0.033500 1 797 Rx d 4 14 09 40 f8 
0.035000 1 2e1 Rx d 8 29 ea 1f ad 1f 28 00 00 
0.035200 1 682 Rx d 8 00 00 00 40 05 02 40 67 
0.035800 1 242 Rx d 4 10 15 04 05 
0.036300 1 400 Rx d 7 00 e0 fb be ef fb 00 
0.037200 1 3c0 Rx d 8 00 00 00 00 00 00 00 00 
0.037500 1 3ae Rx d 8 00 40 00 08 00 00 10 59 
0.037900 1 221 Rx d 8 41 01 55 51 01 02 80 8e 
0.038300 1 1f9 Rx d 8 00 00 00 00 00 00 00 00 
0.038500 1 263 Rx d 8 00 d0 e7 89 d4 07 55 1f 
0.039400 1 129 Rx d 8 ea 23 40 20 ff 1f ff 3f 
0.039600 1 3e8 Rx d 8 06 00 00 00 00 00 00 00 
0.041400 1 132 Rx d 6 57 88 f7 ff 25 40 
0.041600 1 261 Rx d 8 a2 28 83 02 80 5c c2 e3 
0.041900 1 2c1 Rx d 8 48 3c 7e 00 00 8a 02 07 
0.042200 1 677 Rx d 8 02 00 00 00 00 00 00 00 
0.042400 1 360 Rx d 8 00 00 00 00 00 00 00 00 
0.043900 1 103 Rx d 8 22 b3 88 04 92 2c 21 02 
0.044800 1 234 Rx d 8 24 e1 03 80 43 00 34 9a 
0.045300 1 119 Rx d 4 00 00 00 00 
0.046200 1 2ec Rx d 3 2f 40 5d 
0.046400 1 142 Rx d 8 28 00 02 5f 00 00 01 00 
0.047400 1 201 Rx d 8 c8 c1 02 80 22 9b 41 05 
0.047600 1 7aa Rx d 8 0c 00 00 00 00 00 00 39 
0.047900 1 2a6 Rx d 8 00 00 6a 18 00 00 00 00 
0.048100 1 2a7 Rx d 8 00 00 00 00 00 74 05 84 
0.048400 1 2c7 Rx d 8 00 00 00 00 00 00 4d ff 
0.048600 1 123 Rx d 8 01 00 00 00 00 3f 00 00 
0.048900 1 129 Rx d 8 05 24 40 20 00 20 ff 3f 
0.049200 1 243 Rx d 8 01 fc 6b 00 6f 00 7c 7c 
0.049400 1 102 Rx d 8 22 b3 88 04 8c 0c 21 08 
0.049600 1 2e1 Rx d 8 02 6c 7f 02 41 66 00 00 
0.049900 1 132 Rx d 6 55 88 f7 ff 27 40 
0.050100 1 381 Rx d 8 10 64 41 1e 43 0c 01 60 
0.050400 1 401 Rx d 8 10 2a b3 80 aa 80 b3 80 
0.051200 1 31a Rx d 8 60 fc ff 02 00 00 a0 1a 
0.051400 1 113 Rx d 3 01 97 01 
0.051600 1 7a8 Rx d 8 01 00 00 00 ff a1 98 12 
0.051800 1 7f4 Rx d 1 01 
0.052000 1 7ff Rx d 8 06 84 32 00 00 00 08 c0 
0.052300 1 318 Rx d 8 1a 08 26 09 18 32 33 e9 
0.052500 1 439 Rx d 8 02 00 40 00 00 38 00 00 
0.053400 1 458 Rx d 7 00 00 00 00 40 00 00 
0.054300 1 3a1 Rx d 8 e8 42 0d 8a 01 08 a2 2c 
0.054800 1 3a3 Rx d 8 00 e0 00 00 38 03 fc 01 
0.055000 1 319 Rx d 8 0d 00 00 00 6c 8b 23 ac 
0.056200 1 39d Rx d 5 f8 50 e1 27 00 
0.057400 1 122 Rx d 8 00 00 12 92 12 00 00 00 
0.057600 1 3ae Rx d 8 00 40 00 08 00 00 21 6a 
0.057800 1 228 Rx d 8 03 16 54 8c 80 80 51 74 
0.058100 1 261 Rx d 8 d3 4a 0a 00 00 40 d5 32 
0.058300 1 21d Rx d 8 04 00 35 00 00 00 00 00 
0.058500 1 25d Rx d 8 36 41 01 16 04 f0 d8 03 
0.058800 1 129 Rx d 8 bf 25 40 20 01 20 ff 3f 
0.059000 1 263 Rx d 8 01 d0 c7 b1 8c c7 54 1f 
0.059200 1 27d Rx d 8 00 00 00 00 00 00 00 00 
0.059500 1 29d Rx d 5 00 00 00 20 00 
0.059700 1 2b3 Rx d 8 0c 00 e0 80 48 4a 53 00 
0.059800 1 132 Rx d 6 59 88 f8 ff 25 40 
0.060100 1 2bd Rx d 4 00 00 00 00 
0.060300 1 3a2 Rx d 8 72 2a 00 00 20 00 00 00 
0.060500 1 393 Rx d 8 09 80 63 00 00 00 00 00 
0.060700 1 253 Rx d 8 00 64 34 85 64 62 00 15 
0.060800 1 213 Rx d 2 a8 bd 
0.061000 1 41d Rx d 1 00 
0.061200 1 3db Rx d 8 04 00 00 d4 05 00 00 00 
0.061500 1 42a Rx d 8 f9 6b fe 9a bf e6 af 55 
0.061700 1 2c1 Rx d 8 21 23 2b fa 02 00 00 00 
0.062000 1 285 Rx d 8 04 53 93 47 8b 00 00 00 
0.062200 1 43b Rx d 8 03 7f 00 ff 00 00 00 00 
0.062400 1 43d Rx d 6 00 00 ff 1f 40 00 
0.062600 1 49d Rx d 7 00 00 00 00 00 00 00 
0.062800 1 4f3 Rx d 4 00 00 00 00 
0.063100 1 545 Rx d 8 02 00 0a 00 00 00 80 d6 
0.063300 1 719 Rx d 8 0d 00 00 00 00 00 00 00 
0.063500 1 272 Rx d 8 09 80 63 00 00 00 00 00 
0.063800 1 752 Rx d 8 05 59 7b ae 01 00 f9 00 
0.065100 1 7b8 Rx d 8 30 a2 08 73 28 02 40 d1 
0.065400 1 23e Rx d 8 f4 01 3a b8 fa fc 9f bc 
0.065600 1 340 Rx d 8 00 00 00 00 00 00 00 00 
0.066300 1 2e1 Rx d 8 fb 19 4c 69 92 46 09 00 
0.066700 1 20c Rx d 8 00 c0 56 1e 00 30 09 00 
0.067000 1 2d2 Rx d 8 70 29 a4 4e 00 00 a1 01 
0.067200 1 212 Rx d 8 58 04 00 00 82 ff 77 62 
0.067400 1 252 Rx d 8 00 00 80 06 00 c8 16 00 
0.067600 1 292 Rx d 8 2e ee 98 24 8c 01 00 00 
0.067800 1 2f2 Rx d 2 12 01 
0.068000 1 352 Rx d 8 02 54 05 53 05 48 a0 42 
0.068300 1 379 Rx d 8 06 00 2e 50 d2 01 00 00 
0.068500 1 712 Rx d 8 02 2a d4 0d e8 0d 95 0d 
0.068700 1 243 Rx d 8 02 c8 99 12 00 48 00 00 
0.069000 1 129 Rx d 8 65 26 40 20 01 20 ff 3f 
0.069100 1 45a Rx d 8 20 4b 4b cb 3f 49 00 6b 
0.069300 1 229 Rx d 3 44 01 00 
0.069500 1 249 Rx d 4 af 0e 00 00 
0.069800 1 2e8 Rx d 8 02 10 00 00 06 00 80 82 
0.070000 1 441 Rx d 8 13 85 89 00 32 00 28 e4 
0.070200 1 132 Rx d 6 5a 88 f7 ff 27 40 
0.070400 1 401 Rx d 8 11 2a b1 80 ad 80 a1 80 
0.070700 1 282 Rx d 8 00 00 00 00 e8 33 0b 24 
0.070900 1 54f Rx d 8 00 00 00 00 00 00 00 00 
0.071200 1 25b Rx d 8 d3 c0 02 05 6a 86 60 45 
0.071400 1 40a Rx d 8 01 00 01 00 00 00 a0 b0 
0.071700 1 201 Rx d 8 01 04 18 01 01 00 80 c4 
0.072300 1 3c2 Rx d 8 00 55 55 55 00 00 59 45 
0.073400 1 4e3 Rx d 8 04 00 00 00 00 00 00 00 
0.073600 1 261 Rx d 8 4c ff 37 49 00 40 e4 e5 
0.074700 1 709 Rx d 8 1f 00 00 00 00 00 00 00 
0.075400 1 139 Rx d 1 00 
0.075600 1 448 Rx d 7 00 00 10 10 00 00 00 
0.076400 1 22b Rx d 8 ff ff ff ff ff ff ff ff 
0.076800 1 241 Rx d 7 37 32 0c 0f 8f 55 00 
0.077100 1 22a Rx d 4 00 00 d9 15 
0.078300 1 1f8 Rx d 4 00 00 00 00 
0.078500 1 343 Rx d 8 00 92 5c 8e 95 00 00 00 
0.078800 1 263 Rx d 8 02 00 00 00 00 00 00 00 
0.079500 1 129 Rx d 8 df 27 40 20 00 20 ff 3f 
0.081400 1 132 Rx d 6 68 88 f7 ff 24 40 
0.081600 1 2e1 Rx d 8 04 00 00 80 48 34 26 00 
0.081900 1 2c1 Rx d 8 02 0d 06 05 00 d0 92 c1 
0.082100 1 37a Rx d 8 d2 00 00 00 00 00 00 00 
0.084100 1 677 Rx d 8 03 00 00 00 00 00 00 00 
0.084300 1 289 Rx d 8 a8 02 01 40 8c 00 3d 0f 
0.085400 1 3c3 Rx d 8 55 55 55 01 00 80 43 00 
0.087400 1 381 Rx d 8 11 33 4b 00 23 c0 07 a0 
0.087600 1 2f1 Rx d 8 10 01 00 00 00 00 00 00 
0.087800 1 221 Rx d 8 40 41 05 05 00 50 91 8f 
0.088300 1 789 Rx d 4 54 11 50 b7 
0.088500 1 243 Rx d 8 03 00 00 80 11 4c 08 00 
0.088900 1 129 Rx d 8 08 28 40 20 00 20 ff 3f 
0.089400 1 359 Rx d 8 0f 00 00 00 00 00 00 00 
0.089600 1 261 Rx d 8 05 22 f1 c7 9a 42 f0 a1 
0.089800 1 132 Rx d 6 5f 88 f7 ff 28 40 
0.090100 1 372 Rx d 8 06 45 d3 1a 54 a3 0f 02 
0.090300 1 401 Rx d 8 12 2a a1 80 a9 80 a5 80 
0.091200 1 553 Rx d 8 00 00 00 00 00 00 50 a8 
0.091400 1 4e2 Rx d 8 04 0c a0 80 08 78 00 00 
0.091600 1 3a2 Rx d 8 60 85 f2 aa 04 80 c0 73 
0.091900 1 545 Rx d 8 40 01 27 10 95 45 99 35 
0.093700 1 39b Rx d 8 00 06 df e0 b0 48 f1 4c 
0.094000 1 3c8 Rx d 8 00 00 00 00 00 00 00 00 
0.094900 1 234 Rx d 8 1b b0 01 24 91 04 40 60 
0.095900 1 39d Rx d 5 f9 51 e1 27 00 
0.096100 1 38a Rx d 8 00 00 00 00 00 00 00 00 
0.096300 1 2c4 Rx d 8 0b 40 00 00 3b 47 01 00 
0.096600 1 142 Rx d 8 01 00 40 0a c0 1b 00 00 
0.096800 1 201 Rx d 8 82 02 00 00 00 00 98 3b 
0.097100 1 204 Rx d 8 01 00 00 ff 00 00 00 10 
0.097300 1 383 Rx d 8 b1 18 49 00 55 e0 c0 0b 
0.097500 1 3ae Rx d 8 00 40 00 08 00 00 31 7a 
0.097800 1 264 Rx d 6 39 00 00 00 a0 00 
0.098100 1 2e1 Rx d 8 45 80 00 00 38 12 8c 6a 
0.098400 1 224 Rx d 8 04 08 00 48 19 01 10 08 
0.098600 1 263 Rx d 8 03 00 00 00 00 00 00 ff 
0.098800 1 129 Rx d 8 34 29 40 20 ff 1f ff 3f 
0.099000 1 2b4 Rx d 6 12 05 a6 0d d5 00 
0.099200 1 3f5 Rx d 8 00 00 c4 08 80 04 00 00 
0.099400 1 419 Rx d 1 00 
0.099600 1 552 Rx d 8 00 00 00 00 00 00 50 a7 
0.099700 1 132 Rx d 6 5a 88 f8 ff 29 40 
0.100600 1 2aa Rx d 3 2f 50 2b 
0.101400 1 20e Rx d 3 15 05 00 
0.102200 1 2c1 Rx d 8 8b 16 13 00 00 00 00 00 
0.102500 1 414 Rx d 8 11 20 20 20 20 20 20 20 
0.102700 1 423 Rx d 7 00 00 00 00 08 00 00 
0.103000 1 55a Rx d 8 05 00 00 00 00 00 00 00 
0.103100 1 39a Rx d 8 f4 02 df 42 ff fd fd 11 
0.103400 1 666 Rx d 4 00 00 a0 00 
0.103600 1 405 Rx d 8 11 33 45 37 46 41 35 4d 
0.103800 1 3a1 Rx d 8 2b fa 40 6d 3e 00 b0 80 
0.105100 1 407 Rx d 8 18 0d 00 00 00 00 00 00 
0.105300 1 422 Rx d 6 70 00 10 00 00 00 
0.105600 1 23e Rx d 8 f4 01 3a b8 fa fc af cc 
0.105800 1 261 Rx d 8 00 10 d9 ff d0 4c 00 fa 
0.108300 1 788 Rx d 8 02 40 d0 07 00 00 00 00 
0.108500 1 2c3 Rx d 8 55 a3 a8 b6 02 00 12 a5 
0.108800 1 243 Rx d 8 04 cc f1 ff fd 7f 6b 6f 
0.109300 1 129 Rx d 8 2f 2a 40 20 01 20 ff 3f 
0.109500 1 2d1 Rx d 2 7f 01 
0.109800 1 132 Rx d 6 53 88 f7 ff 27 40 
0.110000 1 401 Rx d 8 13 2a a5 80 a4 80 a3 80 
0.110300 1 219 Rx d 7 00 80 ff ff ff f8 0f 
0.110500 1 473 Rx d 8 00 00 03 00 00 00 00 00 
0.110700 1 324 Rx d 8 ee e1 2d 33 a0 01 00 00 
0.110900 1 3b3 Rx d 8 8c 80 04 30 01 00 a8 80 
0.111100 1 5f3 Rx d 3 36 4c 09 
0.111400 1 719 Rx d 8 53 00 10 00 00 00 00 00 
0.111800 1 253 Rx d 8 01 64 34 85 64 62 00 15 
0.112100 1 288 Rx d 8 03 16 54 8c 80 80 61 e4 
0.113400 1 2c2 Rx d 8 55 63 a8 46 01 00 1a a5 
0.114200 1 2e1 Rx d 8 10 21 04 00 12 00 20 08 
0.115200 1 743 Rx d 1 00 
0.115900 1 262 Rx d 8 0b 00 d5 de 00 f0 d2 12 
0.116300 1 420 Rx d 8 28 01 40 4b 00 00 00 06 
0.116800 1 2e3 Rx d 7 03 00 00 dc 02 0b 00 
0.117700 1 2f9 Rx d 8 88 fb 07 03 a1 ee 6f c9 
0.118300 1 798 Rx d 8 49 f6 02 42 08 01 50 88 
0.118600 1 263 Rx d 8 04 00 00 00 20 04 00 00 
0.118800 1 129 Rx d 8 73 2b 40 20 00 20 ff 3f 
0.119000 1 2b3 Rx d 8 0d 05 a0 94 6e 42 45 a2 
0.119200 1 249 Rx d 4 ce 0f 00 00 
0.119400 1 45a Rx d 8 fd 07 f8 ff 03 00 00 36 
0.119600 1 441 Rx d 8 2e 00 b6 c3 58 00 2d 95 
0.120400 1 132 Rx d 6 56 88 f7 ff 25 40 
0.121200 1 421 Rx d 7 00 14 00 00 00 d0 48 
0.121400 1 2e2 Rx d 8 f8 2d 00 00 00 00 00 00 
0.121700 1 3c2 Rx d 8 29 55 00 00 00 00 00 80 
0.121900 1 201 Rx d 8 83 02 00 00 00 00 b8 3b 
0.122100 1 261 Rx d 8 31 00 a1 ff 55 49 1a 7f 
0.122400 1 2c1 Rx d 8 04 00 10 0e 0d 10 08 12 
0.122600 1 381 Rx d 8 72 00 32 36 00 40 17 01 
0.122800 1 443 Rx d 6 78 0d ff 03 00 00 
0.123100 1 677 Rx d 8 04 00 00 00 00 00 00 00 
0.123700 1 718 Rx d 7 04 00 00 00 00 00 00 
0.123900 1 2a8 Rx d 8 02 10 00 00 06 00 90 52 
0.124200 1 3f9 Rx d 8 00 00 00 00 00 00 00 00 
0.124300 1 3a2 Rx d 8 01 10 20 00 0b f0 ff 00 
0.124600 1 225 Rx d 4 05 45 d2 00 
0.125600 1 545 Rx d 8 01 00 00 00 00 10 a0 fb 
0.127700 1 22b Rx d 8 ff ff ff ff ff ff ff ff 
0.128000 1 7aa Rx d 8 c0 eb 8e 3c 00 08 8c 29 
0.128300 1 1fa Rx d 3 22 c0 01 
0.128500 1 243 Rx d 8 00 fc cf 8c be 02 41 29 
0.129500 1 129 Rx d 8 7a 2c 40 20 ff 1f ff 3f 
0.129700 1 2e1 Rx d 8 29 ea 1f ad 1f 28 00 00 
0.129900 1 132 Rx d 6 58 88 f6 ff 23 40 
0.130200 1 320 Rx d 8 02 00 00 00 00 00 00 00 
0.130400 1 401 Rx d 8 14 2a ae 80 ad 80 aa 80 
0.130600 1 283 Rx d 6 00 00 00 00 00 00 
0.130800 1 428 Rx d 7 00 00 10 10 00 00 00 
0.131100 1 3e9 Rx d 8 f1 80 02 00 00 00 f0 4f 
0.131200 1 339 Rx d 8 01 71 02 00 00 02 40 02 
0.132300 1 409 Rx d 1 00 
0.132500 1 78a Rx d 8 01 00 01 00 e4 5d 90 5d 
0.133300 1 2a1 Rx d 6 00 00 98 3a 00 00 
0.134900 1 797 Rx d 4 14 09 50 08 
0.135100 1 39d Rx d 5 fa 52 e1 27 00 
0.135300 1 682 Rx d 8 00 00 00 40 05 02 50 77 
0.135900 1 242 Rx d 4 10 15 04 05 
0.136300 1 400 Rx d 7 00 e0 fb be ef fb 00 
0.136500 1 3c0 Rx d 8 01 00 00 00 00 00 00 01 
0.137400 1 3ae Rx d 8 00 40 00 08 00 00 41 8a 
0.137600 1 261 Rx d 8 a2 28 83 02 80 5c 22 43 
0.137900 1 221 Rx d 8 41 01 55 51 01 02 a0 ae 
0.138300 1 1f9 Rx d 8 00 00 00 00 00 00 00 00 
0.138600 1 263 Rx d 8 00 d0 e7 89 d4 07 55 1f 
0.139400 1 129 Rx d 8 ac 2d 40 20 01 20 ff 3f 
0.139600 1 3e8 Rx d 8 00 00 00 00 00 00 00 00 
0.141400 1 132 Rx d 6 5b 88 f7 ff 27 40 
0.142200 1 2c1 Rx d 8 48 3c 7e 00 00 8a 02 07 
0.142400 1 360 Rx d 8 01 00 00 00 00 00 00 00 
0.143900 1 103 Rx d 8 22 b3 88 04 92 2c 21 02 
0.144800 1 234 Rx d 8 24 e1 03 80 43 00 54 ba 
0.145100 1 119 Rx d 4 00 00 00 00 
0.145400 1 23e Rx d 8 f4 01 3a b8 fa fc bf dc 
0.145600 1 2e1 Rx d 8 02 6c 7f 02 41 66 00 00 
0.146200 1 2ec Rx d 3 2f 50 6d 
0.146400 1 142 Rx d 8 28 00 02 5f 00 00 01 00 
0.147400 1 201 Rx d 8 b8 d1 02 80 22 9b 41 05 
0.147700 1 2c7 Rx d 8 00 00 00 00 00 00 4d ff 
0.147900 1 2a6 Rx d 8 00 00 6a 18 00 00 00 00 
0.148300 1 2a7 Rx d 8 00 00 00 00 00 74 05 84 
0.148500 1 123 Rx d 8 00 00 12 92 d2 00 00 80 
0.148800 1 243 Rx d 8 01 fc 6b 00 6f 00 7c 7c 
0.149200 1 129 Rx d 8 73 2e 40 20 01 20 ff 3f 
0.149500 1 102 Rx d 8 22 b3 88 04 8c 0c 21 08 
0.149800 1 132 Rx d 6 59 88 f7 ff 25 40 
0.150000 1 372 Rx d 8 07 00 00 00 00 00 00 00 
0.151200 1 401 Rx d 8 15 2a ae 80 aa 80 b9 80 
0.151400 1 113 Rx d 3 01 97 01 
0.151600 1 7a8 Rx d 8 02 40 d6 07 00 07 00 00 
0.151800 1 7f4 Rx d 1 01 
0.152000 1 7ff Rx d 8 07 20 80 44 40 00 02 20 
0.152300 1 318 Rx d 8 1a 08 26 09 18 32 35 eb 
0.152500 1 439 Rx d 8 02 00 40 00 00 38 00 00 
0.153400 1 458 Rx d 7 00 00 00 00 40 00 00 
0.153600 1 261 Rx d 8 d3 4a 0a 00 00 40 35 92 
0.154300 1 3a1 Rx d 8 e8 42 0d 8a 01 08 c2 4c 
0.156200 1 3a3 Rx d 8 00 e0 00 00 38 03 fc 01 
0.157100 1 122 Rx d 8 01 00 00 00 00 3f 00 00 
0.157400 1 3a2 Rx d 8 82 2a 00 00 20 00 00 00 
0.157600 1 228 Rx d 8 03 16 54 8c 80 80 61 84 
0.157700 1 381 Rx d 8 13 00 00 00 00 00 00 ff 
0.158000 1 41d Rx d 1 00 
0.158200 1 21d Rx d 8 04 00 35 00 00 00 00 00 
0.158400 1 43d Rx d 6 00 00 ff 1f 40 00 
0.158700 1 25d Rx d 8 36 41 01 16 04 f0 d8 03 
0.158900 1 129 Rx d 8 2f 2f 40 20 00 20 ff 3f 
0.159100 1 263 Rx d 8 01 d0 c7 b1 8c c7 54 1f 
0.159300 1 27d Rx d 8 00 00 00 00 00 00 00 00 
0.159600 1 29d Rx d 5 00 00 00 20 00 
0.159800 1 545 Rx d 8 02 00 0a 00 00 00 b0 06 
0.159900 1 132 Rx d 6 59 88 f8 ff 28 40 
0.160200 1 2bd Rx d 4 00 00 00 00 
0.160400 1 49d Rx d 7 00 00 00 00 00 00 00 
0.160600 1 393 Rx d 8 06 00 ee 70 07 b0 07 08 
0.160800 1 4f Rx d 8 12 93 5c 21 9a 5b 67 16 
0.161000 1 333 Rx d 5 04 10 e8 07 00 
0.161200 1 334 Rx d 8 bf 3f 0a 04 ff 01 31 74 
0.161500 1 3bc Rx d 4 00 00 00 00 
0.161700 1 2c1 Rx d 8 21 23 2b fa 02 00 00 00 
0.161900 1 2e1 Rx d 8 fb 19 4f 69 92 47 09 00 
0.162200 1 3fd Rx d 8 00 00 00 3c 20 00 01 80 
0.162400 1 677 Rx d 8 00 00 00 00 00 00 00 00 
0.162700 1 719 Rx d 8 03 00 00 00 00 00 00 00 
0.163200 1 75d Rx d 8 05 00 00 00 00 00 88 04 
0.163400 1 272 Rx d 8 06 00 ef 78 07 b0 07 08 
0.165400 1 7b8 Rx d 8 41 f6 02 84 04 00 50 2b 
0.166300 1 340 Rx d 8 01 00 00 00 00 00 00 00 
0.166800 1 20c Rx d 8 00 c0 56 1e 00 30 09 00 
0.167000 1 2d2 Rx d 8 6f 29 a4 4e 00 00 a1 01 
0.167200 1 212 Rx d 8 58 04 00 00 82 ff 77 62 
0.167500 1 252 Rx d 8 00 00 80 06 00 c8 16 00 
0.167600 1 292 Rx d 8 2e ee 98 24 8c 01 00 00 
0.167800 1 2f2 Rx d 2 12 01 
0.168100 1 712 Rx d 8 03 2a e9 0d bd 0d fb 0d 
0.168300 1 379 Rx d 8 07 40 bf 0d 0d a0 13 06 
0.168500 1 243 Rx d 8 02 c8 99 12 00 48 00 00 
0.168800 1 45a Rx d 8 20 4b 4b cb 3f 49 00 6b 
0.168900 1 129 Rx d 8 a3 20 40 20 ff 1f ff 3f 
0.169100 1 229 Rx d 3 52 02 00 
0.169400 1 249 Rx d 4 9b 00 00 00 
0.169600 1 54f Rx d 8 00 00 00 00 00 00 00 00 
0.169800 1 261 Rx d 8 4c ff 37 49 00 40 44 45 
0.170000 1 132 Rx d 6 52 88 f7 ff 29 40 
0.170300 1 2e8 Rx d 8 02 10 00 00 06 00 90 92 
0.170500 1 282 Rx d 8 00 00 00 00 e8 33 0b 24 
0.170700 1 401 Rx d 8 16 2a b4 80 b0 80 a4 80 
0.171000 1 441 Rx d 8 13 85 89 00 32 00 30 ec 
0.171200 1 25b Rx d 8 d3 c0 02 05 6a 86 70 55 
0.171400 1 3e2 Rx d 7 00 00 80 da 3f c0 04 
0.171700 1 3c2 Rx d 8 00 55 55 55 00 00 59 45 
0.172300 1 201 Rx d 8 01 04 18 01 01 00 80 c4 
0.174700 1 4e3 Rx d 8 d5 07 6b 51 00 0a 00 00 
0.174900 1 139 Rx d 1 00 
0.175400 1 39d Rx d 5 fb 53 e1 27 00 
0.175700 1 448 Rx d 7 00 00 10 10 00 00 00 
0.175900 1 6e8 Rx d 8 4c 62 00 12 04 00 00 00 
0.176400 1 22b Rx d 8 ff ff ff ff ff ff ff ff 
0.176600 1 3ae Rx d 8 00 40 00 08 00 00 51 9a 
0.176800 1 241 Rx d 7 35 32 4c 0f 8f 55 00 
0.177100 1 22a Rx d 4 00 00 d9 15 
0.177400 1 1f8 Rx d 4 00 00 00 00 
0.178300 1 2e1 Rx d 8 04 00 00 80 48 34 26 00 
0.178500 1 343 Rx d 8 00 92 5c 8e 95 00 00 00 
0.178800 1 263 Rx d 8 02 00 00 00 00 00 00 00 
0.179000 1 129 Rx d 8 70 21 40 20 01 20 ff 3f 
0.179500 1 2b3 Rx d 8 ae 55 00 fc bf 3f 19 50 
0.181400 1 132 Rx d 6 59 88 f7 ff 28 40 
0.181800 1 2c1 Rx d 8 02 0d 06 05 00 d0 92 c1 
0.184100 1 37a Rx d 8 7b 00 00 00 00 00 00 00 
0.184400 1 289 Rx d 8 a8 02 01 00 8a 00 3d 0f 
0.184500 1 3c3 Rx d 8 00 00 00 00 00 45 00 00 
0.185300 1 3e3 Rx d 4 00 00 00 00 
0.185500 1 23e Rx d 8 f4 01 3a b8 fa fc cf ec 
0.187400 1 261 Rx d 8 05 22 f1 c7 9a 42 50 01 
0.187600 1 2f1 Rx d 8 11 48 00 42 00 e2 0f 00 
0.187800 1 221 Rx d 8 40 41 05 05 00 50 b1 af 
0.188300 1 789 Rx d 4 54 11 60 c7 
0.188500 1 243 Rx d 8 03 00 00 80 11 4c 08 00 
0.188900 1 129 Rx d 8 fd 22 40 20 ff 1f ff 3f 
0.189500 1 359 Rx d 8 10 57 59 8b e7 31 2e 82 
0.189800 1 132 Rx d 6 65 88 f7 ff 25 40 
0.190200 1 401 Rx d 8 17 2a a1 80 a3 80 ad 80 
0.190400 1 3a2 Rx d 8 60 85 f2 aa 04 80 c0 73 
0.190700 1 553 Rx d 8 00 00 00 00 00 00 60 b8 
0.191200 1 545 Rx d 8 40 01 27 d0 94 45 c9 24 
0.193400 1 4e2 Rx d 8 45 03 66 41 03 08 00 00 
0.193600 1 2e1 Rx d 8 45 80 00 00 38 12 8c 6a 
0.193900 1 381 Rx d 8 14 00 20 00 00 00 00 fe 
0.194100 1 234 Rx d 8 1b b0 01 24 91 04 60 80 
0.195900 1 3c8 Rx d 8 01 00 00 00 00 00 00 00 
0.196100 1 38a Rx d 8 01 00 00 00 00 00 00 00 
0.196300 1 2c4 Rx d 8 0c 00 00 00 d8 48 01 00 
0.196600 1 142 Rx d 8 01 00 40 0a c0 1b 00 00 
0.196800 1 201 Rx d 8 82 02 00 00 00 00 98 3b 
0.197100 1 204 Rx d 8 01 00 00 ff 00 00 00 10 
0.197400 1 383 Rx d 8 b1 18 49 00 55 e0 c0 0b 
0.198100 1 264 Rx d 6 39 00 00 00 a0 00 
0.198300 1 224 Rx d 8 04 08 00 48 19 01 10 08 
0.198600 1 263 Rx d 8 03 00 00 00 00 00 00 ff 
0.198800 1 129 Rx d 8 2e 23 40 20 01 20 ff 3f 
0.199000 1 2b4 Rx d 6 14 05 a6 0d d4 00 
0.199300 1 3f5 Rx d 8 00 00 c4 08 80 04 00 00 
0.199400 1 552 Rx d 8 00 00 00 00 00 00 60 b7 
0.199600 1 419 Rx d 1 00 
0.199700 1 132 Rx d 6 4e 88 f7 ff 27 40 
0.200600 1 2aa Rx d 3 2f 60 3b 
0.201400 1 20e Rx d 3 16 06 00 
0.201700 1 261 Rx d 8 00 10 d9 ff d0 4c 60 5a 
0.201900 1 2c1 Rx d 8 8b 16 13 00 00 00 00 00 
0.202300 1 677 Rx d 8 01 00 00 00 00 00 00 00 
0.202900 1 423 Rx d 7 00 00 00 00 08 00 00 
0.203100 1 39a Rx d 8 fd fd fd fd fd 01 00 02 
0.203400 1 3c9 Rx d 8 04 98 00 05 01 01 00 00 
0.205100 1 3a1 Rx d 8 2b fa 40 6d 3e 00 d0 a0 
0.205700 1 422 Rx d 6 70 00 10 00 00 00 
0.207300 1 788 Rx d 8 a8 bc 71 63 00 00 80 00 
0.208300 1 7aa Rx d 8 01 a4 0d a5 0d 01 00 2e 
0.208500 1 2c3 Rx d 8 00 00 00 4b 01 00 80 cb 
0.208800 1 243 Rx d 8 04 cc f1 ff fd 7f 6b 6f 
0.209300 1 129 Rx d 8 05 24 40 20 00 20 ff 3f 
0.209600 1 2d1 Rx d 2 7f 01 
0.209800 1 2e1 Rx d 8 10 21 04 00 12 00 20 08 
0.210000 1 132 Rx d 6 55 88 f7 ff 25 40 
0.210200 1 219 Rx d 7 01 80 ff ff ff f9 0f 
0.210500 1 372 Rx d 8 08 00 00 00 00 00 00 00 
0.210600 1 2f3 Rx d 8 0e 0e 0b 00 00 20 00 00 
0.210900 1 3bb Rx d 3 14 0f 14 
0.211100 1 33a Rx d 8 85 34 53 ab fd ff 03 45 
0.211300 1 401 Rx d 8 18 2a b0 80 a9 80 ac 80 
0.211600 1 273 Rx d 8 81 e1 10 00 c4 00 10 01 
0.211800 1 3fd Rx d 8 01 00 02 00 00 08 12 80 
0.212100 1 288 Rx d 8 03 16 54 8c 80 80 71 f4 
0.212300 1 719 Rx d 8 14 00 00 00 00 79 00 00 
0.214900 1 2c2 Rx d 8 20 40 40 6a 01 00 00 cb 
0.215900 1 39d Rx d 5 fc 54 e1 27 00 
0.216800 1 420 Rx d 8 28 01 40 4b 00 00 80 06 
0.217400 1 2f9 Rx d 8 88 fb 07 08 a1 ee 6f c9 
0.217600 1 3ae Rx d 8 00 40 00 08 00 00 61 aa 
0.217800 1 261 Rx d 8 31 00 99 ff 55 49 7a d7 
0.218300 1 798 Rx d 8 22 e3 76 3c 0c 01 60 d0 
0.218600 1 263 Rx d 8 04 00 00 00 20 00 00 00 
0.218800 1 129 Rx d 8 7b 25 40 20 ff 1f ff 3f 
0.219000 1 45a Rx d 8 fd 07 f8 ff 03 00 00 33 
0.219400 1 249 Rx d 4 e8 01 00 00 
0.219600 1 441 Rx d 8 2e 00 b6 c3 58 00 35 9d 
0.220400 1 132 Rx d 6 58 88 f7 ff 27 40 
0.221200 1 421 Rx d 7 00 14 00 00 00 d0 48 
0.221400 1 3a8 Rx d 8 00 ff 00 7f 00 00 00 00 
0.221700 1 3c2 Rx d 8 29 55 00 00 00 00 00 80 
0.221900 1 201 Rx d 8 83 02 00 00 00 00 b8 3b 
0.222100 1 2bf Rx d 7 0a 00 00 00 00 10 00 
0.222300 1 2c1 Rx d 8 04 00 10 0e 0d 10 08 12 
0.223200 1 361 Rx d 5 34 0d 20 03 01 
0.223400 1 3a2 Rx d 8 01 10 20 00 09 f0 ff 00 
0.223700 1 545 Rx d 8 01 00 00 00 00 10 d0 2b 
0.224000 1 2a8 Rx d 8 02 10 00 00 06 00 a0 62 
0.224200 1 3f9 Rx d 8 01 00 00 00 00 00 00 00 
0.225200 1 225 Rx d 4 05 45 d2 00 
0.225500 1 23e Rx d 8 f4 01 3a b8 fa fc df fc 
0.226600 1 2e1 Rx d 8 29 ea 1f ad 1f 28 00 00 
0.228100 1 22b Rx d 8 ff ff ff ff ff ff ff ff 
0.228300 1 1fa Rx d 3 22 c0 01 
0.228500 1 243 Rx d 8 00 fc cf 8c be 02 41 29 
0.229400 1 129 Rx d 8 c8 26 40 20 00 20 ff 3f 
0.229600 1 381 Rx d 8 d5 72 4b 35 59 00 00 01 
0.229900 1 132 Rx d 6 5f 88 f7 ff 25 40 
0.230100 1 401 Rx d 8 19 2a b0 80 b3 80 bb 80 
0.230300 1 428 Rx d 7 00 00 10 10 00 00 00 
0.230900 1 283 Rx d 6 00 00 00 00 00 00 
0.231900 1 339 Rx d 8 01 71 02 00 00 02 40 02 
0.232300 1 409 Rx d 1 00 
0.232500 1 3aa Rx d 8 00 00 00 00 00 00 00 00 
0.232700 1 2a1 Rx d 6 00 00 98 3a 00 00 
0.233000 1 77a Rx d 8 00 e6 1d 00 ee 0c 5f 61 
0.233300 1 78a Rx d 8 01 00 02 00 67 06 65 06 
0.233500 1 797 Rx d 4 14 09 60 18 
0.235000 1 261 Rx d 8 a2 28 83 02 80 5c 82 a3 
0.235200 1 682 Rx d 8 00 00 00 40 05 02 60 87 
0.235800 1 242 Rx d 4 10 15 04 05 
0.236300 1 400 Rx d 7 00 e0 fb be ef fb 00 
0.237400 1 3c0 Rx d 8 02 00 00 00 00 00 00 00 
0.237900 1 221 Rx d 8 41 01 55 51 01 02 c0 ce 
0.238300 1 1f9 Rx d 8 00 00 00 00 00 00 00 00 
0.238600 1 263 Rx d 8 00 d0 e7 89 d4 07 55 1f 
0.238800 1 129 Rx d 8 df 27 40 20 00 20 ff 3f 
0.239400 1 2b3 Rx d 8 af 02 80 ee ee 0e 00 00 
0.239600 1 3e8 Rx d 8 01 00 00 00 00 00 00 00 
0.241400 1 132 Rx d 6 58 88 f7 ff 27 40 
0.241700 1 2e1 Rx d 8 02 6c 7f 02 41 66 00 00 
0.241900 1 2c1 Rx d 8 48 3c 7e 00 00 8a 02 07 
0.242200 1 677 Rx d 8 02 00 00 00 00 00 00 00 
0.242400 1 360 Rx d 8 02 00 00 00 00 00 00 00 
0.243900 1 103 Rx d 8 22 b3 88 04 92 2c 21 02 
0.244800 1 234 Rx d 8 24 e1 03 80 43 00 74 da 
0.245300 1 119 Rx d 4 00 00 00 00 
0.246200 1 2ec Rx d 3 2f 60 7d 
0.246400 1 142 Rx d 8 28 00 02 5f 00 00 01 00 
0.247400 1 201 Rx d 8 c8 c1 02 80 22 9b 41 05 
0.247700 1 2c7 Rx d 8 00 00 00 00 00 00 4d ff 
0.247900 1 2a6 Rx d 8 00 00 6a 18 00 00 00 00 
0.248300 1 2a7 Rx d 8 00 00 00 00 00 74 05 84 
0.248500 1 123 Rx d 8 01 00 00 00 00 3f 00 00 
0.248800 1 243 Rx d 8 01 fc 6b 00 6f 00 7c 7c 
0.249200 1 129 Rx d 8 08 28 40 20 00 20 ff 3f 
0.249500 1 102 Rx d 8 22 b3 88 04 8c 0c 21 08 
0.249700 1 261 Rx d 8 d3 4a 0a 00 00 40 95 f2 
0.249900 1 132 Rx d 6 4b 88 f7 ff 23 40 
0.250300 1 401 Rx d 8 1a 2a b9 80 b1 80 ad 80 
0.251200 1 31a Rx d 8 60 fc ff 02 00 00 b0 2a 
0.251400 1 113 Rx d 3 01 97 01 
0.251700 1 318 Rx d 8 1a 08 26 09 18 32 37 ed 
0.251900 1 458 Rx d 7 00 00 00 00 40 00 00 
0.252200 1 439 Rx d 8 02 00 40 00 00 38 00 00 
0.252300 1 7a8 Rx d 8 a8 b4 71 63 00 00 82 00 
0.252500 1 7f4 Rx d 1 01 
0.253400 1 7ff Rx d 8 08 00 00 01 00 00 00 00 
0.254300 1 3a1 Rx d 8 e8 42 0d 8a 01 08 e2 6c 
0.254900 1 3a3 Rx d 8 00 e0 00 00 38 03 fc 01 
0.256200 1 39d Rx d 5 fd 55 e1 27 00 
0.256400 1 122 Rx d 8 00 00 12 92 12 00 00 00 
0.256700 1 3a2 Rx d 8 82 2a 00 00 20 00 00 00 
0.257400 1 545 Rx d 8 02 00 0a 00 00 00 e0 36 
0.257600 1 3ae Rx d 8 00 40 00 08 00 00 71 ba 
0.257800 1 228 Rx d 8 03 16 54 8c 80 80 71 94 
0.258100 1 2e1 Rx d 8 fb 19 4f 69 92 4a 09 00 
0.258300 1 21d Rx d 8 04 00 35 00 00 00 00 00 
0.258500 1 25d Rx d 8 36 41 01 16 04 f0 d8 03 
0.258800 1 129 Rx d 8 5d 29 40 20 00 20 ff 3f 
0.259000 1 263 Rx d 8 01 d0 c7 b1 8c c7 54 1f 
0.259200 1 27d Rx d 8 00 00 00 00 00 00 00 00 
0.259300 1 29d Rx d 5 00 00 00 20 00 
0.259500 1 41d Rx d 1 00 
0.259700 1 43d Rx d 6 00 00 ff 1f 40 00 
0.259900 1 132 Rx d 6 5e 88 f7 ff 27 40 
0.260100 1 2bd Rx d 4 00 00 00 00 
0.260400 1 49d Rx d 7 00 00 00 00 00 00 00 
0.260600 1 294 Rx d 8 14 c1 40 00 00 00 00 00 
0.260900 1 393 Rx d 8 09 80 63 00 00 00 00 00 
0.261100 1 42a Rx d 8 f9 6b fe 9a bf e6 af 55 
0.261400 1 719 Rx d 8 15 11 00 1d a4 01 00 00 
0.262400 1 2c1 Rx d 8 21 23 2b fa 02 00 00 00 
0.263200 1 3fd Rx d 8 02 00 00 00 00 00 00 90 
0.263300 1 272 Rx d 8 09 80 63 00 00 00 00 00 
0.263600 1 382 Rx d 5 42 18 27 00 00 
0.265100 1 7b8 Rx d 8 9a 9d 10 a7 6c 05 60 d9 
0.265400 1 23e Rx d 8 f4 01 3a b8 fa fc ef 0c 
0.265700 1 340 Rx d 8 02 00 00 00 00 00 00 00 
0.265900 1 261 Rx d 8 4c ff 37 49 00 40 a4 a5 
0.266300 1 381 Rx d 8 16 10 00 00 00 64 64 00 
0.266800 1 20c Rx d 8 00 c0 56 1e 00 30 09 00 
0.267000 1 2d2 Rx d 8 6f 29 a4 4e 00 00 a1 01 
0.267200 1 212 Rx d 8 58 04 00 00 82 ff 77 62 
0.267500 1 252 Rx d 8 00 00 80 06 00 c8 16 00 
0.267600 1 292 Rx d 8 2e ee 98 24 8c 01 00 00 
0.267800 1 2f2 Rx d 2 12 01 
0.268100 1 3b2 Rx d 8 12 fe ff ff 00 10 19 32 
0.268300 1 379 Rx d 8 08 00 00 00 00 00 0d 03 
0.268600 1 243 Rx d 8 02 c8 99 12 00 44 00 00 
0.268800 1 129 Rx d 8 2f 2a 40 20 01 20 ff 3f 
0.268900 1 45a Rx d 8 20 4b 4b cb 3f 49 00 6b 
0.269200 1 229 Rx d 3 6d 03 00 
0.269300 1 712 Rx d 8 04 00 00 00 00 00 00 00 
0.269600 1 249 Rx d 4 2a 02 00 00 
0.269800 1 2e8 Rx d 8 02 10 00 00 06 00 a0 a2 
0.270000 1 132 Rx d 6 56 88 f7 ff 27 40 
0.270300 1 372 Rx d 8 09 00 00 00 00 f8 3f 00 
0.270500 1 282 Rx d 8 00 00 00 00 e8 33 0b 24 
0.270700 1 401 Rx d 8 1b 2a a1 80 ab 80 af 80 
0.271000 1 441 Rx d 8 13 85 89 00 32 00 38 f4 
0.271200 1 25b Rx d 8 d3 c0 02 05 6a 86 80 65 
0.271500 1 40a Rx d 8 01 00 01 00 00 00 b0 c0 
0.271700 1 201 Rx d 8 01 04 18 01 01 00 80 c4 
0.272000 1 3c2 Rx d 8 00 55 55 55 00 00 59 45 
0.272200 1 54f Rx d 8 00 00 00 00 00 00 00 00 
0.272400 1 782 Rx d 8 66 38 05 74 01 00 00 00 
0.273400 1 4e3 Rx d 8 06 00 00 00 00 00 00 00 
0.274700 1 2e1 Rx d 8 04 00 00 80 48 34 26 00 
0.275400 1 139 Rx d 1 00 
0.275600 1 448 Rx d 7 00 00 10 10 00 00 00 
0.276400 1 22b Rx d 8 ff ff ff ff ff ff ff ff 
0.276800 1 241 Rx d 7 37 32 0c 0f 8f 55 00 
0.277100 1 22a Rx d 4 00 00 d9 15 
0.277600 1 1f8 Rx d 4 00 00 00 00 
0.278300 1 7aa Rx d 8 e2 07 df f9 84 07 21 00 
0.278500 1 343 Rx d 8 00 92 5c 8e 95 00 00 00 
0.278800 1 263 Rx d 8 02 00 00 00 00 00 00 00 
0.279500 1 129 Rx d 8 1a 2b 40 20 ff 1f ff 3f 
0.281400 1 132 Rx d 6 46 88 f8 ff 29 40 
0.281600 1 261 Rx d 8 05 22 f1 c7 9a 42 b0 61 
0.281900 1 2c1 Rx d 8 02 0d 06 05 00 d0 92 c1 
0.282100 1 37a Rx d 8 d0 00 00 00 00 00 00 00 
0.284100 1 677 Rx d 8 03 00 00 00 00 00 00 00 
0.284300 1 289 Rx d 8 a8 02 01 c0 a5 00 3d 0f 
0.284500 1 323 Rx d 5 3b 14 21 02 02 
0.287400 1 3c3 Rx d 8 55 55 55 01 00 80 43 00 
0.287600 1 2f1 Rx d 8 32 12 00 81 00 01 00 00 
0.287800 1 221 Rx d 8 40 41 05 05 00 50 d1 cf 
0.288300 1 789 Rx d 4 54 11 70 d7 
0.288600 1 243 Rx d 8 03 00 00 80 11 4c 08 00 
0.288900 1 129 Rx d 8 be 2c 40 20 01 20 ff 3f 
0.289200 1 359 Rx d 8 bc 3f 00 00 0a 00 00 1c 
0.289500 1 3a2 Rx d 8 60 85 72 a9 04 80 c0 73 
0.289600 1 2e1 Rx d 8 45 80 00 00 38 12 8c 6a 
0.289900 1 132 Rx d 6 54 88 f7 ff 24 40 
0.290100 1 401 Rx d 8 1c 2a af 80 ad 80 ad 80 
0.290400 1 545 Rx d 8 f0 00 27 40 95 47 f9 76 
0.291200 1 553 Rx d 8 00 00 00 00 00 00 70 c8 
0.293700 1 4e2 Rx d 8 06 00 00 00 00 00 00 00 
0.293900 1 3c8 Rx d 8 02 00 00 00 00 00 00 00 
0.294900 1 234 Rx d 8 1c b0 01 24 91 04 80 a1 
0.295900 1 39d Rx d 5 fe 56 e1 27 00 
0.296100 1 38a Rx d 8 03 00 00 00 00 00 00 00 
0.296400 1 2c4 Rx d 8 6d 80 00 02 00 00 00 00 
0.296600 1 142 Rx d 8 01 00 40 0a c0 1b 00 00 
0.296900 1 201 Rx d 8 82 02 00 00 00 00 98 3b 
0.297100 1 204 Rx d 8 01 00 00 ff 00 00 00 10 
0.297300 1 383 Rx d 8 b1 18 49 00 55 e0 c0 0b 
0.297600 1 3ae Rx d 8 00 40 00 08 00 00 81 ca 
0.297800 1 261 Rx d 8 00 10 d8 ff d0 4c c0 b9 
0.298200 1 264 Rx d 6 3a 00 00 00 a0 00 
0.298400 1 224 Rx d 8 04 08 00 48 19 01 10 08 
0.298600 1 263 Rx d 8 03 00 00 00 00 00 00 ff 
0.298900 1 129 Rx d 8 68 2d 40 20 ff 1f ff 3f 
0.299100 1 2b3 Rx d 8 10 00 00 7c 7c 00 00 00 
0.299300 1 2b4 Rx d 6 12 05 a6 0d d8 00 
0.299500 1 3f5 Rx d 8 00 00 c4 08 80 04 00 00 
0.299700 1 419 Rx d 1 00 
0.299800 1 132 Rx d 6 5d 88 f7 ff 25 40 
0.300100 1 2aa Rx d 3 2f 70 4b 
0.300600 1 552 Rx d 8 00 00 00 00 00 00 70 c7 
0.301400 1 20e Rx d 3 17 07 00 
0.301700 1 2c1 Rx d 8 8b 16 13 00 00 00 00 00 
0.302300 1 381 Rx d 8 17 00 00 00 00 00 00 00 
0.302900 1 423 Rx d 7 00 00 00 00 08 00 00 
0.303400 1 39a Rx d 8 f0 06 df 42 ff fd fd 11 
0.305100 1 3a1 Rx d 8 2b fa 40 5f 3e 00 f0 b2 
0.305400 1 422 Rx d 6 70 00 10 00 00 00 
0.305600 1 23e Rx d 8 f4 01 3a b8 fa fc ff 1c 
0.305800 1 2e1 Rx d 8 10 21 04 00 12 00 20 08 
0.308300 1 788 Rx d 8 01 00 00 00 ff a1 98 12 
0.308500 1 2c3 Rx d 8 55 a3 a8 b6 02 00 12 a5 
0.308800 1 243 Rx d 8 04 cc f1 ff fd 7f 6b 6f 
0.309300 1 129 Rx d 8 de 2e 40 20 00 20 ff 3f 
0.309500 1 2d1 Rx d 2 7f 01 
0.309800 1 132 Rx d 6 62 88 f7 ff 28 40 
0.310000 1 401 Rx d 8 1d 2a b1 80 b0 80 b1 80 
0.310500 1 219 Rx d 7 02 80 ff ff ff fa 0f 
0.310700 1 61d Rx d 8 74 28 8f 2c ac 36 29 10 
0.310900 1 238 Rx d 8 f0 27 9c d0 1f 00 26 02 
0.311200 1 43b Rx d 8 00 7f 00 ff 00 00 00 00 
0.311400 1 34a Rx d 8 02 07 00 00 00 00 00 90 
0.311800 1 719 Rx d 8 16 00 00 00 00 00 00 00 
0.312200 1 288 Rx d 8 03 16 54 8c 80 80 81 04 
0.313400 1 2c2 Rx d 8 55 63 a8 46 01 00 1a a5 
0.316100 1 261 Rx d 8 31 00 aa ff 55 49 da 48 
0.316300 1 420 Rx d 8 28 01 40 4b 00 00 00 07 
0.316900 1 2e3 Rx d 7 94 12 62 00 1c 06 00 
0.317700 1 2f9 Rx d 8 88 fb 07 10 00 00 00 00 
0.318300 1 798 Rx d 8 9b 72 48 44 12 09 70 d0 
0.318600 1 263 Rx d 8 04 00 00 00 20 04 00 00 
0.318800 1 129 Rx d 8 82 2f 40 20 01 20 ff 3f 
0.319000 1 45a Rx d 8 fd 07 f8 ff 03 00 00 33 
0.319400 1 249 Rx d 4 d3 03 00 00 
0.319600 1 441 Rx d 8 2e 00 b6 c3 58 00 3d a5 
0.320400 1 132 Rx d 6 61 88 f7 ff 27 40 
0.320900 1 421 Rx d 7 00 14 00 00 00 d0 48 
0.321200 1 3cc Rx d 8 03 11 83 18 18 0e 09 00 
0.321400 1 2e2 Rx d 8 00 00 00 bd 02 0b 00 40 
0.321700 1 3c2 Rx d 8 29 55 00 00 00 00 00 80 
0.321900 1 201 Rx d 8 83 02 00 00 00 00 b8 3b 
0.322200 1 2c1 Rx d 8 04 00 10 0e 0d 10 08 12 
0.322400 1 2e1 Rx d 8 29 ea 1f ad 1f 28 00 00 
0.322600 1 3a2 Rx d 8 01 10 20 00 0b f0 ff 00 
0.322900 1 545 Rx d 8 01 00 00 00 00 10 00 5b 
0.323100 1 677 Rx d 8 04 00 00 00 00 00 00 00 
0.323300 1 718 Rx d 7 00 00 00 00 00 00 00 
0.323700 1 737 Rx d 7 02 00 00 00 e0 f0 80 
0.324000 1 2a8 Rx d 8 02 10 00 00 06 00 b0 72 
0.324200 1 3f9 Rx d 8 02 00 00 00 00 00 00 00 
0.325600 1 225 Rx d 4 05 45 d2 00 
0.328100 1 22b Rx d 8 ff ff ff ff ff ff ff ff 
0.328300 1 1fa Rx d 3 22 c0 01 
0.328600 1 243 Rx d 8 00 fc cf 8c be 02 41 29 
0.329400 1 129 Rx d 8 ca 20 40 20 00 20 ff 3f 
0.329600 1 261 Rx d 8 a2 28 83 02 80 5c e2 03 
0.329900 1 132 Rx d 6 5a 88 f7 ff 27 40 
0.330100 1 320 Rx d 8 03 00 00 00 00 00 00 00 
0.330300 1 372 Rx d 8 0a 01 40 06 00 00 00 82 
0.330600 1 283 Rx d 6 00 00 00 00 00 00 
0.330800 1 401 Rx d 8 1e 2a ae 80 b5 80 ad 80 
0.331000 1 428 Rx d 7 00 00 10 10 00 00 00 
0.331700 1 339 Rx d 8 01 71 02 00 00 02 40 02 
0.332300 1 409 Rx d 1 00 
0.332500 1 78a Rx d 8 01 00 03 00 a6 04 7b 02 
0.333300 1 2a1 Rx d 6 00 00 98 3a 00 00 
0.334900 1 797 Rx d 4 14 09 70 28 
0.335100 1 39d Rx d 5 ff 57 e1 27 00 
0.335300 1 682 Rx d 8 00 00 00 40 05 02 70 97 
0.335900 1 242 Rx d 4 10 15 04 05 
0.336100 1 400 Rx d 7 00 e0 fb be ef fb 00 
0.336300 1 38d Rx d 8 96 00 aa aa aa 24 49 02 
0.336600 1 3c0 Rx d 8 03 00 00 00 00 00 00 00 
0.337400 1 3ae Rx d 8 00 40 00 08 00 00 91 da 
0.337700 1 2e1 Rx d 8 02 6c 7f 02 41 66 00 00 
0.337900 1 221 Rx d 8 41 01 55 51 01 02 e0 ee 
0.338200 1 1f9 Rx d 8 00 00 00 00 00 00 00 00 
0.338400 1 381 Rx d 8 18 00 00 00 00 00 00 00 
0.338600 1 263 Rx d 8 00 d0 e7 89 d4 07 55 1f 
0.339400 1 129 Rx d 8 b4 21 40 20 ff 1f ff 3f 
0.339600 1 3e8 Rx d 8 02 00 00 00 00 00 00 00 
0.341400 1 132 Rx d 6 68 88 f7 ff 24 40 
0.342200 1 2c1 Rx d 8 48 3c 7e 00 00 8a 02 07 
0.342400 1 360 Rx d 8 03 00 00 00 00 00 00 00 
0.343800 1 103 Rx d 8 22 b3 88 04 92 2c 21 02 
0.344800 1 234 Rx d 8 25 e1 03 80 43 00 94 fb 
0.345000 1 119 Rx d 4 00 00 00 00 
0.345200 1 739 Rx d 5 2c 06 23 01 00 
0.345400 1 23e Rx d 8 f4 01 3a b8 fa fc 0f 2c 
0.345600 1 261 Rx d 8 d3 4a 0a 00 00 40 f5 52 
0.346200 1 2ec Rx d 3 2f 70 8d 
0.346400 1 142 Rx d 8 28 00 02 5f 00 00 01 00 
0.347400 1 201 Rx d 8 b8 c1 02 80 22 97 41 05 
0.347700 1 2c7 Rx d 8 00 00 00 00 00 00 4d ff 
0.347900 1 2a6 Rx d 8 00 00 6a 18 00 00 00 00 
0.348100 1 2a7 Rx d 8 00 00 00 00 00 74 05 84 
0.348300 1 708 Rx d 5 30 22 0d 00 00 
0.348600 1 123 Rx d 8 00 00 12 92 d2 00 00 80 
0.348800 1 129 Rx d 8 94 22 40 20 00 20 ff 3f 
0.349200 1 243 Rx d 8 01 fc 6b 00 6f 00 7c 7c 
0.349500 1 102 Rx d 8 22 b3 88 04 8c 0c 21 08 
0.349800 1 132 Rx d 6 66 88 f7 ff 28 40 
0.351200 1 401 Rx d 8 1f 2a a9 80 a8 80 a7 80 
0.351400 1 113 Rx d 3 01 97 01 
0.351700 1 318 Rx d 8 1a 08 27 09 18 32 39 f0 
0.351900 1 458 Rx d 7 00 00 00 00 40 00 00 
0.352200 1 439 Rx d 8 02 00 40 00 00 38 00 00 
0.352300 1 7a8 Rx d 8 01 00 00 00 ff a1 98 12 
0.352500 1 7f4 Rx d 1 01 
0.352800 1 52f Rx d 8 00 06 59 c7 eb 29 99 c0 
0.353000 1 7ff Rx d 8 09 ef 00 00 08 00 00 00 
0.353200 1 348 Rx d 8 16 00 00 03 9f 08 01 10 
0.353300 1 528 Rx d 4 6a 8c 13 ef 
0.353500 1 3ed Rx d 1 00 
0.353700 1 2e1 Rx d 8 fb 19 4f 69 92 44 09 00 
0.354000 1 3a1 Rx d 8 e8 42 0d 8a 01 08 02 8c 
0.354200 1 405 Rx d 8 12 43 32 35 36 38 32 33 
0.354500 1 414 Rx d 8 12 20 20 20 20 20 20 20 
0.354700 1 3a3 Rx d 8 00 e0 00 00 38 03 fc 01 
0.354900 1 55a Rx d 8 01 00 00 00 00 00 00 00 
0.355100 1 666 Rx d 4 00 00 a0 00 
0.355300 1 7f1 Rx d 7 02 00 00 0f 00 00 00 
0.355600 1 3a2 Rx d 8 72 2a 00 00 20 00 00 00 
0.356200 1 545 Rx d 8 02 00 0a 00 00 00 10 66 
0.357400 1 122 Rx d 8 01 00 00 00 00 3f 00 00 
0.357800 1 228 Rx d 8 03 16 54 8c 80 80 81 a4 
0.358000 1 75d Rx d 8 06 00 00 00 00 00 00 00 
0.358100 1 21d Rx d 8 04 00 35 00 00 00 00 00 
0.358400 1 41d Rx d 1 00 
0.358600 1 25d Rx d 8 36 41 01 16 04 f0 d8 03 
0.358800 1 129 Rx d 8 83 23 40 20 00 20 ff 3f 
0.359100 1 263 Rx d 8 01 d0 c7 b1 8c c7 54 1f 
0.359300 1 27d Rx d 8 00 00 00 00 00 00 00 00 
0.359500 1 29d Rx d 5 00 00 00 20 00 
0.359700 1 2b3 Rx d 8 00 9b 97 80 9b 91 7a 91 
0.359900 1 132 Rx d 6 5d 88 f7 ff 25 40 
0.360000 1 2bd Rx d 4 00 00 00 00 
0.360200 1 453 Rx d 4 00 00 00 00 
0.360400 1 1bb Rx d 1 02 
0.360600 1 393 Rx d 8 06 00 ed 70 07 b0 07 08 
0.360800 1 284 Rx d 8 30 00 00 00 40 08 80 7e 
0.361000 1 390 Rx d 2 17 06 
0.361200 1 43d Rx d 6 00 00 ff 1f 40 00 
0.361500 1 719 Rx d 8 17 00 00 00 00 00 00 00 
0.361700 1 261 Rx d 8 4c ff 37 49 00 40 04 05 
0.361900 1 2c1 Rx d 8 21 23 2b fa 02 00 00 00 
0.362200 1 677 Rx d 8 00 00 00 00 00 00 00 00 
0.362400 1 3ae Rx d 8 00 40 00 08 00 00 a0 e9 
0.362700 1 49d Rx d 7 00 00 00 00 00 00 00 
0.363200 1 7aa Rx d 8 23 d9 f9 7f 07 10 00 1c 
0.363400 1 272 Rx d 8 06 00 ef 78 07 b0 07 08 
0.365400 1 7b8 Rx d 8 9b ec 31 a5 e5 06 70 d2 
0.366300 1 340 Rx d 8 03 01 00 00 00 00 00 00 
0.366800 1 20c Rx d 8 00 c0 56 1e 00 30 09 00 
0.367100 1 2d2 Rx d 8 6f 29 a4 4e 00 00 a1 01 
0.367300 1 212 Rx d 8 58 04 00 00 82 ff 77 62 
0.367500 1 252 Rx d 8 00 00 80 06 00 c8 16 00 
0.367700 1 292 Rx d 8 2e ee 98 24 8c 01 00 00 
0.367900 1 2f2 Rx d 2 12 01 
0.368200 1 312 Rx d 8 39 82 c7 14 1c 8d 00 00 
0.368400 1 379 Rx d 8 09 00 00 00 00 00 0d 03 
0.368600 1 243 Rx d 8 02 c8 99 12 00 44 00 00 
0.368900 1 129 Rx d 8 05 24 40 20 00 20 ff 3f 
0.369000 1 392 Rx d 8 01 1c a9 67 10 27 02 00 
0.369200 1 229 Rx d 3 43 04 00 
0.369400 1 45a Rx d 8 20 4b 4b cb 3f 49 00 6b 
0.369700 1 249 Rx d 4 d3 04 00 00 
0.369800 1 2e1 Rx d 8 04 00 00 80 48 34 26 00 
0.370100 1 132 Rx d 6 61 88 f7 ff 27 40 
0.370300 1 2e8 Rx d 8 02 10 00 00 06 00 b0 b2 
0.370600 1 282 Rx d 8 00 00 00 00 e8 33 0b 24 
0.370800 1 330 Rx d 8 10 00 39 2e 32 52 00 00 
0.371000 1 401 Rx d 8 20 2a 9e 80 a5 80 b1 80 
0.371300 1 25b Rx d 8 d3 c0 02 05 6a 86 90 75 
0.371500 1 3e2 Rx d 7 00 00 80 da 3f c0 04 
0.371700 1 3c2 Rx d 8 00 55 55 55 00 00 59 45 
0.372000 1 201 Rx d 8 01 04 18 01 01 00 80 c4 
0.372200 1 441 Rx d 8 13 85 89 00 32 00 00 bc 
0.372500 1 54f Rx d 8 00 00 00 00 00 00 00 00 
0.372700 1 4e3 Rx d 8 07 00 00 00 00 00 00 00 
0.373400 1 712 Rx d 8 05 00 00 00 00 00 00 00 
0.374700 1 381 Rx d 8 d9 12 00 41 00 1e 00 00 
0.374900 1 139 Rx d 1 00 
0.375500 1 39d Rx d 5 00 58 e1 27 00 
0.375700 1 448 Rx d 7 00 00 10 10 00 00 00 
0.376400 1 22b Rx d 8 ff ff ff ff ff ff ff ff 
0.376800 1 241 Rx d 7 35 32 0c 0f 8f 55 00 
0.377100 1 22a Rx d 4 00 00 d9 15 
0.377400 1 1f8 Rx d 4 00 00 00 00 
0.378300 1 261 Rx d 8 05 22 f1 c7 9a 42 10 c1 
0.378600 1 343 Rx d 8 00 92 5c 8e 95 00 00 00 
0.378800 1 263 Rx d 8 02 00 00 00 00 00 00 00 
0.379500 1 129 Rx d 8 12 25 40 20 00 20 ff 3f 
0.381400 1 132 Rx d 6 5b 88 f7 ff 27 40 
0.381900 1 2c1 Rx d 8 02 0d 06 05 00 d0 92 c1 
0.384100 1 37a Rx d 8 b1 00 00 00 00 00 00 00 
0.384400 1 289 Rx d 8 a8 02 01 00 99 00 3d 0f 
0.384600 1 3c3 Rx d 8 00 00 00 00 00 45 00 00 
0.385300 1 3e3 Rx d 4 00 00 00 00 
0.385500 1 23e Rx d 8 f4 01 3a b8 fa fc 1f 3c 
0.385800 1 2e1 Rx d 8 45 80 00 00 38 12 8c 6a 
0.387400 1 709 Rx d 8 20 00 00 00 00 00 00 00 
0.387600 1 2f1 Rx d 8 00 91 42 81 40 00 0a 00 
0.387800 1 221 Rx d 8 40 41 05 05 00 50 f1 ef 
0.388200 1 789 Rx d 4 54 11 80 e7 
0.388400 1 3a2 Rx d 8 60 c5 f2 aa 04 80 c0 73 
0.388700 1 243 Rx d 8 03 00 00 80 11 4c 08 00 
0.388900 1 129 Rx d 8 c8 26 40 20 00 20 ff 3f 
0.389100 1 359 Rx d 8 3d 00 00 00 00 00 00 00 
0.389600 1 545 Rx d 8 40 01 27 10 95 45 29 c5 
0.389800 1 232 Rx d 8 4a 00 e1 09 df 04 00 00 
0.390000 1 132 Rx d 6 5e 88 f7 ff 24 40 
0.390300 1 372 Rx d 8 0b f0 ff 8d 00 65 66 00 
0.390500 1 401 Rx d 8 21 2a a1 80 a5 80 b8 80 
0.391200 1 553 Rx d 8 00 00 00 00 00 00 80 d8 
0.393400 1 4e2 Rx d 8 17 14 00 00 00 00 00 00 
0.393800 1 261 Rx d 8 00 10 d8 ff d0 4c 20 19 
0.394000 1 3c8 Rx d 8 03 00 00 00 00 00 00 00 
0.395900 1 234 Rx d 8 1b b0 01 24 91 04 a0 c0 
0.396100 1 38a Rx d 8 00 00 00 00 00 00 00 00 
0.396300 1 2c4 Rx d 8 12 b0 00 a7 0d 1c 75 01 
0.396600 1 142 Rx d 8 01 00 40 0a c0 1b 00 00 
0.396800 1 201 Rx d 8 82 02 00 00 00 00 98 3b 
0.397100 1 204 Rx d 8 01 00 00 ff 00 00 00 10 
0.397400 1 383 Rx d 8 b1 18 49 00 55 e0 c0 0b 
0.398100 1 264 Rx d 6 39 00 00 00 a0 00 
0.398400 1 224 Rx d 8 04 08 00 48 19 01 10 08 
0.398600 1 263 Rx d 8 03 00 00 00 00 00 00 ff 
0.398800 1 129 Rx d 8 df 27 40 20 00 20 ff 3f 
0.399100 1 2b4 Rx d 6 14 05 a7 0d d2 00 
0.399200 1 3f5 Rx d 8 00 00 c4 08 80 04 00 00 
0.399400 1 419 Rx d 1 00 
0.399600 1 552 Rx d 8 00 00 00 00 00 00 80 d7 
0.399800 1 132 Rx d 6 60 88 f7 ff 28 40 
0.400600 1 2aa Rx d 3 2f 80 5b 
0.401400 1 20e Rx d 3 10 00 00 
0.401700 1 2e1 Rx d 8 10 21 04 00 12 00 20 08 
0.401900 1 2c1 Rx d 8 8b 16 13 00 00 00 00 00 
0.402200 1 3ae Rx d 8 00 40 00 08 00 00 b0 f9 
0.402400 1 677 Rx d 8 01 00 00 00 00 00 00 00 
0.402900 1 423 Rx d 7 00 00 00 00 08 00 00 
0.403400 1 39a Rx d 8 fd fd fd fd fd 01 00 02 
0.405100 1 3a1 Rx d 8 2b fa 40 63 3e 00 10 d6 
0.405300 1 422 Rx d 6 70 00 10 00 00 00 
0.405700 1 362 Rx d 3 00 00 00 
0.408300 1 788 Rx d 8 02 40 d0 07 00 00 00 00 
0.408500 1 2c3 Rx d 8 00 00 00 4b 01 00 80 cb 
0.408800 1 243 Rx d 8 04 cc f1 ff fd 7f 6b 6f 
0.409300 1 129 Rx d 8 08 28 40 20 00 20 ff 3f 
0.409600 1 2d1 Rx d 2 7f 01 
0.409800 1 261 Rx d 8 31 00 a9 ff 55 49 3a a7 
0.410000 1 132 Rx d 6 54 88 f7 ff 28 40 
0.410200 1 219 Rx d 7 03 80 ff ff ff fb 0f 
0.410500 1 381 Rx d 8 1a 16 16 70 00 00 00 00 
0.410700 1 285 Rx d 8 41 03 65 01 0d 00 08 00 
0.410900 1 286 Rx d 5 ff ff ff ff 31 
0.411100 1 353 Rx d 8 7b 0f 39 80 07 10 03 05 
0.411300 1 373 Rx d 8 09 a2 ab 00 00 de 06 1f 
0.411500 1 3d8 Rx d 4 68 00 68 00 
0.411800 1 401 Rx d 8 22 2a b3 80 b5 80 b6 80 
0.412000 1 719 Rx d 8 20 03 02 14 14 24 25 00 
0.412200 1 288 Rx d 8 03 16 54 8c 80 80 91 14 
0.414900 1 2c2 Rx d 8 20 40 40 6a 01 00 00 cb 
0.416000 1 39d Rx d 5 01 59 e1 27 00 
0.416900 1 420 Rx d 8 28 01 40 4b 00 00 80 07 
0.417500 1 2f9 Rx d 8 88 fb 07 18 00 00 00 00 
0.417700 1 2e1 Rx d 8 29 ea 1f ad 1f 28 00 00 
0.418400 1 798 Rx d 8 64 0b 5c e0 82 0b 80 64 
0.418600 1 263 Rx d 8 04 00 00 00 20 04 00 00 
0.418800 1 129 Rx d 8 5d 29 40 20 00 20 ff 3f 
0.419000 1 2b3 Rx d 8 01 96 96 9b 85 96 96 99 
0.419200 1 249 Rx d 4 83 05 00 00 
0.419500 1 45a Rx d 8 fd 07 f8 ff 03 00 00 33 
0.419700 1 441 Rx d 8 2e 00 b6 c3 58 00 05 6d 
0.420400 1 132 Rx d 6 53 88 f7 ff 25 40 
0.421200 1 421 Rx d 7 00 14 00 00 00 d0 48 
0.421400 1 3a8 Rx d 8 01 02 00 00 00 03 ff 00 
0.421700 1 3a2 Rx d 8 01 10 20 00 0b f0 ff 00 
0.421900 1 201 Rx d 8 83 02 00 00 00 00 b8 3b 
0.422200 1 2bf Rx d 7 0a 00 00 00 00 10 00 
0.422400 1 2c1 Rx d 8 04 00 10 0e 0d 10 08 12 
0.422600 1 3c2 Rx d 8 29 55 00 00 00 00 00 80 
0.423700 1 545 Rx d 8 01 00 00 00 00 10 30 8b 
0.424000 1 2a8 Rx d 8 02 10 00 00 06 00 c0 82 
0.424200 1 3f9 Rx d 8 03 00 00 00 00 00 00 00 
0.425200 1 225 Rx d 4 05 45 d2 00 
0.425500 1 23e Rx d 8 f4 01 3a b8 fa fc 2f 4c 
0.425700 1 261 Rx d 8 a2 28 83 02 80 5c 42 63 
0.428100 1 22b Rx d 8 ff ff ff ff ff ff ff ff 
0.428300 1 1fa Rx d 3 22 c0 01 
0.428600 1 243 Rx d 8 00 fc cf 8c be 02 41 29 
0.429600 1 129 Rx d 8 82 2a 40 20 00 20 ff 3f 
0.429800 1 132 Rx d 6 5a 88 f7 ff 27 40 
0.430000 1 401 Rx d 8 23 02 bd 80 00 00 00 00 
0.430300 1 428 Rx d 7 00 00 10 10 00 00 00 
0.430900 1 283 Rx d 6 00 00 00 00 00 00 
0.431300 1 339 Rx d 8 01 71 02 00 00 02 40 02 
0.431700 1 409 Rx d 1 00 
0.432300 1 24a Rx d 1 03 
0.432500 1 78a Rx d 8 01 00 04 00 ae 04 93 00 
0.433300 1 2a1 Rx d 6 00 00 98 3a 00 00 
0.433600 1 797 Rx d 4 14 09 80 38 
0.435100 1 2e1 Rx d 8 02 6c 7f 02 41 66 00 00 
0.435300 1 242 Rx d 4 10 15 04 05 
0.435800 1 682 Rx d 8 00 00 00 40 05 02 80 a7 
0.436300 1 400 Rx d 7 00 e0 fb be ef fb 00 
0.437300 1 3c0 Rx d 8 04 00 00 00 00 00 00 00 
0.437600 1 7aa Rx d 8 04 00 0f c0 00 1a 00 00 
0.437900 1 221 Rx d 8 41 01 55 51 01 02 00 0e 
0.438300 1 1f9 Rx d 8 00 00 00 00 00 00 00 00 
0.438600 1 263 Rx d 8 00 d0 e7 89 d4 07 55 1f 
0.439400 1 129 Rx d 8 de 2b 40 20 01 20 ff 3f 
0.439600 1 3e8 Rx d 8 03 00 00 00 00 00 00 00 
0.440900 1 132 Rx d 6 65 88 f7 ff 27 40 
0.441400 1 3ae Rx d 8 00 40 00 08 00 00 c0 09 
0.441700 1 261 Rx d 8 d3 4a 0a 00 00 40 55 b2 
0.441900 1 2c1 Rx d 8 48 3c 7e 00 00 8a 02 07 
0.442200 1 677 Rx d 8 02 00 00 00 00 00 00 00 
0.442400 1 360 Rx d 8 04 00 00 00 00 00 00 00 
0.443800 1 103 Rx d 8 22 b3 88 04 92 2c 21 02 
0.444800 1 234 Rx d 8 24 e1 03 80 43 00 b4 1a 
0.445300 1 119 Rx d 4 00 00 00 00 
0.445600 1 2ec Rx d 3 2f 80 9d 
0.446200 1 381 Rx d 8 a0 2a c8 83 ba 5c b2 10 
0.446400 1 142 Rx d 8 28 00 02 5f 00 00 01 00 
0.447400 1 201 Rx d 8 c8 d1 02 80 22 97 41 05 
0.447700 1 2c7 Rx d 8 00 00 00 00 00 00 4d ff 
0.447900 1 2a6 Rx d 8 00 00 6a 18 00 00 00 00 
0.448200 1 2a7 Rx d 8 00 00 00 00 00 74 05 84 
0.448400 1 366 Rx d 8 0b 00 01 01 01 00 00 00 
0.448600 1 123 Rx d 8 01 00 00 00 00 3f 00 00 
0.448900 1 129 Rx d 8 7a 2c 40 20 ff 1f ff 3f 
0.449200 1 243 Rx d 8 01 fc 6b 00 6f 00 7c 7c 
0.449500 1 102 Rx d 8 22 b3 88 04 8c 0c 21 08 
0.449700 1 2e1 Rx d 8 fb 19 4f 69 92 41 09 00 
0.449900 1 132 Rx d 6 62 88 f7 ff 27 40 
0.450200 1 372 Rx d 8 0c ee 7f 84 0f 00 00 00 
0.450500 1 3d3 Rx d 3 00 00 00 
0.451200 1 31a Rx d 8 60 fc ff 02 00 00 c0 3a 
0.451500 1 113 Rx d 3 01 97 01 
0.451600 1 7a8 Rx d 8 02 40 d0 07 00 07 00 00 
0.451800 1 7f4 Rx d 1 01 
0.452100 1 7ff Rx d 8 01 a5 4e 43 42 4c 7b 00 
0.452300 1 318 Rx d 8 1a 08 27 09 18 32 3b f2 
0.452500 1 439 Rx d 8 02 00 40 00 00 38 00 00 
0.453500 1 458 Rx d 7 00 00 00 00 40 00 00 
0.454200 1 3a1 Rx d 8 e8 42 0d 8a 01 08 22 ac 
0.454400 1 3a2 Rx d 8 72 2a 00 00 20 00 00 00 
0.454600 1 3a3 Rx d 8 00 e0 00 00 38 03 fc 01 
0.454900 1 545 Rx d 8 02 00 0a 00 00 00 40 96 
0.456200 1 39d Rx d 5 02 5a e1 27 00 
0.457400 1 122 Rx d 8 00 00 12 92 12 00 00 00 
0.457600 1 261 Rx d 8 4c ff 37 49 00 40 64 65 
0.458000 1 228 Rx d 8 03 16 54 8c 80 80 91 b4 
0.458100 1 37d Rx d 8 e2 fe e1 e0 fe ff ff 7f 
0.458300 1 41d Rx d 1 00 
0.458600 1 263 Rx d 8 01 d0 c7 b1 8c c7 54 1f 
0.458800 1 129 Rx d 8 01 2d 40 20 00 20 ff 3f 
0.459100 1 3dd Rx d 8 08 00 00 00 00 00 00 00 
0.459300 1 21d Rx d 8 04 00 35 00 00 00 00 00 
0.459600 1 43d Rx d 6 00 00 ff 1f 40 00 
0.459800 1 132 Rx d 6 4d 88 f7 ff 27 40 
0.460300 1 25d Rx d 8 36 41 01 16 04 f0 d8 03 
0.460500 1 393 Rx d 8 09 80 63 00 00 00 00 00 
0.460800 1 355 Rx d 7 80 ec 00 bc 94 00 00 
0.461000 1 27d Rx d 8 00 00 00 00 00 00 00 00 
0.461200 1 285 Rx d 8 02 d5 00 00 00 00 de 00 
0.461400 1 29d Rx d 5 00 00 00 20 00 
0.461700 1 313 Rx d 8 02 64 64 05 00 00 a0 85 
0.461800 1 2c1 Rx d 8 21 23 2b fa 02 00 00 00 
0.462100 1 2bd Rx d 4 00 00 00 00 
0.462300 1 42a Rx d 8 f9 6b fe 9a bf e6 af 55 
0.462500 1 49d Rx d 7 00 00 00 00 00 00 00 
0.463200 1 719 Rx d 8 01 06 00 00 00 00 00 00 
0.463400 1 272 Rx d 8 09 80 63 00 00 00 00 00 
0.465100 1 7b8 Rx d 8 1c 77 5b 00 00 00 80 88 
0.465400 1 23e Rx d 8 f4 01 3a b8 fa fc 3f 5c 
0.465700 1 340 Rx d 8 04 00 00 00 00 00 00 00 
0.466300 1 2e1 Rx d 8 04 00 00 80 48 34 26 00 
0.466800 1 20c Rx d 8 00 c0 56 1e 00 30 09 00 
0.467100 1 2d2 Rx d 8 70 29 a4 4e 00 00 a1 01 
0.467300 1 212 Rx d 8 58 04 00 00 82 ff 77 62 
0.467600 1 252 Rx d 8 00 00 80 06 00 c8 16 00 
0.467700 1 292 Rx d 8 2e ee 98 24 8c 01 00 00 
0.467900 1 2f2 Rx d 2 12 01 
0.468300 1 379 Rx d 8 0a 00 00 00 00 00 0d 03 
0.468600 1 243 Rx d 8 02 c8 99 12 00 44 00 00 
0.468800 1 129 Rx d 8 de 2e 40 20 00 20 ff 3f 
0.468900 1 45a Rx d 8 20 4b 4b cb 3f 49 00 6b 
0.469100 1 229 Rx d 3 41 05 00 
0.469400 1 249 Rx d 4 4c 06 00 00 
0.469600 1 54f Rx d 8 00 00 00 00 00 00 00 00 
0.469800 1 2e8 Rx d 8 02 10 00 00 06 00 c0 c2 
0.470100 1 132 Rx d 6 63 88 f7 ff 25 40 
0.470300 1 441 Rx d 8 13 85 89 00 32 00 08 c4 
0.470900 1 282 Rx d 8 00 00 00 00 e8 33 0b 24 
0.471200 1 25b Rx d 8 d3 c0 02 05 6a 86 a0 85 
0.471400 1 40a Rx d 8 01 00 01 00 00 00 c0 d0 
0.471700 1 3c2 Rx d 8 00 55 55 55 00 00 59 45 
0.472300 1 201 Rx d 8 01 04 18 01 01 00 80 c4 
0.473400 1 4e3 Rx d 8 20 f5 04 00 00 00 28 34 
0.474700 1 261 Rx d 8 05 22 f1 c7 9a 42 70 21 
0.475400 1 139 Rx d 1 00 
0.475700 1 448 Rx d 7 00 00 10 10 00 00 00 
0.476400 1 22b Rx d 8 ff ff ff ff ff ff ff ff 
0.476800 1 241 Rx d 7 37 32 4c 0f 8f 55 00 
0.477100 1 22a Rx d 4 00 00 d9 15 
0.478300 1 1f8 Rx d 4 00 00 00 00 
0.478600 1 343 Rx d 8 00 92 5c 8e 95 00 00 00 
0.478800 1 263 Rx d 8 02 00 00 00 00 00 00 00 
0.479000 1 129 Rx d 8 82 2f 40 20 01 20 ff 3f 
0.479500 1 2b3 Rx d 8 a2 52 00 00 00 00 00 0e 
0.480900 1 132 Rx d 6 67 88 f7 ff 27 40 
0.481400 1 3ae Rx d 8 00 40 00 08 00 00 d0 19 
0.481700 1 2e1 Rx d 8 45 80 00 00 38 12 8c 6a 
0.481900 1 2c1 Rx d 8 02 0d 06 05 00 d0 92 c1 
0.482100 1 37a Rx d 8 d2 00 00 00 00 00 00 00 
0.482400 1 381 Rx d 8 01 00 00 2c 9f 9e 9e 40 
0.484100 1 677 Rx d 8 03 00 00 00 00 00 00 00 
0.484400 1 289 Rx d 8 a8 02 01 40 8c 00 3d 0f 
0.486900 1 3c3 Rx d 8 55 55 55 01 00 80 43 00 
0.487200 1 25a Rx d 6 ff ff ff ff 00 00 
0.487400 1 3a2 Rx d 8 60 85 f2 aa 04 80 c0 73 
0.487700 1 2f1 Rx d 8 01 91 44 01 41 80 03 00 
0.487900 1 221 Rx d 8 40 41 05 05 00 50 11 0f 
0.488100 1 545 Rx d 8 f0 00 22 30 95 46 59 c0 
0.488300 1 789 Rx d 4 54 11 90 f7 
0.488600 1 243 Rx d 8 03 00 00 80 11 4c 08 00 
0.488900 1 129 Rx d 8 ca 20 40 20 00 20 ff 3f 
0.489400 1 359 Rx d 8 3e 04 00 00 75 f6 b3 8f 
0.489600 1 261 Rx d 8 00 10 d8 ff d0 4c 80 79 
0.490300 1 132 Rx d 6 5d 88 f7 ff 27 40 
0.491200 1 553 Rx d 8 00 00 00 00 00 00 90 e8 
0.493700 1 4e2 Rx d 8 20 0e 02 00 00 00 a8 15 
0.494000 1 3c8 Rx d 8 04 00 00 00 00 00 00 00 
0.494900 1 234 Rx d 8 1b b0 01 24 91 04 c0 e0 
0.495900 1 39d Rx d 5 03 5b e1 27 00 
0.496100 1 38a Rx d 8 01 00 00 00 00 00 00 00 
0.496300 1 2c4 Rx d 8 13 9b 00 a6 0d 09 45 01 
0.496600 1 142 Rx d 8 01 00 40 0a c0 1b 00 00 
0.496800 1 201 Rx d 8 82 02 00 00 00 00 98 3b 
0.497100 1 204 Rx d 8 01 00 00 ff 00 00 00 10 
0.497400 1 383 Rx d 8 b1 18 49 00 55 e0 c0 0b 
0.497600 1 264 Rx d 6 3a 00 00 00 a0 00 
0.498100 1 2e1 Rx d 8 10 21 04 00 12 00 20 08 
0.498300 1 224 Rx d 8 04 08 00 48 19 01 10 08 
0.498600 1 263 Rx d 8 03 00 00 00 00 00 00 ff 
0.498800 1 129 Rx d 8 dd 21 40 20 00 20 ff 3f 
0.499000 1 2a4 Rx d 8 da f7 fe f7 e3 af 80 4f 
0.499200 1 2b4 Rx d 6 10 05 a7 0d d3 00 
0.499400 1 364 Rx d 4 3c 82 28 00 
0.499600 1 3a4 Rx d 8 01 00 00 00 00 00 00 00 
0.499800 1 132 Rx d 6 5c 88 f7 ff 27 40 
0.500000 1 2aa Rx d 3 2f 90 6b 
0.500100 1 3f5 Rx d 8 00 00 c4 08 80 04 00 00 
0.500400 1 419 Rx d 1 00 
0.500600 1 552 Rx d 8 00 00 00 00 00 00 90 e7 
0.501400 1 20e Rx d 3 11 01 00 
0.502300 1 2c1 Rx d 8 8b 16 13 00 00 00 00 00 
0.502900 1 423 Rx d 7 00 00 00 00 08 00 00 
0.503500 1 39a Rx d 8 f4 06 df 46 ff fd fd 11 
0.505100 1 3a1 Rx d 8 2b fa 40 65 3e 00 30 f8 
0.505400 1 422 Rx d 6 70 00 10 00 00 00 
0.505600 1 23e Rx d 8 f4 01 3a b8 fa fc 4f 6c 
0.505800 1 261 Rx d 8 31 00 b3 ff 55 49 9a 11 
0.507300 1 788 Rx d 8 a8 bc 71 63 00 00 80 00 
0.508300 1 7aa Rx d 8 e5 60 83 0d 10 08 13 00 
0.508500 1 2c3 Rx d 8 55 a3 a8 b6 02 00 12 a5 
0.508800 1 243 Rx d 8 04 cc f1 ff fd 7f 6b 6f 
0.509300 1 129 Rx d 8 94 22 40 20 00 20 ff 3f 
0.509600 1 2d1 Rx d 2 7f 01 
0.509800 1 2d3 Rx d 8 13 01 b1 03 12 17 08 4b 
0.510000 1 132 Rx d 6 5d 88 f7 ff 25 40 
0.510200 1 219 Rx d 7 04 74 74 00 00 00 00 
0.510500 1 372 Rx d 8 0d 32 00 00 00 40 6a 88 
0.510700 1 3df Rx d 8 00 00 00 00 01 d0 00 1b 
0.510900 1 293 Rx d 8 01 0c 15 90 55 14 4f ff 
0.511500 1 719 Rx d 8 0e 2a 00 00 15 00 00 14 
0.511800 1 285 Rx d 8 03 47 86 48 95 00 00 00 
0.512200 1 288 Rx d 8 03 16 54 8c 80 80 a1 24 
0.513500 1 2c2 Rx d 8 55 63 a8 46 01 00 1a a5 
0.513700 1 2e1 Rx d 8 29 ea 1f ad 1f 28 00 00 
0.516000 1 7c8 Rx d 8 11 00 00 00 00 00 00 00 
0.516300 1 420 Rx d 8 28 01 40 4b 00 00 00 00 
0.516900 1 2e3 Rx d 7 06 00 00 00 00 00 00 
0.517400 1 2f9 Rx d 8 88 fb 07 20 00 00 00 00 
0.517700 1 381 Rx d 8 22 62 f6 f7 0d 10 01 00 
0.518300 1 798 Rx d 8 05 00 00 00 00 00 90 41 
0.518600 1 263 Rx d 8 04 00 00 00 20 04 00 00 
0.518800 1 129 Rx d 8 83 23 40 20 00 20 ff 3f 
0.519000 1 45a Rx d 8 fd 07 f8 ff 03 00 00 33 
0.519400 1 249 Rx d 4 5e 07 00 00 
0.519600 1 441 Rx d 8 2e 00 b6 c3 58 00 0d 75 
0.520200 1 132 Rx d 6 4e 88 f8 ff 27 40 
0.520400 1 3a2 Rx d 8 01 10 20 00 09 f0 ff 00 
0.520700 1 421 Rx d 7 00 14 00 00 00 d0 48 
0.521200 1 545 Rx d 8 01 00 00 00 00 10 60 bb 
0.521400 1 2e2 Rx d 8 e2 21 2c 5c 49 59 29 0c 
0.521700 1 3c2 Rx d 8 29 55 00 00 00 00 00 80 
0.521900 1 201 Rx d 8 83 02 00 00 00 00 b8 3b 
0.522100 1 261 Rx d 8 a2 28 83 02 80 5c a2 c3 
0.522400 1 2c1 Rx d 8 04 00 10 0e 0d 10 08 12 
0.522600 1 301 Rx d 8 12 5c 0a d0 26 6f 00 ae 
0.522900 1 3ae Rx d 8 00 40 00 08 00 00 e0 29 
0.523100 1 677 Rx d 8 04 00 00 00 00 00 00 00 
0.523700 1 718 Rx d 7 01 00 00 00 00 00 00 
0.524000 1 2a8 Rx d 8 02 10 00 00 06 00 d0 92 
0.524200 1 3f9 Rx d 8 04 00 00 00 00 00 00 00 
0.525700 1 225 Rx d 4 05 45 d2 00 
0.528100 1 22b Rx d 8 ff ff ff ff ff ff ff ff 
0.528300 1 1fa Rx d 3 22 c0 01 
0.528600 1 243 Rx d 8 00 fc cf 8c be 02 41 29 
0.529500 1 129 Rx d 8 a8 24 40 20 01 20 ff 3f 
0.529700 1 2e1 Rx d 8 02 6c 7f 02 41 66 00 00 
0.529900 1 132 Rx d 6 5d 88 f7 ff 27 40 
0.530100 1 320 Rx d 8 04 00 00 00 00 00 00 00 
0.530400 1 428 Rx d 7 00 00 10 10 00 00 00 
0.531000 1 283 Rx d 6 00 00 00 00 00 00 
0.531100 1 339 Rx d 8 01 71 02 00 00 02 40 02 
0.531800 1 409 Rx d 1 00 
0.532300 1 2d3 Rx d 8 13 01 b1 03 12 17 08 4b 
0.532500 1 78a Rx d 8 01 00 05 00 9d 0d 06 00 
0.533300 1 2a1 Rx d 6 00 00 98 3a 00 00 
0.534900 1 797 Rx d 4 14 09 90 48 
0.535100 1 39d Rx d 5 04 5c e1 27 00 
0.535400 1 242 Rx d 4 10 15 04 05 
0.535900 1 682 Rx d 8 00 00 00 40 05 02 90 b7 
0.536300 1 400 Rx d 7 00 e0 fb be ef fb 00 
0.537400 1 3c0 Rx d 8 05 00 00 00 00 00 00 00 
0.537700 1 261 Rx d 8 d3 4a 0a 00 00 40 b5 12 
0.537900 1 221 Rx d 8 41 01 55 51 01 02 20 2e 
0.538300 1 1f9 Rx d 8 00 00 00 00 00 00 00 00 
0.538600 1 263 Rx d 8 00 d0 e7 89 d4 07 55 1f 
0.538800 1 129 Rx d 8 7b 25 40 20 ff 1f ff 3f 
0.539400 1 2b3 Rx d 8 03 46 46 11 00 00 80 3c 
0.539600 1 3e8 Rx d 8 04 00 00 00 00 00 00 00 
0.541400 1 132 Rx d 6 5b 88 f7 ff 25 40 
0.542200 1 2c1 Rx d 8 48 3c 7e 00 00 8a 02 07 
0.542400 1 360 Rx d 8 05 00 00 00 00 00 00 00 
0.543800 1 103 Rx d 8 22 b3 88 04 92 2c 21 02 
0.544800 1 234 Rx d 8 24 e1 03 80 43 00 d4 3a 
0.545100 1 119 Rx d 4 00 00 00 00 
0.545400 1 23e Rx d 8 f4 01 3a b8 fa fc 5f 7c 
0.545600 1 2e1 Rx d 8 fb 19 4f 69 92 42 09 00 
0.546200 1 2ec Rx d 3 2f 90 ad 
0.546400 1 142 Rx d 8 28 00 02 5f 00 00 01 00 
0.547200 1 201 Rx d 8 c8 c1 02 80 22 9b 41 05 
0.547400 1 302 Rx d 8 12 5c 0a d0 26 6f 00 ae 
0.547700 1 2c7 Rx d 8 00 00 00 00 00 00 4d ff 
0.547900 1 2a6 Rx d 8 00 00 6a 18 00 00 00 00 
0.548300 1 2a7 Rx d 8 00 00 00 00 00 74 05 84 
0.548600 1 123 Rx d 8 00 00 12 92 d2 00 00 80 
0.548800 1 129 Rx d 8 65 26 40 20 01 20 ff 3f 
0.549200 1 243 Rx d 8 01 fc 6b 00 6f 00 7c 7c 
0.549600 1 102 Rx d 8 22 b3 88 04 8c 0c 21 08 
0.551200 1 132 Rx d 6 57 88 f7 ff 27 40 
0.551500 1 113 Rx d 3 01 97 01 
0.551700 1 318 Rx d 8 1a 08 27 09 18 32 3d f4 
0.551900 1 458 Rx d 7 00 00 00 00 40 00 00 
0.552200 1 439 Rx d 8 02 00 40 00 00 38 00 00 
0.552300 1 7a8 Rx d 8 a8 b4 71 63 00 00 82 00 
0.552500 1 7f4 Rx d 1 01 
0.553200 1 7ff Rx d 8 02 53 26 2c 8c 51 a3 90 
0.553400 1 3a2 Rx d 8 82 2a 00 00 20 00 00 00 
0.553700 1 261 Rx d 8 4c ff 37 49 00 40 c4 c5 
0.553900 1 381 Rx d 8 03 6c fe 08 00 10 04 00 
0.554200 1 3a1 Rx d 8 e8 42 0d 8a 01 08 42 cc 
0.554400 1 545 Rx d 8 02 00 09 00 00 00 70 c5 
0.556200 1 3a3 Rx d 8 00 e0 00 00 38 03 fc 01 
0.557400 1 122 Rx d 8 01 00 00 00 00 3f 00 00 
0.557700 1 228 Rx d 8 03 16 54 8c 80 80 a1 c4 
0.558000 1 75d Rx d 8 10 17 74 17 00 00 00 00 
0.558100 1 31e Rx d 8 00 00 00 00 00 00 00 00 
0.558400 1 41d Rx d 1 00 
0.558600 1 21d Rx d 8 04 00 35 00 00 00 00 00 
0.558800 1 129 Rx d 8 b6 27 40 20 ff 1f ff 3f 
0.559100 1 25d Rx d 8 36 41 01 16 04 f0 d8 03 
0.559300 1 263 Rx d 8 01 d0 c7 b1 8c c7 54 1f 
0.559600 1 27d Rx d 8 00 00 00 00 00 00 00 00 
0.559800 1 253 Rx d 8 00 64 34 85 64 62 00 15 
0.559900 1 132 Rx d 6 5b 88 f7 ff 25 40 
0.560100 1 29d Rx d 5 00 00 00 20 00 
0.560300 1 4f3 Rx d 4 00 00 00 00 
0.560600 1 393 Rx d 8 06 00 ee 70 07 b0 07 08 
0.560700 1 82 Rx d 8 00 7f ff 80 ff 03 00 80 
0.560900 1 213 Rx d 2 b8 cd 
0.561100 1 2bd Rx d 4 00 00 00 00 
0.561400 1 3ae Rx d 8 00 40 00 08 00 00 f0 39 
0.561600 1 3db Rx d 8 03 02 00 00 00 80 00 00 
0.561900 1 2c1 Rx d 8 21 23 2b fa 02 00 00 00 
0.562100 1 2e1 Rx d 8 04 00 00 80 48 34 26 00 
0.562300 1 43b Rx d 8 01 7f 00 ff 00 00 00 00 
0.562500 1 43d Rx d 6 00 00 ff 1f 40 00 
0.562800 1 49d Rx d 7 00 00 00 00 00 00 00 
0.563000 1 285 Rx d 8 04 53 93 47 8b 00 00 00 
0.563300 1 677 Rx d 8 00 00 00 00 00 00 00 00 
0.563500 1 272 Rx d 8 06 00 ef 78 07 b0 07 08 
0.563700 1 719 Rx d 8 0c 61 0f 00 50 00 20 00 
0.565400 1 7b8 Rx d 8 05 60 49 83 99 03 90 77 
0.566300 1 340 Rx d 8 05 00 00 00 00 00 00 00 
0.566800 1 20c Rx d 8 00 c0 56 1e 00 30 09 00 
0.567000 1 2d2 Rx d 8 70 29 a4 4e 00 00 a1 01 
0.567200 1 212 Rx d 8 58 04 00 00 82 ff 77 62 
0.567500 1 252 Rx d 8 00 00 80 06 00 c8 16 00 
0.567600 1 292 Rx d 8 2e ee 98 24 8c 01 00 00 
0.567800 1 2f2 Rx d 2 12 01 
0.568100 1 3b2 Rx d 8 13 32 06 5d 8a 5e f4 5d 
0.568300 1 379 Rx d 8 0b 00 00 00 00 00 14 0a 
0.568600 1 243 Rx d 8 02 c8 99 12 00 44 00 00 
0.568800 1 129 Rx d 8 08 28 40 20 00 20 ff 3f 
0.568900 1 45a Rx d 8 20 4b 4b cb 3f 49 00 6b 
0.569100 1 229 Rx d 3 dd 06 00 
0.569400 1 249 Rx d 4 3f 08 00 00 
0.569600 1 54f Rx d 8 00 00 00 00 00 00 00 00 
0.569800 1 261 Rx d 8 05 22 f1 c7 9a 42 d0 81 
0.570100 1 132 Rx d 6 52 88 f7 ff 25 40 
0.570300 1 2e8 Rx d 8 02 10 00 00 06 00 d0 d2 
0.570500 1 282 Rx d 8 00 00 00 00 e8 33 0b 24 
0.570800 1 372 Rx d 8 0e 00 00 0c 06 7d 00 00 
0.571200 1 441 Rx d 8 13 85 89 00 32 00 10 cc 
0.571400 1 3e2 Rx d 7 00 00 80 da 3f c0 04 
0.571700 1 3c2 Rx d 8 00 55 55 55 00 00 59 45 
0.571900 1 201 Rx d 8 01 04 18 01 01 00 80 c4 
0.572300 1 25b Rx d 8 d3 c0 02 05 6a 86 b0 95 
0.574700 1 4e3 Rx d 8 01 e3 06 00 00 00 28 29 
0.574900 1 139 Rx d 1 00 
0.575500 1 39d Rx d 5 05 5d e1 27 00 
0.575700 1 448 Rx d 7 00 00 10 10 00 00 00 
0.576400 1 22b Rx d 8 ff ff ff ff ff ff ff ff 
0.576800 1 241 Rx d 7 37 32 0c 0f 8f 55 00 
0.577100 1 22a Rx d 4 00 00 d9 15 
0.577400 1 1f8 Rx d 4 00 00 00 00 
0.578300 1 2e1 Rx d 8 45 80 00 00 38 12 8c 6a 
0.578600 1 343 Rx d 8 00 92 5c 5e 95 00 00 00 
0.578800 1 129 Rx d 8 34 29 40 20 ff 1f ff 3f 
0.579500 1 263 Rx d 8 02 00 00 00 00 00 00 00 
0.581400 1 132 Rx d 6 5c 88 f7 ff 27 40 
0.581900 1 2c1 Rx d 8 02 0d 06 05 00 d0 92 c1 
0.584200 1 37a Rx d 8 7b 00 00 00 00 00 00 00 
0.584400 1 289 Rx d 8 a8 02 01 00 82 00 3d 0f 
0.584600 1 3c3 Rx d 8 00 00 00 00 00 45 00 00 
0.585300 1 3e3 Rx d 4 00 00 00 00 
0.585600 1 23e Rx d 8 f4 01 3a b8 fa fc 6f 8c 
0.586000 1 261 Rx d 8 00 10 d7 ff d0 4c e0 d8 
0.586200 1 39b Rx d 8 00 06 df e0 b0 48 01 5c 
0.586500 1 3a2 Rx d 8 60 c5 72 a9 04 80 c0 73 
0.587400 1 545 Rx d 8 40 01 27 10 95 45 89 25 
0.587700 1 2f1 Rx d 8 02 91 43 01 41 00 00 00 
0.587800 1 221 Rx d 8 40 41 05 05 00 50 31 2f 
0.588100 1 789 Rx d 4 54 11 a0 07 
0.588300 1 7aa Rx d 8 e6 04 b0 e0 f0 c8 a0 29 
0.588600 1 243 Rx d 8 03 00 00 80 11 4c 08 00 
0.588900 1 129 Rx d 8 82 2a 40 20 00 20 ff 3f 
0.589500 1 359 Rx d 8 3f 00 00 00 00 00 00 00 
0.589700 1 381 Rx d 8 04 93 93 8e 95 8f 8d 69 
0.590300 1 132 Rx d 6 4d 88 f7 ff 24 40 
0.591200 1 553 Rx d 8 00 00 00 00 00 00 a0 f8 
0.593400 1 4e2 Rx d 8 01 c9 06 ff 0f 00 a8 28 
0.593800 1 2e1 Rx d 8 10 21 04 00 12 00 20 08 
0.594000 1 3c8 Rx d 8 05 00 00 00 00 00 00 00 
0.595900 1 234 Rx d 8 1c b0 01 24 91 04 e0 01 
0.596100 1 38a Rx d 8 03 00 00 00 00 00 00 00 
0.596400 1 2c4 Rx d 8 14 00 00 00 00 00 00 00 
0.596600 1 142 Rx d 8 01 00 40 0a c0 1b 00 00 
0.596900 1 201 Rx d 8 82 02 00 00 00 00 98 3b 
0.597100 1 204 Rx d 8 01 00 00 ff 00 00 00 10 
0.597300 1 383 Rx d 8 b1 18 49 00 55 e0 c0 0b 
0.598100 1 264 Rx d 6 39 00 00 00 a0 00 
0.598300 1 224 Rx d 8 04 08 00 48 19 01 10 08 
0.598500 1 2b4 Rx d 6 12 05 a6 0d d8 00 
0.598700 1 263 Rx d 8 03 00 00 00 00 00 00 ff 
0.599000 1 129 Rx d 8 73 2b 40 20 00 20 ff 3f 
0.599200 1 2b3 Rx d 8 24 62 44 7c f8 16 09 7e 
0.599300 1 3f5 Rx d 8 00 00 c4 08 80 04 00 00 
0.599600 1 419 Rx d 1 00 
0.599800 1 552 Rx d 8 00 00 00 00 00 00 a0 f7 
0.599900 1 132 Rx d 6 5a 88 f7 ff 25 40 
0.600600 1 2aa Rx d 3 2f a0 7b 
0.600900 1 20e Rx d 3 12 02 00 
0.601400 1 3ae Rx d 8 00 40 00 08 00 00 00 49 
0.601700 1 261 Rx d 8 31 00 ba ff 55 49 fa 78 
0.601900 1 2c1 Rx d 8 8b 16 13 00 00 00 00 00 
0.602300 1 677 Rx d 8 01 00 00 00 00 00 00 00 
0.602500 1 414 Rx d 8 10 00 00 00 00 20 20 20 
0.602800 1 405 Rx d 8 10 00 00 00 00 4c 52 57 
0.603000 1 423 Rx d 7 00 00 00 00 08 00 00 
0.603200 1 39a Rx d 8 fd fd fd fd fd 01 00 02 
0.603500 1 55a Rx d 8 02 00 00 00 00 00 00 00 
0.603700 1 3a1 Rx d 8 2b fa 40 59 3e 00 50 0c 
0.603900 1 407 Rx d 8 19 0e 00 00 00 00 00 00 
0.605100 1 666 Rx d 4 00 00 a0 00 
0.605700 1 422 Rx d 6 70 00 10 00 00 00 
0.608300 1 788 Rx d 8 01 00 00 00 ff a1 98 12 
0.608600 1 2c3 Rx d 8 00 00 00 4b 01 00 80 cb 
0.608800 1 243 Rx d 8 04 cc f1 ff fd 7f 6b 6f 
0.609400 1 129 Rx d 8 13 2c 40 20 00 20 ff 3f 
0.609600 1 473 Rx d 8 00 00 03 00 00 00 00 00 
0.609800 1 132 Rx d 6 5f 88 f6 ff 27 40 
0.610000 1 2d1 Rx d 2 7f 01 
0.610200 1 219 Rx d 7 05 00 6f 6f 6f 6f 00 
0.610500 1 2e1 Rx d 8 29 ea 1f ad 1f 28 00 00 
0.610700 1 3b3 Rx d 8 8c 80 04 30 01 00 a8 80 
0.610900 1 253 Rx d 8 01 64 34 85 64 62 00 15 
0.611800 1 719 Rx d 8 0d 00 00 00 00 00 00 00 
0.612200 1 288 Rx d 8 03 16 54 8c 80 80 b1 34 
0.614900 1 2c2 Rx d 8 20 40 40 6a 01 00 00 cb 
0.616000 1 39d Rx d 5 06 5e e1 27 00 
0.616300 1 420 Rx d 8 28 01 40 4b 00 00 80 00 
0.616900 1 303 Rx d 8 12 5c 0a d0 26 6f 00 ae 
0.617400 1 2f9 Rx d 8 88 fb 07 28 00 00 00 00 
0.617800 1 261 Rx d 8 a2 28 83 02 80 5c 02 23 
0.618400 1 798 Rx d 8 86 04 00 00 00 00 a0 d6 
0.618600 1 263 Rx d 8 04 00 00 00 20 04 00 00 
0.618800 1 129 Rx d 8 01 2d 40 20 00 20 ff 3f 
0.619000 1 45a Rx d 8 fd 07 f8 ff 03 00 00 33 
0.619300 1 249 Rx d 4 5e 09 00 00 
0.619500 1 3a2 Rx d 8 01 10 20 00 09 f0 ff 00 
0.619700 1 441 Rx d 8 2e 00 b6 c3 58 00 15 7d 
0.619900 1 132 Rx d 6 66 88 f7 ff 25 40 
0.620400 1 545 Rx d 8 01 00 00 00 00 10 90 eb 
0.621200 1 421 Rx d 7 00 14 00 00 00 d0 48 
0.621500 1 3a8 Rx d 8 02 00 18 01 00 00 00 00 
0.621700 1 3c2 Rx d 8 29 55 00 00 00 00 00 80 
0.621900 1 201 Rx d 8 83 02 00 00 00 00 b8 3b 
0.622200 1 2bf Rx d 7 0a 00 00 00 00 10 00 
0.622400 1 2c1 Rx d 8 04 00 10 0e 0d 10 08 12 
0.622600 1 3f6 Rx d 8 00 00 00 00 b6 14 00 00 
0.622800 1 443 Rx d 6 79 0e ff 03 00 00 
0.623700 1 549 Rx d 6 00 00 00 00 00 01 
0.624000 1 2a8 Rx d 8 02 10 00 00 06 00 e0 a2 
0.624300 1 3f9 Rx d 8 05 00 00 00 00 00 00 00 
0.625200 1 225 Rx d 4 05 45 d2 00 
0.625500 1 23e Rx d 8 f4 01 3a b8 fa fc 7f 9c 
0.625700 1 2e1 Rx d 8 02 6c 7f 02 41 66 00 00 
0.626000 1 22b Rx d 8 ff ff ff ff ff ff ff ff 
0.626200 1 381 Rx d 8 05 51 a5 ff 00 75 c8 28 
0.628100 1 3e9 Rx d 8 f1 80 02 00 00 00 00 5f 
0.628300 1 1fa Rx d 3 22 c0 01 
0.628600 1 243 Rx d 8 00 fc cf 8c be 02 41 29 
0.629600 1 129 Rx d 8 de 2e 40 20 00 20 ff 3f 
0.629800 1 132 Rx d 6 58 88 f7 ff 24 40 
0.630300 1 428 Rx d 7 00 00 10 10 00 00 00 
0.630900 1 283 Rx d 6 00 00 00 00 00 00 
0.631100 1 339 Rx d 8 01 71 02 00 00 02 40 02 
0.632300 1 409 Rx d 1 00 
0.632500 1 78a Rx d 8 01 00 06 00 02 00 00 00 
0.633300 1 2a1 Rx d 6 00 00 98 3a 00 00 
0.633600 1 797 Rx d 4 14 09 a0 58 
0.635100 1 261 Rx d 8 d3 4a 0a 00 00 40 15 72 
0.635400 1 242 Rx d 4 10 15 04 05 
0.635800 1 682 Rx d 8 00 00 00 40 05 02 a0 c7 
0.636300 1 400 Rx d 7 00 e0 fb be ef fb 00 
0.637400 1 3c0 Rx d 8 06 00 00 00 00 00 00 00 
0.637900 1 221 Rx d 8 41 01 55 51 01 02 40 4e 
0.638300 1 1f9 Rx d 8 00 00 00 00 00 00 00 00 
0.638600 1 263 Rx d 8 00 d0 e7 89 d4 07 55 1f 
0.639500 1 129 Rx d 8 82 2f 40 20 01 20 ff 3f 
0.639700 1 3e8 Rx d 8 05 00 00 00 00 00 00 00 
0.641500 1 132 Rx d 6 57 88 f7 ff 25 40 
0.641700 1 2e1 Rx d 8 fb 19 4f 69 92 45 09 00 
0.642000 1 2c1 Rx d 8 48 3c 7e 00 00 8a 02 07 
0.642200 1 3ae Rx d 8 00 40 00 08 00 00 10 59 
0.642500 1 360 Rx d 8 06 00 00 00 00 00 00 00 
0.642700 1 103 Rx d 8 22 b3 88 04 92 2c 21 02 
0.643800 1 677 Rx d 8 02 00 00 00 00 00 00 00 
0.644800 1 234 Rx d 8 24 e1 03 80 43 00 f4 5a 
0.645300 1 119 Rx d 4 00 00 00 00 
0.646200 1 2ec Rx d 3 2f a0 bd 
0.646400 1 142 Rx d 8 28 00 02 5f 00 00 01 00 
0.647400 1 201 Rx d 8 b8 c1 02 80 22 9b 41 05 
0.647700 1 2c7 Rx d 8 00 00 00 00 00 00 4d ff 
0.647900 1 2a6 Rx d 8 00 00 6a 18 00 00 00 00 
0.648300 1 2a7 Rx d 8 00 00 00 00 00 74 05 84 
0.648600 1 123 Rx d 8 01 00 00 00 00 3f 00 00 
0.648800 1 129 Rx d 8 ca 20 40 20 00 20 ff 3f 
0.649200 1 243 Rx d 8 01 fc 6b 00 6f 00 7c 7c 
0.649500 1 102 Rx d 8 22 b3 88 04 8c 0c 21 08 
0.649700 1 261 Rx d 8 4c ff 37 49 00 40 24 25 
0.650300 1 132 Rx d 6 59 88 f7 ff 27 40 
0.651200 1 31a Rx d 8 60 fc ff 02 00 00 d0 4a 
0.651500 1 113 Rx d 3 01 97 01 
0.651700 1 318 Rx d 8 1a 08 27 09 18 32 3f f6 
0.652000 1 458 Rx d 7 00 00 00 00 40 00 00 
0.652200 1 439 Rx d 8 02 00 40 00 00 38 00 00 
0.652400 1 7a8 Rx d 8 01 00 00 00 ff a1 98 12 
0.652700 1 3a2 Rx d 8 82 2a 00 00 20 00 00 00 
0.652800 1 545 Rx d 8 02 00 09 00 00 00 a0 f5 
0.653000 1 7f4 Rx d 1 01 
0.653500 1 7ff Rx d 8 03 33 08 00 e0 22 16 00 
0.654300 1 3a1 Rx d 8 e8 42 0d 8a 01 08 62 ec 
0.654900 1 3a3 Rx d 8 00 e0 00 00 38 03 fc 01 
0.656200 1 39d Rx d 5 07 5f e1 27 00 
0.657400 1 122 Rx d 8 00 00 12 92 12 00 00 00 
0.657600 1 228 Rx d 8 03 16 54 8c 80 80 b1 d4 
0.657900 1 2e1 Rx d 8 04 00 00 80 48 34 26 00 
0.658100 1 31e Rx d 8 01 00 00 00 00 00 00 00 
0.658400 1 21d Rx d 8 04 00 35 00 00 00 00 00 
0.658600 1 263 Rx d 8 01 d0 c7 b1 8c c7 54 1f 
0.658800 1 129 Rx d 8 dd 21 40 20 00 20 ff 3f 
0.659100 1 25d Rx d 8 36 41 01 16 04 f0 d8 03 
0.659300 1 2b3 Rx d 8 05 00 3a 00 d5 81 96 96 
0.659400 1 27d Rx d 8 00 00 00 00 00 00 00 00 
0.659600 1 41d Rx d 1 00 
0.659800 1 132 Rx d 6 5a 88 f7 ff 28 40 
0.660000 1 29d Rx d 5 00 00 00 20 00 
0.660300 1 43d Rx d 6 00 00 ff 1f 40 00 
0.660500 1 393 Rx d 8 09 80 63 00 00 00 00 00 
0.660700 1 2bd Rx d 4 00 00 00 00 
0.660900 1 333 Rx d 5 04 10 e8 07 00 
0.661100 1 334 Rx d 8 bf 3f 0a 04 ff 01 41 84 
0.661400 1 3fd Rx d 8 00 00 00 3c 20 00 01 80 
0.661600 1 42a Rx d 8 f9 6b fe 9a bf e6 af 55 
0.661900 1 2c1 Rx d 8 21 23 2b fa 02 00 00 00 
0.662100 1 381 Rx d 8 46 00 00 00 08 01 00 03 
0.662300 1 3ae Rx d 8 00 40 00 08 00 00 21 6a 
0.662600 1 49d Rx d 7 00 00 00 00 00 00 00 
0.663200 1 719 Rx d 8 53 00 10 00 00 00 00 00 
0.663400 1 272 Rx d 8 09 80 63 00 00 00 00 00 
0.665100 1 7b8 Rx d 8 06 00 00 00 00 00 a0 c0 
0.665500 1 23e Rx d 8 f4 01 3a b8 fa fc 8f ac 
0.665700 1 340 Rx d 8 06 00 00 00 00 00 00 00 
0.666300 1 261 Rx d 8 05 22 f1 c7 9a 42 30 e1 
0.666600 1 20c Rx d 8 00 c0 56 1e 00 30 09 00 
0.666800 1 7aa Rx d 8 07 f7 ff f7 ff f1 ff 48 
0.667000 1 212 Rx d 8 58 04 00 00 82 ff 77 62 
0.667300 1 252 Rx d 8 00 00 80 06 00 c8 16 00 
0.667500 1 292 Rx d 8 2e ee 98 24 8c 01 00 00 
0.667600 1 2d2 Rx d 8 70 29 a4 4e 00 00 a1 01 
0.667900 1 2f2 Rx d 2 12 01 
0.668300 1 379 Rx d 8 00 00 0a 48 33 bf 21 00 
0.668600 1 243 Rx d 8 02 c8 99 12 00 44 00 00 
0.668800 1 129 Rx d 8 94 22 40 20 00 20 ff 3f 
0.668900 1 45a Rx d 8 20 4b 4b cb 3f 49 00 6b 
0.669100 1 229 Rx d 3 f9 07 00 
0.669400 1 249 Rx d 4 e2 0a 00 00 
0.669600 1 54f Rx d 8 00 00 00 00 00 00 00 00 
0.669800 1 2e8 Rx d 8 02 10 00 00 06 00 e0 e2 
0.670100 1 132 Rx d 6 57 88 f7 ff 25 40 
0.670300 1 441 Rx d 8 13 85 89 00 32 00 18 d4 
0.670900 1 282 Rx d 8 00 00 00 00 e8 33 0b 24 
0.671200 1 25b Rx d 8 d3 c0 02 05 6a 86 c0 a5 
0.671400 1 40a Rx d 8 01 00 01 00 00 00 d0 e0 
0.671700 1 3c2 Rx d 8 00 55 55 55 00 00 59 45 
0.672300 1 201 Rx d 8 01 04 18 01 01 00 80 c4 
0.673400 1 4e3 Rx d 8 02 7e 00 00 00 00 a8 03 
0.674800 1 2e1 Rx d 8 45 80 00 00 38 12 8c 6a 
0.675400 1 139 Rx d 1 00 
0.675700 1 448 Rx d 7 00 00 10 10 00 00 00 
0.676400 1 22b Rx d 8 ff ff ff ff ff ff ff ff 
0.676800 1 241 Rx d 7 35 32 0c 0f 8f 55 00 
0.677100 1 22a Rx d 4 00 00 d9 15 
0.678300 1 1f8 Rx d 4 00 00 00 00 
0.678600 1 343 Rx d 8 00 92 5c 8e 95 00 00 00 
0.678800 1 129 Rx d 8 83 23 40 20 00 20 ff 3f 
0.679500 1 263 Rx d 8 02 00 00 00 00 00 00 00 
0.679800 1 132 Rx d 6 69 88 f7 ff 28 40 
0.681400 1 6c8 Rx d 8 01 00 00 00 00 00 00 00 
0.681700 1 261 Rx d 8 00 10 d7 ff d0 4c 40 38 
0.681900 1 2c1 Rx d 8 02 0d 06 05 00 d0 92 c1 
0.682200 1 37a Rx d 8 d0 00 00 00 00 00 00 00 
0.684200 1 677 Rx d 8 03 00 00 00 00 00 00 00 
0.684400 1 289 Rx d 8 a8 02 01 40 9d 00 3d 0f 
0.685200 1 3c3 Rx d 8 55 55 55 01 00 80 43 00 
0.685400 1 3a2 Rx d 8 60 85 72 a9 04 80 c0 73 
0.687400 1 545 Rx d 8 40 01 27 00 95 48 b9 48 
0.687700 1 2f1 Rx d 8 03 91 48 01 41 00 01 00 
0.687800 1 221 Rx d 8 40 41 05 05 00 50 51 4f 
0.688300 1 789 Rx d 4 54 11 b0 17 
0.688600 1 243 Rx d 8 03 00 00 80 11 4c 08 00 
0.688900 1 129 Rx d 8 05 24 40 20 00 20 ff 3f 
0.689100 1 359 Rx d 8 40 00 00 00 00 00 00 00 
0.689500 1 726 Rx d 3 0c 00 00 
0.689700 1 2e1 Rx d 8 10 21 04 00 12 00 20 08 
0.690300 1 132 Rx d 6 62 88 f7 ff 27 40 
0.691200 1 553 Rx d 8 00 00 00 00 00 00 b0 08 
0.693700 1 4e2 Rx d 8 02 38 05 00 00 00 28 25 
0.694000 1 3c8 Rx d 8 06 00 00 00 00 00 00 00 
0.694900 1 234 Rx d 8 1b b0 01 24 91 04 00 20 
0.695900 1 39d Rx d 5 f8 50 e1 27 00 
0.696100 1 38a Rx d 8 00 00 00 00 00 00 00 00 
0.696400 1 2c4 Rx d 8 55 00 01 08 20 00 ff 00 
0.696600 1 142 Rx d 8 01 00 40 0a c0 1b 00 00 
0.696900 1 201 Rx d 8 82 02 00 00 00 00 98 3b 
0.697100 1 204 Rx d 8 01 00 00 ff 00 00 00 10 
0.697400 1 383 Rx d 8 b1 18 49 00 55 e0 c0 0b 
0.697600 1 264 Rx d 6 39 00 00 00 a0 00 
0.697900 1 261 Rx d 8 31 00 ab ff 55 49 5a c9 
0.698100 1 381 Rx d 8 07 00 00 54 7d 27 00 00 
0.698300 1 709 Rx d 8 00 00 01 04 40 00 01 10 
0.698600 1 224 Rx d 8 04 08 00 48 19 01 10 08 
0.698800 1 129 Rx d 8 12 25 40 20 00 20 ff 3f 
0.699000 1 263 Rx d 8 03 00 00 00 00 00 00 ff 
0.699300 1 2b4 Rx d 6 11 05 a7 0d d0 00 
0.699400 1 3f5 Rx d 8 00 00 c4 08 80 04 00 00 
0.699600 1 419 Rx d 1 00 
0.699700 1 132 Rx d 6 5e 88 f7 ff 25 40 
0.700000 1 2aa Rx d 3 2f b0 8b 
0.700700 1 552 Rx d 8 00 00 00 00 00 00 b0 07 
0.700800 1 38b Rx d 8 fe fe 7f 0f c0 80 25 03 
0.701100 1 20e Rx d 3 13 03 00 
0.701500 1 3ae Rx d 8 00 40 00 08 00 00 31 7a 
0.702300 1 2c1 Rx d 8 8b 16 13 00 00 00 00 00 
0.702900 1 423 Rx d 7 00 00 00 00 08 00 00 
0.703500 1 39a Rx d 8 f8 06 db 4a ff fd fd 11 
0.705200 1 3a1 Rx d 8 2b fa 40 6b 3e 00 70 3e 
0.705400 1 422 Rx d 6 70 00 10 00 00 00 
0.705600 1 23e Rx d 8 f4 01 3a b8 fa fc 9f bc 
0.705900 1 2e1 Rx d 8 29 ea 1f ad 1f 28 00 00 
0.708300 1 788 Rx d 8 02 40 cf 07 00 00 00 00 
0.708600 1 2c3 Rx d 8 55 a3 a8 b6 02 00 12 a5 
0.708800 1 243 Rx d 8 04 cc f1 ff fd 7f 6b 6f 
0.709200 1 129 Rx d 8 c8 26 40 20 00 20 ff 3f 
0.709500 1 2f3 Rx d 8 0e 0e 0b 00 00 20 00 00 
0.709700 1 273 Rx d 8 81 e1 10 00 c4 00 10 01 
0.709800 1 132 Rx d 6 5e 88 f8 ff 27 40 
0.710000 1 2d1 Rx d 2 7f 01 
0.710600 1 219 Rx d 7 00 80 ff ff ff f8 0f 
0.710900 1 3fd Rx d 8 01 00 02 00 00 08 12 80 
0.711800 1 719 Rx d 8 03 00 00 00 00 00 00 00 
0.712200 1 288 Rx d 8 03 16 54 8c 80 80 c1 44 
0.713400 1 2c2 Rx d 8 55 63 a8 46 01 00 1a a5 
0.716300 1 261 Rx d 8 a2 28 83 02 80 5c 62 83 
0.716500 1 2e3 Rx d 7 f7 d3 4f 3e 99 d0 06 
0.716900 1 420 Rx d 8 28 01 40 4b 00 00 00 01 
0.717700 1 2f9 Rx d 8 88 fb 07 03 a1 ee 6f c9 
0.718200 1 798 Rx d 8 18 22 08 56 ac 01 b0 a1 
0.718400 1 3a2 Rx d 8 01 10 20 00 09 f0 ff 00 
0.718700 1 263 Rx d 8 04 00 00 00 20 04 00 00 
0.718900 1 129 Rx d 8 df 27 40 20 00 20 ff 3f 
0.719100 1 2b3 Rx d 8 06 1a d9 40 93 40 a2 d4 
0.719300 1 249 Rx d 4 28 0b 00 00 
0.719500 1 45a Rx d 8 fd 07 f8 ff 03 00 00 33 
0.719700 1 441 Rx d 8 2e 00 b6 c3 58 00 1d 85 
0.720000 1 132 Rx d 6 69 88 f7 ff 23 40 
0.720400 1 545 Rx d 8 01 00 00 00 00 10 c0 1b 
0.720800 1 421 Rx d 7 00 14 00 00 00 d0 48 
0.721100 1 332 Rx d 6 10 0b 98 95 97 00 
0.721300 1 300 Rx d 8 14 05 00 00 fc 21 82 ed 
0.721400 1 2e2 Rx d 8 03 00 00 d8 02 1b 00 80 
0.721700 1 311 Rx d 2 ff 03 
0.721900 1 201 Rx d 8 83 02 00 00 00 00 b8 3b 
0.722100 1 2c1 Rx d 8 04 00 10 0e 0d 10 08 12 
0.722400 1 2e1 Rx d 8 02 6c 7f 02 41 66 00 00 
0.722600 1 3c2 Rx d 8 29 55 00 00 00 00 00 80 
0.722900 1 3d2 Rx d 8 a6 c1 d5 00 0a 01 df 00 
0.723000 1 3f2 Rx d 8 0b 7f 10 16 80 30 d8 00 
0.723300 1 452 Rx d 3 16 85 00 
0.723500 1 472 Rx d 8 ff 00 80 02 00 7f ff 07 
0.723700 1 492 Rx d 7 7d 03 ff 0f 28 00 00 
0.724000 1 677 Rx d 8 04 00 00 00 00 00 00 00 
0.724200 1 2a8 Rx d 8 02 10 00 00 06 00 f0 b2 
0.724400 1 3f9 Rx d 8 06 00 00 00 00 00 00 00 
0.724600 1 225 Rx d 4 05 45 d2 00 
0.724800 1 718 Rx d 7 02 00 00 00 00 00 00 
0.725700 1 724 Rx d 3 07 00 00 
0.728100 1 22b Rx d 8 ff ff ff ff ff ff ff ff 
0.728300 1 1fa Rx d 3 22 c0 01 
0.728600 1 243 Rx d 8 00 fc cf 8c be 02 41 29 
0.729500 1 129 Rx d 8 08 28 40 20 00 20 ff 3f 
0.729700 1 261 Rx d 8 d3 4a 0a 00 00 40 75 d2 
0.729900 1 132 Rx d 6 57 88 f7 ff 27 40 
0.730200 1 320 Rx d 8 80 00 00 00 00 00 00 00 
0.730400 1 428 Rx d 7 00 00 10 10 00 00 00 
0.730700 1 283 Rx d 6 00 00 00 00 00 00 
0.730900 1 372 Rx d 8 00 08 00 9f 72 12 28 23 
0.731100 1 401 Rx d 8 00 2a a9 80 a5 80 ad 80 
0.731300 1 339 Rx d 8 01 71 02 00 00 02 40 02 
0.732400 1 409 Rx d 1 00 
0.732700 1 2a1 Rx d 6 00 00 98 3a 00 00 
0.732900 1 3aa Rx d 8 01 00 00 00 00 00 00 00 
0.733200 1 77a Rx d 8 a1 16 cc 5d e4 5d d8 5d 
0.733400 1 78a Rx d 8 01 00 00 00 20 13 13 0d 
0.733600 1 797 Rx d 4 14 09 b0 68 
0.734900 1 381 Rx d 8 08 80 1d f8 06 00 00 00 
0.735100 1 39d Rx d 5 f9 51 e1 27 00 
0.735400 1 242 Rx d 4 10 15 04 05 
0.735900 1 682 Rx d 8 00 00 00 40 05 02 b0 d7 
0.736300 1 400 Rx d 7 00 e0 fb be ef fb 00 
0.737400 1 3c0 Rx d 8 07 00 00 00 00 00 00 00 
0.737700 1 2e1 Rx d 8 fb 19 4d 69 92 42 09 00 
0.737900 1 221 Rx d 8 41 01 55 51 01 02 60 6e 
0.738400 1 1f9 Rx d 8 00 00 00 00 00 00 00 00 
0.738600 1 263 Rx d 8 00 d0 e7 89 d4 07 55 1f 
0.739500 1 129 Rx d 8 5d 29 40 20 00 20 ff 3f 
0.739700 1 3e8 Rx d 8 06 00 00 00 00 00 00 00 
0.741500 1 132 Rx d 6 56 88 f7 ff 28 40 
0.741900 1 2c1 Rx d 8 48 3c 7e 00 00 8a 02 07 
0.742200 1 3ae Rx d 8 00 40 00 08 00 00 41 8a 
0.742400 1 360 Rx d 8 07 00 00 00 00 00 00 00 
0.743800 1 103 Rx d 8 22 b3 88 04 92 2c 21 02 
0.744800 1 234 Rx d 8 24 e1 03 80 43 00 14 7a 
0.745100 1 119 Rx d 4 00 00 00 00 
0.745400 1 23e Rx d 8 f4 01 3a b8 fa fc af cc 
0.745600 1 261 Rx d 8 4c ff 37 49 00 40 84 85 
0.746200 1 2ec Rx d 3 2f b0 cd 
0.746500 1 142 Rx d 8 28 00 02 5f 00 00 01 00 
0.747400 1 201 Rx d 8 c8 d1 02 80 22 97 41 05 
0.747600 1 7aa Rx d 8 08 00 00 00 1c 01 1b 0e 
0.747900 1 2a6 Rx d 8 00 00 6a 18 00 00 00 00 
0.748100 1 2a7 Rx d 8 00 00 00 00 00 74 05 84 
0.748300 1 2c7 Rx d 8 00 00 00 00 00 00 4d ff 
0.748600 1 123 Rx d 8 00 00 12 92 d2 00 00 80 
0.748800 1 129 Rx d 8 82 2a 40 20 00 20 ff 3f 
0.749200 1 243 Rx d 8 01 fc 6b 00 6f 00 7c 7c 
0.749600 1 102 Rx d 8 22 b3 88 04 8c 0c 21 08 
0.749800 1 132 Rx d 6 51 88 f7 ff 25 40 
0.751200 1 401 Rx d 8 01 2a ad 80 b6 80 a6 80 
0.751300 1 3a2 Rx d 8 72 2a 00 00 20 00 00 00 
0.751600 1 113 Rx d 3 01 97 01 
0.751800 1 318 Rx d 8 1a 08 27 09 18 32 21 d8 
0.752000 1 458 Rx d 7 00 00 00 00 40 00 00 
0.752300 1 439 Rx d 8 02 00 40 00 00 38 00 00 
0.752500 1 545 Rx d 8 02 00 09 00 00 00 d0 25 
0.752600 1 7a8 Rx d 8 02 40 d0 07 00 07 00 00 
0.752900 1 7f4 Rx d 1 01 
0.753500 1 7ff Rx d 8 04 21 fb a8 60 20 a4 20 
0.753700 1 2e1 Rx d 8 04 00 00 80 48 34 26 00 
0.754300 1 3a1 Rx d 8 e8 42 0d 8a 01 08 82 0c 
0.756200 1 3a3 Rx d 8 00 e0 00 00 38 03 fc 01 
0.757400 1 122 Rx d 8 01 00 00 00 00 3f 00 00 
0.757800 1 228 Rx d 8 03 16 54 8c 80 80 c1 e4 
0.758000 1 75d Rx d 8 01 00 00 00 00 00 20 a2 
0.758100 1 31e Rx d 8 02 00 00 00 00 00 00 00 
0.758400 1 41d Rx d 1 00 
0.758600 1 21d Rx d 8 04 00 35 00 00 00 00 00 
0.758900 1 129 Rx d 8 1a 2b 40 20 ff 1f ff 3f 
0.759100 1 25d Rx d 8 36 41 01 16 04 f0 d8 03 
0.759300 1 263 Rx d 8 01 d0 c7 b1 8c c7 54 1f 
0.759600 1 27d Rx d 8 00 00 00 00 00 00 00 00 
0.759800 1 294 Rx d 8 14 c1 40 00 00 00 00 00 
0.760000 1 132 Rx d 6 5c 88 f8 ff 29 40 
0.760300 1 29d Rx d 5 00 00 00 20 00 
0.760500 1 393 Rx d 8 06 00 ee 70 07 b0 07 08 
0.760900 1 2bd Rx d 4 00 00 00 00 
0.761200 1 719 Rx d 8 14 00 00 00 00 79 00 00 
0.761500 1 43d Rx d 6 00 00 ff 1f 40 00 
0.761700 1 3fd Rx d 8 02 00 00 00 00 00 00 90 
0.761900 1 261 Rx d 8 05 22 f1 c7 9a 42 90 41 
0.762200 1 2c1 Rx d 8 21 23 2b fa 02 00 00 00 
0.762400 1 49d Rx d 7 00 00 00 00 00 00 00 
0.763200 1 677 Rx d 8 00 00 00 00 00 00 00 00 
0.763400 1 272 Rx d 8 06 00 ef 78 07 b0 07 08 
0.765500 1 7b8 Rx d 8 30 a2 08 73 28 02 b0 41 
0.766300 1 340 Rx d 8 07 00 00 00 00 00 00 00 
0.767900 1 20c Rx d 8 00 c0 56 1e 00 30 09 00 
0.768300 1 379 Rx d 8 01 00 0a 48 33 bf 21 00 
0.768600 1 243 Rx d 8 02 c8 99 12 00 44 00 00 
0.768800 1 129 Rx d 8 be 2c 40 20 01 20 ff 3f 
0.769000 1 45a Rx d 8 20 4b 4b cb 3f 49 00 6b 
0.769200 1 212 Rx d 8 58 04 00 00 82 ff 77 62 
0.769400 1 229 Rx d 3 4c 08 00 
0.769600 1 252 Rx d 8 00 00 80 06 00 c8 16 00 
0.769800 1 249 Rx d 4 3a 0c 00 00 
0.770000 1 292 Rx d 8 2e ee 98 24 8c 01 00 00 
0.770300 1 132 Rx d 6 61 88 f7 ff 28 40 
0.770500 1 282 Rx d 8 00 00 00 00 e8 33 0b 24 
0.770700 1 2d2 Rx d 8 6f 29 a4 4e 00 00 a1 01 
0.771000 1 2e1 Rx d 8 45 80 00 00 38 12 8c 6a 
0.771200 1 23a Rx d 8 0f 32 68 ef 3e 1c 34 d7 
0.771400 1 25b Rx d 8 d3 c0 02 05 6a 86 d0 b5 
0.771700 1 2e8 Rx d 8 02 10 00 00 06 00 f0 f2 
0.771800 1 201 Rx d 8 01 04 18 01 01 00 80 c4 
0.771900 1 2f2 Rx d 2 12 01 
0.772200 1 35f Rx d 1 00 
0.772400 1 381 Rx d 8 09 00 00 82 00 00 00 6c 
0.772600 1 3c2 Rx d 8 00 55 55 55 00 00 59 45 
0.772800 1 3e2 Rx d 7 00 00 80 da 3f c0 04 
0.773100 1 401 Rx d 8 02 2a b0 80 ae 80 b9 80 
0.773300 1 42e Rx d 8 00 e0 bf ff fe ef bf ff 
0.773500 1 42f Rx d 7 6c 5c c9 02 fa 00 ff 
0.773800 1 441 Rx d 8 13 85 89 00 32 00 20 dc 
0.774000 1 4e3 Rx d 8 03 59 00 00 00 00 a8 0c 
0.774800 1 54f Rx d 8 00 00 00 00 00 00 00 00 
0.775000 1 139 Rx d 1 00 
0.775500 1 39d Rx d 5 fa 52 e1 27 00 
0.775800 1 448 Rx d 7 00 00 10 10 00 00 00 
0.776400 1 22b Rx d 8 ff ff ff ff ff ff ff ff 
0.776800 1 241 Rx d 7 37 32 4c 0f 8f 55 00 
0.777100 1 22a Rx d 4 00 00 d9 15 
0.777500 1 1f8 Rx d 4 00 00 00 00 
0.778300 1 261 Rx d 8 00 10 d6 ff d0 4c a0 97 
0.778600 1 343 Rx d 8 00 92 64 8e 95 00 00 00 
0.778800 1 129 Rx d 8 01 2d 40 20 00 20 ff 3f 
0.779100 1 263 Rx d 8 02 00 00 00 00 00 00 00 
0.779600 1 2b3 Rx d 8 07 50 99 50 2c 0c 00 00 
0.780900 1 132 Rx d 6 65 88 f7 ff 29 40 
0.781500 1 3ae Rx d 8 00 40 00 08 00 00 51 9a 
0.781900 1 2c1 Rx d 8 02 0d 06 05 00 d0 92 c1 
0.782200 1 37a Rx d 8 b1 00 00 00 00 00 00 00 
0.784200 1 727 Rx d 2 03 00 
0.784400 1 289 Rx d 8 a8 02 01 80 90 00 3d 0f 
0.784700 1 3a2 Rx d 8 60 c5 f2 aa 04 80 c0 73 
0.784900 1 3c3 Rx d 8 00 00 00 00 00 45 00 00 
0.785000 1 3e3 Rx d 4 00 00 00 00 
0.785300 1 545 Rx d 8 40 01 27 10 95 49 e9 89 
0.785500 1 23e Rx d 8 f4 01 3a b8 fa fc bf dc 
0.787400 1 2e1 Rx d 8 10 21 04 00 12 00 20 08 
0.787700 1 2f1 Rx d 8 04 10 44 81 34 00 01 00 
0.787800 1 221 Rx d 8 40 41 05 05 00 50 71 6f 
0.788300 1 789 Rx d 4 54 11 c0 27 
0.788600 1 243 Rx d 8 03 00 00 80 11 4c 08 00 
0.788900 1 129 Rx d 8 de 2e 40 20 00 20 ff 3f 
0.789600 1 359 Rx d 8 c8 3f 00 00 0c 00 00 02 
0.789800 1 132 Rx d 6 4f 88 f8 ff 27 40 
0.790000 1 372 Rx d 8 01 db 15 04 40 00 30 01 
0.790300 1 401 Rx d 8 03 2a b0 80 ad 80 a5 80 
0.791200 1 553 Rx d 8 00 00 00 00 00 00 c0 18 
0.793400 1 4e2 Rx d 8 03 49 00 00 00 00 a8 0c 
0.793800 1 261 Rx d 8 31 00 a2 ff 55 49 ba 20 
0.794000 1 3c8 Rx d 8 00 00 00 00 00 00 00 00 
0.795900 1 234 Rx d 8 1b b0 01 24 91 04 20 40 
0.796100 1 38a Rx d 8 01 00 00 00 00 00 00 00 
0.796400 1 2c4 Rx d 8 16 c0 b4 02 00 00 00 01 
0.796600 1 142 Rx d 8 01 00 40 0a c0 1b 00 00 
0.796900 1 201 Rx d 8 82 02 00 00 00 00 98 3b 
0.797100 1 204 Rx d 8 01 00 00 ff 00 00 00 10 
0.797400 1 383 Rx d 8 b1 18 49 00 55 e0 c0 0b 
0.798100 1 264 Rx d 6 39 00 00 00 a0 00 
0.798300 1 224 Rx d 8 04 08 00 48 19 01 10 08 
0.798500 1 2b4 Rx d 6 11 05 a6 0d d6 00 
0.798800 1 263 Rx d 8 03 00 00 00 00 00 00 ff 
0.799000 1 129 Rx d 8 2f 2f 40 20 00 20 ff 3f 
0.799100 1 3f5 Rx d 8 00 00 c4 08 80 04 00 00 
0.799400 1 419 Rx d 1 00 
0.799600 1 552 Rx d 8 00 00 00 00 00 00 c0 17 
0.799700 1 132 Rx d 6 59 88 f7 ff 27 40 
0.800600 1 2aa Rx d 3 2f c0 9b 
0.801500 1 20e Rx d 3 14 04 00 
0.801700 1 2e1 Rx d 8 29 ea 1f ad 1f 28 00 00 
0.802000 1 2c1 Rx d 8 8b 16 13 00 00 00 00 00 
0.802300 1 677 Rx d 8 01 00 00 00 00 00 00 00 
0.802900 1 423 Rx d 7 00 00 00 00 08 00 00 
0.803500 1 39a Rx d 8 fd fd fd fd fd 01 00 02 
0.805200 1 3a1 Rx d 8 2b fa 40 63 3e 00 90 56 
0.805400 1 422 Rx d 6 70 00 10 00 00 00 
0.805700 1 381 Rx d 8 0a 30 32 02 00 ec 76 00 
0.808300 1 788 Rx d 8 a8 bc 71 63 00 00 80 00 
0.808600 1 2c3 Rx d 8 00 00 00 4b 01 00 80 cb 
0.808800 1 129 Rx d 8 a3 20 40 20 ff 1f ff 3f 
0.809400 1 243 Rx d 8 04 cc f1 ff fd 7f 6b 6f 
0.809600 1 2d1 Rx d 2 7f 01 
0.809800 1 261 Rx d 8 a2 28 83 02 80 5c c2 e3 
0.810000 1 132 Rx d 6 59 88 f7 ff 27 40 
0.810200 1 219 Rx d 7 01 80 ff ff ff f9 0f 
0.810500 1 238 Rx d 8 f0 27 9c d0 1f 00 36 12 
0.810700 1 401 Rx d 8 04 2a b5 80 ac 80 a1 80 
0.811000 1 61d Rx d 8 74 28 8f 2c ac 36 29 10 
0.811200 1 34a Rx d 8 03 00 00 00 00 00 00 00 
0.811400 1 43b Rx d 8 02 7f 00 ff 00 00 00 00 
0.811800 1 719 Rx d 8 15 11 00 1d a4 01 00 00 
0.812200 1 288 Rx d 8 03 16 54 8c 80 80 d1 54 
0.814900 1 2c2 Rx d 8 20 40 40 6a 01 00 00 cb 
0.816600 1 39d Rx d 5 fb 53 e1 27 00 
0.816800 1 7aa Rx d 8 09 fa 06 fa 06 01 00 00 
0.817000 1 420 Rx d 8 28 01 40 4b 00 00 80 01 
0.817300 1 2f9 Rx d 8 88 fb 07 08 a1 ee 6f c9 
0.817500 1 3a2 Rx d 8 01 10 20 00 07 f0 ff 00 
0.817700 1 2e1 Rx d 8 02 6c 7f 02 41 66 00 00 
0.818000 1 545 Rx d 8 01 00 00 00 00 10 f0 4b 
0.818400 1 798 Rx d 8 51 f6 02 42 08 01 c0 00 
0.818600 1 263 Rx d 8 04 00 00 00 20 04 00 00 
0.818900 1 129 Rx d 8 dd 21 40 20 00 20 ff 3f 
0.819000 1 45a Rx d 8 fd 07 f8 ff 03 00 00 33 
0.819500 1 249 Rx d 4 13 0d 00 00 
0.819700 1 441 Rx d 8 2e 00 b6 c3 58 00 25 8d 
0.820400 1 132 Rx d 6 5e 88 f7 ff 25 40 
0.821000 1 421 Rx d 7 00 14 00 00 00 d0 48 
0.821200 1 3cc Rx d 8 03 11 c3 18 18 0e 09 00 
0.821500 1 3a8 Rx d 8 03 00 00 00 00 00 00 00 
0.821700 1 3c2 Rx d 8 29 55 00 00 00 00 00 80 
0.821900 1 201 Rx d 8 83 02 00 00 00 00 b8 3b 
0.822200 1 2bf Rx d 7 0a 00 00 00 00 10 00 
0.822400 1 2c1 Rx d 8 04 00 10 0e 0d 10 08 12 
0.822700 1 3ae Rx d 8 00 40 00 08 00 00 61 aa 
0.823700 1 3bd Rx d 8 02 00 00 00 00 00 00 00 
0.824000 1 2a8 Rx d 8 02 10 00 00 06 00 00 c2 
0.824300 1 3f9 Rx d 8 07 00 00 00 00 00 00 00 
0.825300 1 225 Rx d 4 05 45 d2 00 
0.825500 1 23e Rx d 8 f4 01 3a b8 fa fc cf ec 
0.825700 1 261 Rx d 8 d3 4a 0a 00 00 40 d5 32 
0.828100 1 22b Rx d 8 ff ff ff ff ff ff ff ff 
0.828300 1 1fa Rx d 3 22 c0 01 
0.828600 1 243 Rx d 8 00 fc cf 8c be 02 41 29 
0.829600 1 129 Rx d 8 94 22 40 20 00 20 ff 3f 
0.829800 1 132 Rx d 6 60 88 f7 ff 28 40 
0.830000 1 401 Rx d 8 05 2a a5 80 a8 80 ad 80 
0.830300 1 428 Rx d 7 00 00 10 10 00 00 00 
0.831000 1 283 Rx d 6 00 00 00 00 00 00 
0.831100 1 339 Rx d 8 01 71 02 00 00 02 40 02 
0.831300 1 2d7 Rx d 4 01 00 00 80 
0.832300 1 409 Rx d 1 00 
0.832500 1 78a Rx d 8 01 00 01 00 e4 5d 84 5d 
0.833400 1 2a1 Rx d 6 00 00 98 3a 00 00 
0.833600 1 797 Rx d 4 14 09 c0 78 
0.835100 1 2e1 Rx d 8 fb 19 4f 69 92 3c 09 00 
0.835200 1 682 Rx d 8 00 00 00 40 05 02 c0 e7 
0.835800 1 242 Rx d 4 10 15 04 05 
0.836300 1 400 Rx d 7 00 e0 fb be ef fb 00 
0.837400 1 3c0 Rx d 8 08 00 00 00 00 00 00 00 
0.837900 1 221 Rx d 8 41 01 55 51 01 02 80 8e 
0.838400 1 1f9 Rx d 8 00 00 00 00 00 00 00 00 
0.838600 1 263 Rx d 8 00 d0 e7 89 d4 07 55 1f 
0.838800 1 129 Rx d 8 ea 23 40 20 ff 1f ff 3f 
0.839500 1 2b3 Rx d 8 08 fa fc 1b 2d 9b af af 
0.839700 1 3e8 Rx d 8 00 00 00 00 00 00 00 00 
0.841400 1 132 Rx d 6 5e 88 f7 ff 28 40 
0.841700 1 261 Rx d 8 4c ff 37 49 00 40 e4 e5 
0.841900 1 2c1 Rx d 8 48 3c 7e 00 00 8a 02 07 
0.842200 1 381 Rx d 8 0b 00 00 c8 00 00 3c 06 
0.842400 1 677 Rx d 8 02 00 00 00 00 00 00 00 
0.842700 1 103 Rx d 8 22 b3 88 04 92 2c 21 02 
0.843400 1 360 Rx d 8 08 00 00 00 00 00 04 00 
0.843800 1 748 Rx d 5 2e 22 0b 00 00 
0.844800 1 234 Rx d 8 24 e1 03 80 43 00 34 9a 
0.845400 1 119 Rx d 4 00 00 00 00 
0.846200 1 2ec Rx d 3 2f c0 dd 
0.846500 1 142 Rx d 8 28 00 02 5f 00 00 01 00 
0.847400 1 201 Rx d 8 b8 c1 02 80 22 97 41 05 
0.847700 1 2c7 Rx d 8 00 00 00 00 00 00 4d ff 
0.847900 1 2a6 Rx d 8 00 00 6a 18 00 00 00 00 
0.848300 1 2a7 Rx d 8 00 00 00 00 00 74 05 84 
0.848600 1 123 Rx d 8 01 00 00 00 00 3f 00 00 
0.848800 1 129 Rx d 8 05 24 40 20 00 20 ff 3f 
0.849200 1 243 Rx d 8 01 fc 6b 00 6f 00 7c 7c 
0.849500 1 102 Rx d 8 22 b3 88 04 8c 0c 21 08 
0.849700 1 2e1 Rx d 8 04 00 00 80 48 34 26 00 
0.849900 1 132 Rx d 6 5e 88 f6 ff 25 40 
0.850200 1 372 Rx d 8 02 89 00 3c 80 01 f0 59 
0.850400 1 401 Rx d 8 06 2a ac 80 b1 80 aa 80 
0.850600 1 31a Rx d 8 60 fc ff 02 00 00 e0 5a 
0.850900 1 3a2 Rx d 8 72 2a 00 00 20 00 00 00 
0.851300 1 545 Rx d 8 02 00 09 00 00 00 00 55 
0.851500 1 113 Rx d 3 01 97 01 
0.851700 1 318 Rx d 8 1a 08 27 09 18 32 23 da 
0.852000 1 458 Rx d 7 00 00 00 00 40 00 00 
0.852200 1 439 Rx d 8 02 00 40 00 00 38 00 00 
0.852300 1 7a8 Rx d 8 a8 b4 71 63 00 00 82 00 
0.852600 1 7f4 Rx d 1 01 
0.852800 1 7ff Rx d 8 05 09 20 41 20 04 81 00 
0.853000 1 414 Rx d 8 11 20 20 20 20 20 20 20 
0.853200 1 666 Rx d 4 00 00 a0 00 
0.853400 1 405 Rx d 8 11 33 45 37 46 41 35 4d 
0.853700 1 55a Rx d 8 04 00 00 00 00 00 00 00 
0.854400 1 3a1 Rx d 8 e8 42 0d 8a 01 08 a2 2c 
0.854900 1 3a3 Rx d 8 00 e0 00 00 38 03 fc 01 
0.856200 1 39d Rx d 5 fc 54 e1 27 00 
0.857400 1 122 Rx d 8 00 00 12 92 12 00 00 00 
0.857600 1 228 Rx d 8 03 16 54 8c 80 80 d1 f4 
0.857900 1 261 Rx d 8 05 22 f1 c7 9a 42 f0 a1 
0.858100 1 31e Rx d 8 03 00 00 00 00 00 00 00 
0.858400 1 21d Rx d 8 04 00 35 00 00 00 00 00 
0.858600 1 263 Rx d 8 01 d0 c7 b1 8c c7 54 1f 
0.858800 1 129 Rx d 8 bf 25 40 20 01 20 ff 3f 
0.859000 1 25d Rx d 8 36 41 01 16 04 f0 d8 03 
0.859100 1 41d Rx d 1 00 
0.859300 1 1bb Rx d 1 02 
0.859600 1 27d Rx d 8 00 00 00 00 00 00 00 00 
0.859800 1 284 Rx d 8 30 00 00 00 40 08 90 8e 
0.860000 1 132 Rx d 6 5a 88 f7 ff 28 40 
0.860200 1 29d Rx d 5 00 00 00 20 00 
0.860400 1 43d Rx d 6 00 00 ff 1f 40 00 
0.860700 1 393 Rx d 8 09 80 63 00 00 00 00 00 
0.860900 1 2bd Rx d 4 00 00 00 00 
0.861200 1 42a Rx d 8 f9 6b fe 9a bf e6 af 55 
0.861500 1 719 Rx d 8 16 00 00 00 00 00 00 00 
0.861700 1 2c1 Rx d 8 21 23 2b fa 02 00 00 00 
0.862000 1 49d Rx d 7 00 00 00 00 00 00 00 
0.863200 1 3ae Rx d 8 00 40 00 08 00 00 71 ba 
0.863400 1 272 Rx d 8 09 80 63 00 00 00 00 00 
0.865200 1 7b8 Rx d 8 41 f6 02 84 04 00 c0 9b 
0.865500 1 23e Rx d 8 f4 01 3a b8 fa fc df fc 
0.865700 1 340 Rx d 8 08 00 00 00 00 00 00 00 
0.866300 1 2e1 Rx d 8 45 80 00 00 38 12 8c 6a 
0.866800 1 20c Rx d 8 00 c0 56 1e 00 30 09 00 
0.867000 1 2d2 Rx d 8 70 29 a4 4e 00 00 a1 01 
0.867200 1 212 Rx d 8 58 04 00 00 82 ff 77 62 
0.867500 1 252 Rx d 8 00 00 80 06 00 c8 16 00 
0.867600 1 292 Rx d 8 2e ee 98 24 8c 01 00 00 
0.867800 1 2f2 Rx d 2 12 01 
0.868100 1 312 Rx d 8 70 e4 66 04 70 b1 17 14 
0.868300 1 352 Rx d 8 00 00 fc 09 85 05 85 05 
0.868500 1 379 Rx d 8 02 00 0a 48 33 bf 21 00 
0.868800 1 243 Rx d 8 02 c8 99 12 00 44 00 00 
0.869000 1 129 Rx d 8 c8 26 40 20 00 20 ff 3f 
0.869200 1 392 Rx d 8 00 10 00 00 00 00 00 00 
0.869400 1 229 Rx d 3 a5 09 00 
0.869600 1 3b2 Rx d 8 14 ff 03 00 00 00 90 16 
0.869800 1 249 Rx d 4 af 0e 00 00 
0.870000 1 132 Rx d 6 65 88 f7 ff 25 40 
0.870300 1 2e8 Rx d 8 02 10 00 00 06 00 00 02 
0.870500 1 282 Rx d 8 00 00 00 00 e8 33 0b 24 
0.870700 1 401 Rx d 8 07 2a a4 80 aa 80 b0 80 
0.871000 1 441 Rx d 8 13 85 89 00 32 00 28 e4 
0.871200 1 25b Rx d 8 d3 c0 02 05 6a 86 e0 c5 
0.871400 1 45a Rx d 8 20 4b 4b cb 3f 49 00 6b 
0.871700 1 3c2 Rx d 8 00 55 55 55 00 00 59 45 
0.871900 1 201 Rx d 8 01 04 18 01 01 00 80 c4 
0.872200 1 40a Rx d 8 01 00 01 00 00 00 e0 f0 
0.872400 1 54f Rx d 8 00 00 00 00 00 00 00 00 
0.872600 1 4e3 Rx d 8 04 00 00 00 00 00 00 00 
0.873400 1 712 Rx d 8 00 2a c3 0d b1 0d cf 0d 
0.874800 1 261 Rx d 8 00 10 d6 ff d0 4c 00 f7 
0.875400 1 139 Rx d 1 00 
0.875700 1 448 Rx d 7 00 00 10 10 00 00 00 
0.876400 1 22b Rx d 8 ff ff ff ff ff ff ff ff 
0.876800 1 241 Rx d 7 35 32 0c 0f 8f 55 00 
0.877100 1 22a Rx d 4 00 00 d9 15 
0.877500 1 1f8 Rx d 4 00 00 00 00 
0.878300 1 381 Rx d 8 0c 20 00 19 99 c5 00 06 
0.878600 1 343 Rx d 8 00 92 5c 5e 95 00 00 00 
0.878800 1 129 Rx d 8 72 27 40 20 01 20 ff 3f 
0.879600 1 263 Rx d 8 02 00 00 00 00 00 00 00 
0.881500 1 132 Rx d 6 64 88 f7 ff 25 40 
0.881800 1 2e1 Rx d 8 10 21 04 00 12 00 20 08 
0.882000 1 2c1 Rx d 8 02 0d 06 05 00 d0 92 c1 
0.882200 1 37a Rx d 8 d2 00 00 00 00 00 00 00 
0.883200 1 677 Rx d 8 03 00 00 00 00 00 00 00 
0.883400 1 3a2 Rx d 8 60 85 72 a9 04 80 c0 73 
0.884200 1 545 Rx d 8 40 01 27 70 95 4a 19 1a 
0.884400 1 289 Rx d 8 a8 02 01 40 86 00 3d 0f 
0.887400 1 3c3 Rx d 8 55 55 55 01 00 80 43 00 
0.887700 1 2f1 Rx d 8 05 90 42 81 34 00 01 00 
0.887800 1 221 Rx d 8 40 41 05 05 00 50 91 8f 
0.888300 1 789 Rx d 4 54 11 d0 37 
0.888600 1 243 Rx d 8 03 00 00 80 11 4c 08 00 
0.888900 1 129 Rx d 8 08 28 40 20 00 20 ff 3f 
0.889500 1 359 Rx d 8 49 00 00 00 00 00 00 00 
0.889700 1 261 Rx d 8 31 00 9c ff 55 49 1a 7a 
0.889900 1 132 Rx d 6 58 88 f7 ff 27 40 
0.890300 1 401 Rx d 8 08 2a ad 80 a9 80 a8 80 
0.891200 1 553 Rx d 8 00 00 00 00 00 00 d0 28 
0.893800 1 4e2 Rx d 8 04 0c a0 80 08 78 00 00 
0.894000 1 3c8 Rx d 8 01 00 00 00 00 00 00 00 
0.894900 1 234 Rx d 8 1b b0 01 24 91 04 40 60 
0.895900 1 39d Rx d 5 fd 55 e1 27 00 
0.896100 1 38a Rx d 8 03 00 00 00 00 00 00 00 
0.896400 1 2c4 Rx d 8 17 80 00 14 04 00 20 00 
0.896600 1 142 Rx d 8 01 00 40 0a c0 1b 00 00 
0.896900 1 201 Rx d 8 82 02 00 00 00 00 98 3b 
0.897100 1 204 Rx d 8 01 00 00 ff 00 00 00 10 
0.897400 1 383 Rx d 8 b1 18 49 00 55 e0 c0 0b 
0.897600 1 264 Rx d 6 39 00 00 00 a0 00 
0.897800 1 2e1 Rx d 8 29 ea 1f ad 1f 28 00 00 
0.898100 1 7aa Rx d 8 0a 8a 06 8a 06 00 55 00 
0.898300 1 224 Rx d 8 04 08 00 48 19 01 10 08 
0.898600 1 552 Rx d 8 00 00 00 00 00 00 d0 27 
0.898800 1 129 Rx d 8 5d 29 40 20 00 20 ff 3f 
0.899100 1 263 Rx d 8 03 00 00 00 00 00 00 ff 
0.899300 1 2b3 Rx d 8 e9 2c 00 49 00 00 95 0f 
0.899500 1 2b4 Rx d 6 11 05 a7 0d d4 00 
0.899700 1 3f5 Rx d 8 00 00 c4 08 80 04 00 00 
0.899900 1 132 Rx d 6 5a 88 f7 ff 27 40 
0.900000 1 2aa Rx d 3 2f d0 ab 
0.900700 1 419 Rx d 1 00 
0.900900 1 20e Rx d 3 15 05 00 
0.901500 1 3ae Rx d 8 00 40 00 08 00 00 81 ca 
0.902300 1 2c1 Rx d 8 8b 16 13 00 00 00 00 00 
0.902900 1 423 Rx d 7 00 00 00 00 08 00 00 
0.903500 1 39a Rx d 8 fc 06 df 4e ff fd fd 11 
0.905200 1 3a1 Rx d 8 2b fa 40 6f 3e 00 b0 82 
0.905400 1 422 Rx d 6 70 00 10 00 00 00 
0.905600 1 23e Rx d 8 f4 01 3a b8 fa fc ef 0c 
0.905900 1 261 Rx d 8 a2 28 83 02 80 5c 22 43 
0.908300 1 788 Rx d 8 01 00 00 00 ff a1 98 12 
0.908600 1 2c3 Rx d 8 55 a3 a8 b6 02 00 12 a5 
0.908800 1 129 Rx d 8 2f 2a 40 20 01 20 ff 3f 
0.909400 1 243 Rx d 8 04 cc f1 ff fd 7f 6b 6f 
0.909600 1 2d1 Rx d 2 7f 01 
0.909800 1 132 Rx d 6 66 88 f7 ff 27 40 
0.910000 1 285 Rx d 8 41 03 65 01 0d 00 08 00 
0.910200 1 219 Rx d 7 02 80 ff ff ff fa 0f 
0.910500 1 286 Rx d 5 ff ff ff ff 31 
0.910700 1 372 Rx d 8 03 00 0b 50 00 01 00 00 
0.910900 1 401 Rx d 8 09 2a aa 80 af 80 b1 80 
0.911800 1 719 Rx d 8 17 00 00 00 00 00 00 00 
0.912200 1 288 Rx d 8 03 16 54 8c 80 80 e1 64 
0.912800 1 2c2 Rx d 8 55 63 a8 46 01 00 1a a5 
0.913500 1 399 Rx d 3 00 00 00 
0.913700 1 2e1 Rx d 8 02 6c 7f 02 41 66 00 00 
0.916100 1 381 Rx d 8 6d 83 01 f7 00 20 93 05 
0.916300 1 420 Rx d 8 28 01 40 4b 00 00 00 02 
0.916600 1 2e3 Rx d 7 18 06 1a 00 00 00 00 
0.916800 1 3a2 Rx d 8 01 10 20 00 04 f0 ff 00 
0.917100 1 545 Rx d 8 01 00 00 00 00 10 20 7b 
0.917800 1 2f9 Rx d 8 88 fb 07 10 00 00 00 00 
0.918400 1 798 Rx d 8 1a 03 77 3c 0c 01 d0 59 
0.918600 1 263 Rx d 8 04 00 00 00 20 04 00 00 
0.918800 1 129 Rx d 8 73 2b 40 20 00 20 ff 3f 
0.919000 1 45a Rx d 8 fd 07 f8 ff 03 00 00 33 
0.919500 1 249 Rx d 4 ce 0f 00 00 
0.919700 1 441 Rx d 8 2e 00 b6 c3 58 00 2d 95 
0.920500 1 132 Rx d 6 60 88 f8 ff 25 40 
0.921200 1 421 Rx d 7 00 14 00 00 00 d0 48 
0.921500 1 2e2 Rx d 8 04 00 00 da 02 1b 00 80 
0.921700 1 3c2 Rx d 8 29 55 00 00 00 00 00 80 
0.921900 1 201 Rx d 8 83 02 00 00 00 00 b8 3b 
0.922200 1 261 Rx d 8 d3 4a 0a 00 00 40 35 92 
0.922400 1 2c1 Rx d 8 04 00 10 0e 0d 10 08 12 
0.922700 1 321 Rx d 8 5f 72 a9 93 01 91 00 c3 
0.922900 1 677 Rx d 8 04 00 00 00 00 00 00 00 
0.923800 1 718 Rx d 7 03 00 00 00 00 00 00 
0.924000 1 2a8 Rx d 8 02 10 00 00 06 00 10 d2 
0.924300 1 3f9 Rx d 8 08 00 00 00 00 00 00 00 
0.925700 1 225 Rx d 4 05 45 d2 00 
0.928100 1 22b Rx d 8 ff ff ff ff ff ff ff ff 
0.928300 1 1fa Rx d 3 22 c0 01 
0.928600 1 243 Rx d 8 00 fc cf 8c be 02 41 29 
0.929500 1 129 Rx d 8 13 2c 40 20 00 20 ff 3f 
0.929700 1 2e1 Rx d 8 fb 19 50 69 92 45 09 00 
0.929900 1 132 Rx d 6 5c 88 f7 ff 25 40 
0.930200 1 320 Rx d 8 01 00 00 08 00 00 00 00 
0.930400 1 401 Rx d 8 0a 2a b0 80 ac 80 b1 80 
0.930600 1 283 Rx d 6 00 00 00 00 00 00 
0.931000 1 428 Rx d 7 00 00 10 10 00 00 00 
0.931300 1 339 Rx d 8 01 71 02 00 00 02 40 02 
0.932300 1 409 Rx d 1 00 
0.932500 1 78a Rx d 8 01 00 02 00 67 06 65 06 
0.933400 1 2a1 Rx d 6 00 00 98 3a 00 00 
0.934900 1 797 Rx d 4 14 09 d0 88 
0.935200 1 39d Rx d 5 fe 56 e1 27 00 
0.935400 1 242 Rx d 4 10 15 04 05 
0.935900 1 682 Rx d 8 00 00 00 40 05 02 d0 f7 
0.936400 1 400 Rx d 7 00 e0 fb be ef fb 00 
0.937400 1 3c0 Rx d 8 09 00 00 00 00 00 00 00 
0.937700 1 261 Rx d 8 4c ff 37 49 00 40 44 45 
0.937900 1 221 Rx d 8 41 01 55 51 01 02 a0 ae 
0.938400 1 1f9 Rx d 8 00 00 00 00 00 00 00 00 
0.938600 1 263 Rx d 8 00 d0 e7 89 d4 07 55 1f 
0.939500 1 129 Rx d 8 ac 2d 40 20 01 20 ff 3f 
0.939700 1 3e8 Rx d 8 01 00 00 00 00 00 00 00 
0.941500 1 132 Rx d 6 55 88 f7 ff 27 40 
0.941900 1 2c1 Rx d 8 48 3c 7e 00 00 8a 02 07 
0.942200 1 3ae Rx d 8 00 40 00 08 00 00 91 da 
0.942500 1 360 Rx d 8 09 00 00 00 00 00 00 00 
0.943800 1 103 Rx d 8 22 b3 88 04 92 2c 21 02 
0.944800 1 234 Rx d 8 24 e1 03 80 43 00 54 ba 
0.945100 1 119 Rx d 4 00 00 00 00 
0.945500 1 23e Rx d 8 f4 01 3a b8 fa fc ff 1c 
0.945600 1 2e1 Rx d 8 04 00 00 80 48 34 26 00 
0.946200 1 2ec Rx d 3 2f d0 ed 
0.946500 1 142 Rx d 8 28 00 02 5f 00 00 01 00 
0.947400 1 201 Rx d 8 c8 d1 02 80 22 97 41 05 
0.947700 1 2c7 Rx d 8 00 00 00 00 00 00 4d ff 
0.947900 1 2a6 Rx d 8 00 00 6a 18 00 00 00 00 
0.948300 1 2a7 Rx d 8 00 00 00 00 00 74 05 84 
0.948600 1 123 Rx d 8 00 00 12 92 d2 00 00 80 
0.948800 1 129 Rx d 8 de 2e 40 20 00 20 ff 3f 
0.949100 1 243 Rx d 8 01 fc 6b 00 6f 00 7c 7c 
0.949300 1 70b Rx d 8 07 1f 00 00 00 00 00 00 
0.949500 1 102 Rx d 8 22 b3 88 04 8c 0c 21 08 
0.949700 1 3a2 Rx d 8 72 2a 00 00 20 00 00 00 
0.950000 1 132 Rx d 6 51 88 f7 ff 25 40 
0.950200 1 381 Rx d 8 8e ef fb f7 41 a8 4b 00 
0.950400 1 401 Rx d 8 0b 2a ad 80 b0 80 af 80 
0.951300 1 545 Rx d 8 02 00 09 00 00 00 30 85 
0.951500 1 113 Rx d 3 01 97 01 
0.951600 1 7a8 Rx d 8 01 00 00 00 ff a1 98 12 
0.951900 1 7f4 Rx d 1 01 
0.952100 1 7ff Rx d 8 06 84 32 00 00 00 08 c0 
0.952300 1 318 Rx d 8 1a 08 27 09 18 32 25 dc 
0.952600 1 439 Rx d 8 02 00 40 00 00 38 00 00 
0.953500 1 458 Rx d 7 00 00 00 00 40 00 00 
0.953700 1 261 Rx d 8 05 22 f1 c7 9a 42 50 01 
0.954400 1 3a1 Rx d 8 e8 42 0d 8a 01 08 c2 4c 
0.956200 1 3a3 Rx d 8 00 e0 00 00 38 03 fc 01 
0.957400 1 122 Rx d 8 01 00 00 00 00 3f 00 00 
0.957700 1 228 Rx d 8 03 16 54 8c 80 80 e1 04 
0.958000 1 75d Rx d 8 52 ce ac 6e 00 d6 f4 41 
0.958100 1 21d Rx d 8 04 00 35 00 00 00 00 00 
0.958300 1 41d Rx d 1 00 
0.958600 1 25d Rx d 8 36 41 01 16 04 f0 d8 03 
0.958800 1 129 Rx d 8 2f 2f 40 20 00 20 ff 3f 
0.959100 1 263 Rx d 8 01 d0 c7 b1 8c c7 54 1f 
0.959300 1 27d Rx d 8 00 00 00 00 00 00 00 00 
0.959500 1 29d Rx d 5 00 00 00 20 00 
0.959700 1 2b3 Rx d 8 0a 0e 00 00 00 00 00 00 
0.959900 1 132 Rx d 6 68 88 f7 ff 27 40 
0.960100 1 2bd Rx d 4 00 00 00 00 
0.960300 1 313 Rx d 8 02 64 64 05 00 00 b0 95 
0.960600 1 285 Rx d 8 02 d5 00 00 00 00 de 00 
0.960800 1 393 Rx d 8 06 00 ee 70 07 b0 07 08 
0.961000 1 43d Rx d 6 00 00 ff 1f 40 00 
0.961200 1 719 Rx d 8 20 03 02 14 14 24 25 00 
0.961500 1 49d Rx d 7 00 00 00 00 00 00 00 
0.961700 1 2e1 Rx d 8 45 80 00 00 38 12 8c 6a 
0.962000 1 2c1 Rx d 8 21 23 2b fa 02 00 00 00 
0.963200 1 677 Rx d 8 00 00 00 00 00 00 00 00 
0.963400 1 272 Rx d 8 06 00 ef 78 07 b0 07 08 
0.965500 1 7b8 Rx d 8 92 7d 10 a7 6c 05 d0 21 
0.965900 1 340 Rx d 8 09 00 00 00 00 00 00 00 
0.966300 1 3ae Rx d 8 00 40 00 08 00 00 a0 e9 
0.966800 1 20c Rx d 8 00 c0 56 1e 00 30 09 00 
0.967000 1 2d2 Rx d 8 6f 29 a4 4e 00 00 a1 01 
0.967200 1 212 Rx d 8 58 04 00 00 82 ff 77 62 
0.967500 1 252 Rx d 8 00 00 80 06 00 c8 16 00 
0.967600 1 292 Rx d 8 2e ee 98 24 8c 01 00 00 
0.967800 1 2f2 Rx d 2 12 01 
0.968100 1 712 Rx d 8 01 2a c7 0d 8f 0d d0 0d 
0.968300 1 379 Rx d 8 03 c0 0d 48 33 b7 25 00 
0.968600 1 243 Rx d 8 02 c8 99 12 00 44 00 00 
0.968800 1 129 Rx d 8 ca 20 40 20 00 20 ff 3f 
0.969000 1 45a Rx d 8 20 4b 4b cb 3f 49 00 6b 
0.969100 1 229 Rx d 3 f6 0a 00 
0.969400 1 249 Rx d 4 9b 00 00 00 
0.969600 1 54f Rx d 8 00 00 00 00 00 00 00 00 
0.969800 1 261 Rx d 8 00 10 d5 ff d0 4c 60 56 
0.970100 1 132 Rx d 6 56 88 f7 ff 28 40 
0.970300 1 2e8 Rx d 8 02 10 00 00 06 00 10 12 
0.970600 1 282 Rx d 8 00 00 00 00 e8 33 0b 24 
0.970800 1 372 Rx d 8 04 00 00 00 00 00 fa 10 
0.971000 1 401 Rx d 8 0c 2a a8 80 a6 80 a8 80 
0.971300 1 25b Rx d 8 d3 c0 02 05 6a 86 f0 d5 
0.971500 1 3e2 Rx d 7 00 00 80 da 3f c0 04 
0.971700 1 3c2 Rx d 8 00 55 55 55 00 00 59 45 
0.972000 1 201 Rx d 8 01 04 18 01 01 00 80 c4 
0.972300 1 441 Rx d 8 13 85 89 00 32 00 30 ec 
0.973100 1 4e3 Rx d 8 d5 07 6b 51 00 0a 00 00 
0.974800 1 744 Rx d 1 00 
0.975000 1 139 Rx d 1 00 
0.975500 1 39d Rx d 5 ff 57 e1 27 00 
0.975800 1 448 Rx d 7 00 00 10 10 00 00 00 
0.976400 1 22b Rx d 8 ff ff ff ff ff ff ff ff 
0.976800 1 241 Rx d 7 37 32 4c 0f 8f 55 00 
0.977100 1 22a Rx d 4 00 00 d9 15 
0.977500 1 1f8 Rx d 4 00 00 00 00 
0.977700 1 2e1 Rx d 8 10 21 04 00 12 00 20 08 
0.978300 1 7aa Rx d 8 0b 4d 00 27 49 00 41 00 
0.978600 1 343 Rx d 8 00 92 5c 5e 95 00 00 00 
0.978800 1 129 Rx d 8 b4 21 40 20 ff 1f ff 3f 
0.979600 1 263 Rx d 8 02 00 00 00 00 00 00 00 
0.981500 1 132 Rx d 6 61 88 f7 ff 29 40 
0.981900 1 2c1 Rx d 8 02 0d 06 05 00 d0 92 c1 
0.982200 1 37a Rx d 8 7b 00 00 00 00 00 00 00 
0.982500 1 3a2 Rx d 8 60 85 72 a9 04 80 c0 73 
0.984200 1 545 Rx d 8 40 01 27 00 95 44 49 d4 
0.984400 1 289 Rx d 8 a8 02 01 80 a1 00 3d 0f 
0.984600 1 3c3 Rx d 8 00 00 00 00 00 45 00 00 
0.985300 1 3e3 Rx d 4 00 00 00 00 
0.985600 1 23e Rx d 8 f4 01 3a b8 fa fc 0f 2c 
0.985800 1 261 Rx d 8 31 00 9e ff 55 49 7a dc 
0.987400 1 381 Rx d 8 af 73 37 80 00 00 3b 06 
0.987700 1 2f1 Rx d 8 06 90 45 01 07 00 01 00 
0.987800 1 221 Rx d 8 40 41 05 05 00 50 b1 af 
0.988400 1 789 Rx d 4 54 11 e0 47 
0.988600 1 243 Rx d 8 03 00 00 80 11 4c 08 00 
0.988900 1 129 Rx d 8 94 22 40 20 00 20 ff 3f 
0.989600 1 359 Rx d 8 4a 04 00 00 9f a0 6f b2 
0.989800 1 132 Rx d 6 63 88 f7 ff 28 40 
0.990300 1 401 Rx d 8 0d 2a a3 80 af 80 a7 80 
0.991200 1 553 Rx d 8 00 00 00 00 00 00 e0 38 
0.993500 1 4e2 Rx d 8 45 03 66 41 03 08 00 00 
0.993800 1 2e1 Rx d 8 29 ea 1f ad 1f 28 00 00 
0.994100 1 234 Rx d 8 1b b0 01 24 91 04 60 80 
0.995900 1 3c8 Rx d 8 02 00 00 00 00 00 00 00 
0.996100 1 38a Rx d 8 00 00 00 00 00 00 00 00 
0.996400 1 2c4 Rx d 8 19 7b 1f 42 02 14 60 00 
0.996600 1 142 Rx d 8 01 00 40 0a c0 1b 00 00 
0.996900 1 201 Rx d 8 82 02 00 00 00 00 98 3b 
0.997100 1 204 Rx d 8 01 00 00 ff 00 00 00 10 
0.997400 1 383 Rx d 8 b1 18 49 00 55 e0 c0 0b 
0.998100 1 264 Rx d 6 39 00 00 00 a0 00 
0.998300 1 224 Rx d 8 04 08 00 48 19 01 10 08 
0.998500 1 2b4 Rx d 6 14 05 a7 0d d2 00 
0.998800 1 263 Rx d 8 03 00 00 00 00 00 00 ff 
0.999000 1 129 Rx d 8 ea 23 40 20 ff 1f ff 3f 
0.999100 1 3f5 Rx d 8 00 00 c4 08 80 04 00 00 
0.999400 1 419 Rx d 1 00 
0.999600 1 552 Rx d 8 00 00 00 00 00 00 e0 37 
0.999700 1 132 Rx d 6 5d 88 f7 ff 23 40 
1.000600 1 2aa Rx d 3 2f e0 bb 
1.001500 1 20e Rx d 3 16 06 00 
1.001700 1 261 Rx d 8 a2 28 83 02 80 5c 82 a3 
1.001900 1 2c1 Rx d 8 8b 16 13 00 00 00 00 00 
1.002300 1 677 Rx d 8 01 00 00 00 00 00 00 00 
