date Fri Sep 11 01:44:50 PM 2026
base hex timestamps absolute
// version 7.0.0
0.000000 1 21d Rx d 8 4c 00 02 20 80 00 10 00 
0.000200 1 129 Rx d 8 cd 21 27 20 00 20 ff 3f 
0.000400 1 243 Rx d 8 02 84 39 11 00 0c 00 00 
0.000600 1 25d Rx d 8 6e 81 24 ac 00 f1 d8 03 
0.000800 1 241 Rx d 7 2b 2c cc 0a 0b 53 00 
0.001000 1 27d Rx d 8 00 00 00 00 00 00 00 00 
0.002400 1 43d Rx d 6 21 00 ff 1f 20 26 
0.002700 1 45a Rx d 8 a0 46 c6 c5 3f 49 00 55 
0.002900 1 29d Rx d 5 00 00 00 20 00 
0.003100 1 228 Rx d 8 03 16 54 8f 80 0c d1 83 
0.004200 1 2bd Rx d 4 00 00 00 00 
0.004500 1 49d Rx d 7 00 00 00 00 00 00 20 
0.004700 1 139 Rx d 1 00 
0.006200 1 234 Rx d 8 1c c0 01 36 d9 04 60 eb 
0.006500 1 4e3 Rx d 8 04 00 00 00 00 00 00 00 
0.006700 1 1f8 Rx d 4 00 00 00 00 
0.006900 1 23e Rx d 8 f4 01 3a ad fa fc 0f 21 
0.008000 1 2e1 Rx d 8 04 00 00 80 48 44 26 00 
0.008200 1 2c1 Rx d 8 02 0d 06 00 00 d0 92 81 
0.008500 1 677 Rx d 8 03 00 00 00 00 00 00 00 
0.008700 1 132 Rx d 6 c1 8a f7 ff 27 40 
0.009000 1 372 Rx d 8 03 10 0b 50 00 00 00 00 
0.009200 1 401 Rx d 8 09 2a f2 82 ef 82 f2 82 
0.009800 1 7b8 Rx d 8 73 2f 3e 0c c6 08 c0 94 
0.010300 1 37a Rx d 8 c2 00 00 00 00 00 00 00 
0.010500 1 545 Rx d 8 02 00 06 00 00 00 30 82 
0.010800 1 381 Rx d 8 18 00 00 00 00 00 00 00 
0.011000 1 129 Rx d 8 84 22 27 20 00 20 ff 3f 
0.012200 1 263 Rx d 8 02 00 00 00 00 00 00 00 
0.012500 1 343 Rx d 8 00 92 5c 0e 9f 00 00 00 
0.014500 1 289 Rx d 8 aa 02 01 40 86 00 3d 0f 
0.014900 1 2f1 Rx d 8 02 91 2c 01 45 00 00 00 
0.015100 1 221 Rx d 8 40 41 05 05 00 50 91 8f 
0.015400 1 3a2 Rx d 8 e2 27 00 00 20 00 00 00 
0.016200 1 39d Rx d 5 e0 58 c1 27 00 
0.016800 1 261 Rx d 8 05 22 00 c9 9a 42 10 d2 
0.018300 1 2e8 Rx d 8 c2 10 00 00 06 80 00 42 
0.018600 1 3c3 Rx d 8 55 55 55 01 00 80 43 00 
0.019000 1 22b Rx d 8 ff ff ff ff ff ff ff ff 
0.019300 1 359 Rx d 8 80 3f 00 00 00 00 00 00 
0.019900 1 3ae Rx d 8 00 40 00 08 00 00 b1 fa 
0.020200 1 132 Rx d 6 ca 8a f8 ff 29 40 
0.020500 1 4e2 Rx d 8 04 32 00 83 0e f0 00 00 
0.020700 1 448 Rx d 7 00 00 10 10 00 00 00 
0.021300 1 243 Rx d 8 03 00 00 80 42 65 1f 00 
0.021800 1 129 Rx d 8 93 23 27 20 00 20 ff 3f 
0.022100 1 201 Rx d 8 02 d0 00 40 06 00 b8 39 
0.022300 1 3e9 Rx d 8 f1 80 02 00 00 00 00 5f 
0.023800 1 2e1 Rx d 8 45 c1 02 00 50 95 a3 6a 
0.024300 1 39b Rx d 8 00 06 df e0 b0 48 11 6c 
0.025300 1 553 Rx d 8 00 00 00 00 00 00 d0 28 
0.026300 1 3f5 Rx d 8 00 c8 48 09 80 04 00 00 
0.026500 1 142 Rx d 8 01 00 40 0a c0 1b 00 00 
0.026700 1 38a Rx d 8 00 00 00 00 00 00 00 00 
0.026900 1 78a Rx d 8 01 00 04 00 a6 04 8f 00 
0.027200 1 552 Rx d 8 00 00 00 00 00 00 d0 27 
0.028200 1 2c1 Rx d 8 1b 17 13 00 00 00 00 00 
0.028500 1 682 Rx d 8 00 00 00 40 05 02 d0 f7 
0.028800 1 3a1 Rx d 8 2b 91 40 97 3e 00 b0 41 
0.029100 1 132 Rx d 6 c4 8a f7 ff 27 40 
0.030800 1 320 Rx d 8 01 00 00 08 00 00 00 00 
0.032100 1 383 Rx d 8 a7 18 43 00 31 70 c0 5e 
0.032400 1 401 Rx d 8 0a 2a f1 82 f3 82 f1 82 
0.032600 1 261 Rx d 8 00 10 87 00 c5 4c 20 be 
0.032900 1 263 Rx d 8 03 00 00 00 00 00 00 34 
0.033100 1 129 Rx d 8 15 24 27 20 00 20 ff 3f 
0.034500 1 39a Rx d 8 24 17 f7 56 ff fd fd 11 
0.036000 1 422 Rx d 6 70 00 10 00 00 00 
0.036200 1 2d1 Rx d 2 7f 01 
0.036500 1 473 Rx d 8 00 00 03 00 00 00 00 00 
0.037000 1 3b3 Rx d 8 8c 80 04 30 01 00 a8 80 
0.037100 1 253 Rx d 8 01 64 34 85 64 62 00 15 
0.037800 1 423 Rx d 7 00 00 00 00 08 00 00 
0.038500 1 789 Rx d 4 54 11 d0 37 
0.038700 1 219 Rx d 7 00 80 ff ff ff f8 0f 
0.038900 1 132 Rx d 6 c1 8a f7 ff 28 40 
0.039100 1 2e1 Rx d 8 10 21 04 00 12 00 26 08 
0.039300 1 719 Rx d 8 03 00 00 00 00 00 00 00 
0.039400 1 419 Rx d 1 00 
0.040600 1 2c2 Rx d 8 20 40 c0 52 01 00 80 cb 
0.041200 1 2c3 Rx d 8 55 03 a8 06 00 00 12 a5 
0.042200 1 129 Rx d 8 02 25 27 20 00 20 ff 3f 
0.042900 1 20e Rx d 3 16 06 00 
0.043100 1 243 Rx d 8 04 84 f1 ff fd 7f 55 5c 
0.043300 1 249 Rx d 4 e8 01 00 00 
0.043800 1 399 Rx d 3 00 00 00 
0.044300 1 3c8 Rx d 8 03 00 00 00 00 00 00 00 
0.044500 1 545 Rx d 8 f0 00 22 b0 9e e3 49 d6 
0.044700 1 441 Rx d 8 23 00 b6 c3 58 00 2d 8a 
0.045000 1 23e Rx d 8 f4 01 3a ad fa fc 1f 31 
0.045200 1 2f9 Rx d 8 88 fb 07 03 a1 ee 6f c9 
0.045500 1 421 Rx d 7 00 14 00 00 00 d0 48 
0.045700 1 3a2 Rx d 8 a0 85 72 f8 04 00 c5 6f 
0.045900 1 321 Rx d 8 2c a2 a8 89 01 89 00 ad 
0.046100 1 201 Rx d 8 03 d0 00 40 06 00 98 3b 
0.046300 1 261 Rx d 8 31 00 43 00 e8 49 3a d5 
0.046500 1 2c1 Rx d 8 04 00 0f 0e 09 12 07 12 
0.046700 1 204 Rx d 8 41 00 00 00 00 00 00 10 
0.046900 1 2c4 Rx d 8 13 9e 00 e4 0d 5c 15 01 
0.047200 1 264 Rx d 6 3a 00 00 00 00 00 
0.047400 1 224 Rx d 8 04 08 00 48 19 01 10 08 
0.047600 1 2b4 Rx d 6 65 05 e4 0d bd 00 
0.047900 1 132 Rx d 6 c8 8a f8 ff 27 40 
0.048100 1 2aa Rx d 3 67 d0 e3 
0.048300 1 2e3 Rx d 7 03 00 00 62 02 0b 00 
0.048600 1 2e2 Rx d 8 05 00 00 64 02 1b 00 80 
0.048800 1 381 Rx d 8 d9 12 00 39 00 1e 00 00 
0.049100 1 3c2 Rx d 8 29 55 00 00 00 00 00 80 
0.049300 1 401 Rx d 8 0b 2a f6 82 f7 82 f5 82 
0.049500 1 677 Rx d 8 04 00 00 00 00 00 00 00 
0.049800 1 709 Rx d 8 01 80 80 80 80 80 80 80 
0.050000 1 718 Rx d 7 03 00 00 00 00 00 00 
0.050300 1 263 Rx d 8 04 00 00 00 60 14 00 00 
0.050800 1 129 Rx d 8 75 26 27 20 01 20 ff 3f 
0.052300 1 2b3 Rx d 8 00 90 8a 74 90 89 72 81 
0.052500 1 45a Rx d 8 fd 07 f8 ff 03 00 07 00 
0.052700 1 2a6 Rx d 8 00 00 6a 18 00 00 00 00 
0.053700 1 2a7 Rx d 8 00 00 00 00 00 8c 05 84 
0.054200 1 2c7 Rx d 8 00 00 00 00 00 00 46 ff 
0.054400 1 3f9 Rx d 8 07 00 00 00 00 00 00 00 
0.055100 1 39d Rx d 5 e1 59 c1 27 00 
0.055300 1 2e1 Rx d 8 29 8a 3b a2 1f 28 00 00 
0.056200 1 234 Rx d 8 37 e1 03 80 43 00 74 ed 
0.057100 1 788 Rx d 8 02 40 c9 07 00 00 00 00 
0.057300 1 1fa Rx d 3 22 c0 01 
0.058500 1 420 Rx d 8 28 01 40 4b 00 00 80 02 
0.058700 1 225 Rx d 4 05 45 d2 00 
0.059000 1 3ae Rx d 8 00 40 00 08 00 00 c1 0a 
0.060200 1 2a1 Rx d 6 00 00 98 3a 00 00 
0.060500 1 132 Rx d 6 bf 8a f7 ff 27 40 
0.060700 1 339 Rx d 8 01 41 02 00 00 02 40 02 
0.060900 1 20a Rx d 6 f6 15 09 82 18 01 
0.062700 1 243 Rx d 8 00 fc cf 4c b1 22 41 29 
0.062900 1 129 Rx d 8 62 27 27 20 01 20 ff 3f 
0.063200 1 288 Rx d 8 03 16 54 8f 80 0c e1 f3 
0.063400 1 261 Rx d 8 2a 2b 37 02 80 5c 42 a2 
0.063500 1 221 Rx d 8 41 01 55 51 01 02 a0 ae 
0.063800 1 283 Rx d 6 00 00 00 00 00 00 
0.064000 1 242 Rx d 4 10 15 04 05 
0.064300 1 2d2 Rx d 8 6e 29 a4 4e 00 00 a1 01 
0.064500 1 212 Rx d 8 58 2c 00 00 82 ff 37 62 
0.064700 1 252 Rx d 8 00 00 90 06 00 80 18 00 
0.065000 1 292 Rx d 8 47 83 2d 76 d2 01 00 00 
0.066400 1 2f2 Rx d 2 62 01 
0.066700 1 3b2 Rx d 8 07 ed 8b 00 b2 8c 00 00 
0.066900 1 1f9 Rx d 8 00 00 00 00 00 00 00 00 
0.067100 1 712 Rx d 8 01 2a c4 0a e7 0a c7 0a 
0.067800 1 2c1 Rx d 8 58 24 7e 00 00 8a 02 07 
0.068300 1 798 Rx d 8 24 ea 61 10 43 0c d0 4a 
0.068500 1 22b Rx d 8 ff ff ff ff ff ff ff ff 
0.068700 1 132 Rx d 6 c7 8a f7 ff 27 40 
0.069000 1 372 Rx d 8 04 00 00 00 00 00 fa 10 
0.069300 1 3c0 Rx d 8 08 00 00 00 00 00 00 00 
0.070500 1 401 Rx d 8 0c 2a f0 82 eb 82 ec 82 
0.070900 1 360 Rx d 8 01 00 00 00 00 00 00 00 
0.071900 1 2e1 Rx d 8 02 6c 7f 02 2d 46 00 00 
0.072500 1 7aa Rx d 8 0b 57 00 27 4e 00 39 00 
0.074300 1 129 Rx d 8 18 28 27 20 00 20 ff 3f 
0.074800 1 263 Rx d 8 18 7b 4d 07 d0 07 55 1f 
0.075100 1 201 Rx d 8 f8 c9 01 00 20 1f f1 06 
0.076200 1 2a8 Rx d 8 c2 10 00 00 06 80 10 12 
0.076400 1 119 Rx d 4 00 00 00 00 
0.076700 1 142 Rx d 8 28 00 02 5a 00 00 01 00 
0.076900 1 103 Rx d 8 22 b3 88 04 92 2c 21 02 
0.077100 1 545 Rx d 8 01 00 00 00 00 10 50 ab 
0.077300 1 102 Rx d 8 21 72 88 04 8c 0e 21 08 
0.078000 1 409 Rx d 1 00 
0.078500 1 132 Rx d 6 cf 8a f7 ff 27 40 
0.078700 1 261 Rx d 8 5b 4f 0a 00 00 40 55 3f 
0.079000 1 3a1 Rx d 8 e8 42 0d 0a 01 2c c2 f0 
0.079200 1 3a2 Rx d 8 01 10 20 00 07 f0 ff 00 
0.080000 1 428 Rx d 7 00 00 10 10 00 00 00 
0.080300 1 797 Rx d 4 14 09 d0 88 
0.081800 1 439 Rx d 8 02 00 40 00 00 38 00 00 
0.082400 1 123 Rx d 8 00 00 12 92 d2 00 00 80 
0.082600 1 129 Rx d 8 4d 29 27 20 00 20 ff 3f 
0.082800 1 243 Rx d 8 01 fc 55 00 5c 00 7c 7c 
0.083000 1 70b Rx d 8 07 26 00 00 00 00 00 00 
0.083200 1 400 Rx d 7 00 e0 fb be ef fb 00 
0.083500 1 381 Rx d 8 1a 16 16 74 00 00 00 00 
0.083700 1 122 Rx d 8 01 00 00 00 00 3f 00 00 
0.084300 1 4f Rx d 8 bd 94 5c f1 b9 5b 67 1c 
0.084500 1 333 Rx d 5 04 05 e8 07 00 
0.084700 1 334 Rx d 8 bf 3f 0a 04 ff 01 21 64 
0.085000 1 3bc Rx d 4 00 00 00 00 
0.085200 1 3e8 Rx d 8 03 00 00 00 00 00 00 00 
0.086200 1 3fd Rx d 8 00 00 00 3c 20 00 01 80 
0.086400 1 23e Rx d 8 f4 01 3a ad fa fc 2f 41 
0.087000 1 2e1 Rx d 8 fb 19 ea e9 9b db 09 00 
0.087200 1 2c1 Rx d 8 21 ab 23 be 02 00 00 00 
0.087300 1 3a3 Rx d 8 00 d0 00 00 38 03 fc 01 
0.087500 1 677 Rx d 8 00 00 00 00 00 00 00 00 
0.087800 1 25b Rx d 8 d3 c0 02 05 6a 86 f0 d5 
0.088000 1 132 Rx d 6 bd 8a f8 ff 27 40 
0.088300 1 401 Rx d 8 0d 2a f1 82 f0 82 f2 82 
0.088500 1 719 Rx d 8 14 00 00 00 00 59 00 00 
0.088800 1 113 Rx d 3 01 97 01 
0.089000 1 7f4 Rx d 1 01 
0.089200 1 318 Rx d 8 1a 09 31 05 0b 2c 25 d0 
0.089300 1 458 Rx d 7 00 00 00 00 40 00 00 
0.089500 1 7ff Rx d 8 07 20 80 44 40 00 02 20 
0.089700 1 340 Rx d 8 01 00 00 00 00 00 00 00 
0.090500 1 263 Rx d 8 49 63 55 07 e8 c7 54 1f 
0.090800 1 129 Rx d 8 92 2a 27 20 00 20 ff 3f 
0.092200 1 272 Rx d 8 06 00 fc e0 07 b0 07 08 
0.092500 1 229 Rx d 3 8c 0b 00 
0.094000 1 2ec Rx d 3 67 d0 25 
0.094300 1 249 Rx d 4 2a 02 00 00 
0.094500 1 54f Rx d 8 00 00 00 00 00 00 00 00 
0.095100 1 393 Rx d 8 06 00 fa d8 07 b0 07 08 
0.095800 1 39d Rx d 5 e2 5a c1 27 00 
0.096200 1 261 Rx d 8 04 f1 f7 4d 00 40 64 d3 
0.096500 1 441 Rx d 8 66 85 89 00 32 00 30 3f 
0.096800 1 379 Rx d 8 07 00 5c 04 0d c0 14 06 
0.097100 1 201 Rx d 8 01 04 b8 00 10 00 80 c4 
0.097500 1 7a8 Rx d 8 02 40 cd 07 00 07 00 00 
0.097900 1 3ae Rx d 8 00 40 00 08 00 00 d1 1a 
0.098000 1 282 Rx d 8 00 00 00 00 ec 13 0b 24 
0.098300 1 132 Rx d 6 b7 8a f8 ff 29 40 
0.098500 1 20c Rx d 8 00 40 47 19 00 90 08 00 
0.098700 1 3e2 Rx d 7 00 00 80 5a b0 cf 04 
0.099000 1 3c2 Rx d 8 00 55 55 55 00 00 59 45 
0.099200 1 22a Rx d 4 00 00 39 16 
0.099400 1 31e Rx d 8 03 00 00 00 00 00 00 00 
0.099600 1 41d Rx d 1 40 
0.099800 1 21d Rx d 8 4c 00 02 20 80 00 10 00 
0.100000 1 243 Rx d 8 02 84 39 11 00 0c 00 00 
0.100200 1 129 Rx d 8 63 2b 27 20 00 20 ff 3f 
0.100400 1 25d Rx d 8 6e 81 24 ac 00 f1 d8 03 
0.100700 1 43d Rx d 6 21 00 ff 1f 20 26 
0.100900 1 241 Rx d 7 2c 2c 0c 0b 0b 53 00 
0.101000 1 27d Rx d 8 00 00 00 00 00 00 00 00 
0.101100 1 29d Rx d 5 00 00 00 20 00 
0.102400 1 45a Rx d 8 a0 46 c6 c5 3f 49 00 55 
0.102700 1 2bd Rx d 4 00 00 00 00 
0.102900 1 228 Rx d 8 03 16 54 8f 80 0c e1 93 
0.104300 1 2e1 Rx d 8 04 00 00 80 48 44 26 00 
0.106200 1 49d Rx d 7 00 00 00 00 00 00 20 
0.106500 1 139 Rx d 1 00 
0.106700 1 744 Rx d 1 00 
0.107300 1 234 Rx d 8 1b c0 01 36 d9 04 80 0a 
0.108000 1 4e3 Rx d 8 cd 04 6b 51 00 0a 00 00 
0.108200 1 1f8 Rx d 4 00 00 00 00 
0.108500 1 2c1 Rx d 8 02 0d 06 00 00 d0 92 81 
0.108700 1 132 Rx d 6 c3 8a f8 ff 27 40 
0.109000 1 401 Rx d 8 0e 2a f3 82 f1 82 f2 82 
0.109200 1 7b8 Rx d 8 7c 58 61 00 00 00 d0 1f 
0.109800 1 545 Rx d 8 02 00 06 00 00 00 60 b2 
0.110100 1 37a Rx d 8 7b 00 00 00 00 00 00 00 
0.110300 1 261 Rx d 8 05 22 00 c9 9a 42 70 32 
0.110600 1 343 Rx d 8 00 92 64 0e 9f 00 00 00 
0.112400 1 129 Rx d 8 6a 2c 27 20 ff 1f ff 3f 
0.114500 1 263 Rx d 8 02 00 00 00 00 00 00 00 
0.114700 1 2b3 Rx d 8 01 8e 8d 8d 78 8b 8c 8e 
0.114900 1 289 Rx d 8 aa 02 01 80 a1 00 3d 0f 
0.115200 1 3a2 Rx d 8 e2 27 00 00 20 00 00 00 
0.116200 1 2f1 Rx d 8 03 91 31 01 45 00 01 00 
0.116400 1 221 Rx d 8 40 41 05 05 00 50 b1 af 
0.116700 1 2e8 Rx d 8 c2 10 00 00 06 80 10 52 
0.116900 1 3c3 Rx d 8 00 00 00 00 00 45 00 00 
0.118300 1 3e3 Rx d 4 00 00 00 00 
0.118600 1 22b Rx d 8 ff ff ff ff ff ff ff ff 
0.118800 1 359 Rx d 8 01 00 00 00 00 00 00 00 
0.119300 1 2e1 Rx d 8 45 c1 02 00 50 95 a3 6a 
0.120500 1 132 Rx d 6 c4 8a f7 ff 28 40 
0.121300 1 381 Rx d 8 a0 c2 e5 92 b9 5c b2 10 
0.121800 1 4e2 Rx d 8 55 00 64 41 03 08 00 00 
0.122100 1 448 Rx d 7 00 00 10 10 00 00 00 
0.122300 1 243 Rx d 8 03 00 00 80 42 65 1f 00 
0.122900 1 129 Rx d 8 78 2d 27 20 ff 1f ff 3f 
0.123800 1 201 Rx d 8 02 d0 00 40 06 00 b8 39 
0.124300 1 553 Rx d 8 00 00 00 00 00 00 e0 38 
0.124600 1 3f5 Rx d 8 00 c8 48 09 80 04 00 00 
0.124800 1 142 Rx d 8 01 00 40 0a c0 1b 00 00 
0.126300 1 38a Rx d 8 01 00 00 00 00 00 00 00 
0.126500 1 78a Rx d 8 01 00 05 00 9d 0d 07 00 
0.126700 1 23e Rx d 8 f4 01 3a ad fa fc 3f 51 
0.126900 1 552 Rx d 8 00 00 00 00 00 00 e0 37 
0.127200 1 261 Rx d 8 00 10 86 00 c5 4c 80 1d 
0.127400 1 2c1 Rx d 8 1b 17 13 00 00 00 00 00 
0.128500 1 677 Rx d 8 01 00 00 00 00 00 00 00 
0.128700 1 3a1 Rx d 8 2b 91 40 8b 3e 00 d0 55 
0.129000 1 132 Rx d 6 bd 8a f7 ff 28 40 
0.130800 1 372 Rx d 8 05 46 3b 0d 00 00 00 00 
0.131000 1 383 Rx d 8 a7 18 43 00 31 70 c0 5e 
0.131900 1 401 Rx d 8 0f 2a ee 82 f8 82 f7 82 
0.132100 1 682 Rx d 8 00 00 00 40 05 02 e0 07 
0.132300 1 263 Rx d 8 03 00 00 00 00 00 00 34 
0.132500 1 129 Rx d 8 a7 2e 27 20 ff 1f ff 3f 
0.132700 1 39a Rx d 8 fd fd fd fd fd 01 00 02 
0.133000 1 422 Rx d 6 70 00 10 00 00 00 
0.134500 1 39d Rx d 5 e3 5b c1 27 00 
0.135100 1 2f3 Rx d 8 0e 4e 02 00 00 20 00 00 
0.136000 1 273 Rx d 8 81 e1 10 00 48 00 10 01 
0.136200 1 2d1 Rx d 2 7f 01 
0.137000 1 2e1 Rx d 8 10 21 04 00 12 00 26 08 
0.137100 1 423 Rx d 7 00 00 00 00 08 00 00 
0.137800 1 3fd Rx d 8 01 00 02 00 00 08 12 80 
0.138300 1 789 Rx d 4 54 11 e0 47 
0.138500 1 3ae Rx d 8 00 40 00 08 00 00 e1 2a 
0.138700 1 219 Rx d 7 01 80 ff ff ff f9 0f 
0.138900 1 132 Rx d 6 bc 8a f7 ff 25 40 
0.139100 1 719 Rx d 8 15 35 00 71 ff 02 00 00 
0.139300 1 419 Rx d 1 00 
0.140300 1 2c2 Rx d 8 55 1b a8 06 00 00 12 a5 
0.140500 1 7aa Rx d 8 0c 00 00 00 00 00 00 39 
0.140700 1 2c3 Rx d 8 00 00 c0 4b 01 00 c0 cb 
0.141900 1 129 Rx d 8 3f 2f 27 20 00 20 ff 3f 
0.142300 1 20e Rx d 3 17 07 00 
0.142800 1 243 Rx d 8 04 84 f1 ff fd 7f 55 5c 
0.143100 1 249 Rx d 4 d3 03 00 00 
0.143300 1 261 Rx d 8 31 00 51 00 e7 49 9a 42 
0.144300 1 545 Rx d 8 f0 00 22 a0 9e e2 79 f5 
0.144500 1 3c8 Rx d 8 04 00 00 00 00 00 00 00 
0.144700 1 407 Rx d 8 1a 0f 00 00 00 00 00 00 
0.145000 1 441 Rx d 8 23 00 b6 c3 58 00 35 92 
0.145200 1 3a2 Rx d 8 a0 85 72 f8 04 00 c5 6f 
0.145400 1 2f9 Rx d 8 88 fb 07 08 a1 ee 6f c9 
0.145700 1 421 Rx d 7 00 14 00 00 00 d0 48 
0.145900 1 2c1 Rx d 8 04 00 0f 0e 09 12 07 12 
0.146300 1 201 Rx d 8 03 d0 00 40 06 00 98 3b 
0.146500 1 2bf Rx d 7 0a 00 00 00 20 00 00 
0.146700 1 204 Rx d 8 41 00 00 00 00 00 00 10 
0.146900 1 264 Rx d 6 3b 00 00 00 00 00 
0.147100 1 2c4 Rx d 8 14 00 00 00 00 00 00 00 
0.148300 1 224 Rx d 8 04 08 00 48 19 01 10 08 
0.148500 1 2b4 Rx d 6 66 05 e4 0d c1 00 
0.148800 1 132 Rx d 6 c6 8a f8 ff 27 40 
0.149000 1 401 Rx d 8 10 2a f8 82 f5 82 f8 82 
0.149500 1 2aa Rx d 3 67 e0 f3 
0.149700 1 3a8 Rx d 8 04 80 03 80 00 00 00 00 
0.150000 1 3c2 Rx d 8 29 55 00 00 00 00 00 80 
0.150200 1 2e1 Rx d 8 29 8a 3b a2 1f 28 00 00 
0.152300 1 263 Rx d 8 04 00 00 00 60 14 00 00 
0.152500 1 129 Rx d 8 da 20 27 20 00 20 ff 3f 
0.152700 1 45a Rx d 8 fd 07 f8 ff 03 00 07 00 
0.153000 1 2c7 Rx d 8 00 00 00 00 00 00 46 ff 
0.153700 1 2a6 Rx d 8 00 00 6a 18 00 00 00 00 
0.154200 1 2a7 Rx d 8 00 00 00 00 00 90 05 84 
0.154400 1 3f9 Rx d 8 08 00 00 00 00 00 00 00 
0.155200 1 381 Rx d 8 01 00 00 04 93 92 94 00 
0.156200 1 234 Rx d 8 37 e1 03 80 43 00 94 0d 
0.156400 1 788 Rx d 8 f4 d4 a1 63 00 00 80 00 
0.156700 1 7e8 Rx d 8 14 05 00 c2 65 37 86 00 
0.157100 1 1fa Rx d 3 22 c0 01 
0.158500 1 420 Rx d 8 28 01 40 4b 00 00 00 03 
0.158700 1 225 Rx d 4 05 45 d2 00 
0.159000 1 2a1 Rx d 6 00 00 98 3a 00 00 
0.160300 1 261 Rx d 8 2a 2b 37 02 80 5c a2 02 
0.160500 1 132 Rx d 6 b5 8a f7 ff 25 40 
0.160800 1 752 Rx d 8 02 00 00 00 03 00 00 00 
0.162800 1 339 Rx d 8 01 41 02 00 00 02 40 02 
0.163000 1 243 Rx d 8 00 fc cf 4c b1 22 41 29 
0.163200 1 129 Rx d 8 a4 21 27 20 ff 1f ff 3f 
0.163500 1 288 Rx d 8 03 16 54 8f 80 0c f1 03 
0.163700 1 221 Rx d 8 41 01 55 51 01 02 c0 ce 
0.163800 1 283 Rx d 6 00 00 00 00 00 00 
0.164100 1 242 Rx d 4 10 15 04 05 
0.164300 1 2d2 Rx d 8 6e 29 a4 4e 00 00 a1 01 
0.164600 1 212 Rx d 8 58 2c 00 00 82 ff 37 62 
0.164800 1 23e Rx d 8 f4 01 3a ad fa fc 4f 61 
0.165100 1 252 Rx d 8 00 00 90 06 00 80 18 00 
0.165300 1 292 Rx d 8 47 83 2d 76 d2 01 00 00 
0.165500 1 2f2 Rx d 2 62 01 
0.166400 1 1f9 Rx d 8 00 00 00 00 00 00 00 00 
0.166700 1 2c1 Rx d 8 58 24 7e 00 00 8a 02 07 
0.166900 1 2e1 Rx d 8 02 6c 7f 02 2d 46 00 00 
0.167800 1 677 Rx d 8 02 00 00 00 00 00 00 00 
0.168500 1 22b Rx d 8 ff ff ff ff ff ff ff ff 
0.168700 1 712 Rx d 8 02 2a c0 0a d6 0a ec 0a 
0.169000 1 798 Rx d 8 05 00 00 00 00 00 e0 91 
0.169300 1 132 Rx d 6 c9 8a f7 ff 25 40 
0.170600 1 3c0 Rx d 8 09 00 00 00 00 00 00 00 
0.170800 1 401 Rx d 8 11 2a f9 82 f9 82 f0 82 
0.171000 1 360 Rx d 8 02 00 00 00 00 00 00 00 
0.171900 1 263 Rx d 8 18 7b 4d 07 d0 07 55 1f 
0.172300 1 129 Rx d 8 84 22 27 20 00 20 ff 3f 
0.172500 1 2b3 Rx d 8 a2 4d 00 00 00 00 00 0e 
0.173300 1 201 Rx d 8 f8 c9 01 00 20 1f f1 06 
0.174800 1 2a8 Rx d 8 c2 10 00 00 06 80 20 22 
0.175100 1 39d Rx d 5 e4 5c c1 27 00 
0.175300 1 119 Rx d 4 00 00 00 00 
0.175800 1 142 Rx d 8 28 00 02 5a 00 00 01 00 
0.176200 1 261 Rx d 8 5b 4f 0a 00 00 40 b5 9f 
0.176400 1 103 Rx d 8 22 b3 88 04 92 2c 21 02 
0.176700 1 545 Rx d 8 01 00 00 00 00 10 80 db 
0.176800 1 102 Rx d 8 21 72 88 04 8c 0e 21 08 
0.178000 1 3ae Rx d 8 00 40 00 08 00 00 f1 3a 
0.178500 1 409 Rx d 1 00 
0.178700 1 3a2 Rx d 8 01 10 20 00 07 f0 ff 00 
0.179000 1 132 Rx d 6 c0 8a f7 ff 25 40 
0.180000 1 3a1 Rx d 8 e8 42 0d 0a 01 28 e2 0c 
0.180300 1 428 Rx d 7 00 00 10 10 00 00 00 
0.180500 1 797 Rx d 4 14 09 e0 98 
0.181000 1 439 Rx d 8 02 00 40 00 00 38 00 00 
0.181800 1 123 Rx d 8 01 00 00 00 00 3f 00 00 
0.182400 1 129 Rx d 8 93 23 27 20 00 20 ff 3f 
0.182700 1 243 Rx d 8 01 fc 55 00 5c 00 7c 7c 
0.184000 1 400 Rx d 7 00 e0 fb be ef fb 00 
0.184300 1 2e1 Rx d 8 fb 19 e8 e9 9b e0 09 00 
0.184500 1 31a Rx d 8 60 fc ff 02 00 00 f0 6a 
0.185100 1 319 Rx d 8 22 00 00 00 ff ff ff ff 
0.186200 1 122 Rx d 8 00 00 18 92 12 00 00 00 
0.186500 1 3e8 Rx d 8 04 00 00 00 00 00 00 00 
0.186700 1 294 Rx d 8 14 c1 40 00 00 00 00 00 
0.187000 1 3fd Rx d 8 02 00 00 00 00 00 00 90 
0.187200 1 2c1 Rx d 8 21 ab 23 be 02 00 00 00 
0.187400 1 3a3 Rx d 8 00 d0 00 00 38 03 fc 01 
0.187700 1 25b Rx d 8 d3 c0 02 05 6a 86 00 e5 
0.187900 1 132 Rx d 6 c2 8a f7 ff 25 40 
0.188100 1 372 Rx d 8 06 fc 72 18 0b a3 4f 01 
0.188400 1 401 Rx d 8 12 2a f0 82 f3 82 f0 82 
0.188600 1 42a Rx d 8 f9 6b fe 9a bf e6 af 55 
0.188800 1 113 Rx d 3 01 97 01 
0.189100 1 318 Rx d 8 1a 09 31 05 0b 2c 27 d2 
0.189200 1 3db Rx d 8 60 02 00 00 00 00 00 00 
0.189400 1 43b Rx d 8 03 7f 00 ff 00 00 00 00 
0.189500 1 458 Rx d 7 00 00 00 00 40 00 00 
0.189800 1 261 Rx d 8 04 f1 f7 4d 00 40 c4 33 
0.190000 1 263 Rx d 8 49 63 55 07 e8 c7 54 1f 
0.190300 1 129 Rx d 8 15 24 27 20 00 20 ff 3f 
0.190500 1 272 Rx d 8 09 80 63 00 00 00 00 00 
0.190800 1 229 Rx d 3 49 0c 00 
0.190900 1 2ec Rx d 3 67 e0 35 
0.191100 1 249 Rx d 4 d3 04 00 00 
0.192300 1 340 Rx d 8 02 00 00 00 00 00 00 00 
0.194000 1 381 Rx d 8 22 63 ea 07 0e 20 91 01 
0.194300 1 54f Rx d 8 00 00 00 00 00 00 00 00 
0.194500 1 393 Rx d 8 09 80 63 00 00 00 00 00 
0.195800 1 719 Rx d 8 16 00 00 00 00 00 00 00 
0.196200 1 7f4 Rx d 1 01 
0.196500 1 7ff Rx d 8 08 00 00 01 00 00 00 00 
0.196700 1 441 Rx d 8 66 85 89 00 32 00 38 47 
0.197000 1 379 Rx d 8 08 00 00 00 00 00 12 03 
0.197200 1 201 Rx d 8 01 04 b8 00 10 00 80 c4 
0.197400 1 7a8 Rx d 8 f4 cc 91 63 00 00 82 00 
0.197900 1 282 Rx d 8 00 00 00 00 ec 13 0b 24 
0.198100 1 132 Rx d 6 c0 8a f7 ff 25 40 
0.198300 1 2e1 Rx d 8 04 00 00 80 48 44 26 00 
0.198500 1 20c Rx d 8 00 40 47 19 00 90 08 00 
0.198700 1 40a Rx d 8 01 00 01 00 00 00 f0 00 
0.199000 1 3c2 Rx d 8 00 55 55 55 00 00 59 45 
0.199200 1 22a Rx d 4 00 00 39 16 
0.199400 1 75d Rx d 8 03 00 80 00 00 00 00 00 
0.199600 1 21d Rx d 8 4c 00 02 20 80 00 10 00 
0.199800 1 41d Rx d 1 40 
0.200100 1 243 Rx d 8 02 84 39 11 00 0c 00 00 
0.200200 1 129 Rx d 8 02 25 27 20 00 20 ff 3f 
0.200500 1 25d Rx d 8 6e 81 24 ac 00 f1 d8 03 
0.200700 1 27d Rx d 8 00 00 00 00 00 00 00 00 
0.200900 1 241 Rx d 7 2c 2c 0c 0b 0b 53 00 
0.202500 1 29d Rx d 5 00 00 00 20 00 
0.202700 1 43d Rx d 6 21 00 ff 1f 20 26 
0.202900 1 45a Rx d 8 a0 46 c6 c5 3f 49 00 55 
0.203100 1 2bd Rx d 4 00 00 00 00 
0.204200 1 228 Rx d 8 03 16 54 8f 80 0c f1 a3 
0.204500 1 49d Rx d 7 00 00 00 00 00 00 20 
0.204700 1 139 Rx d 1 00 
0.206300 1 4e3 Rx d 8 06 00 00 00 00 00 00 00 
0.206500 1 234 Rx d 8 1b c0 01 36 d9 04 a0 2a 
0.206700 1 1f8 Rx d 4 00 00 00 00 
0.206900 1 23e Rx d 8 f4 01 3a ad fa fc 5f 71 
0.208000 1 261 Rx d 8 05 22 00 c9 9a 42 d0 92 
0.208500 1 2c1 Rx d 8 02 0d 06 00 00 d0 92 81 
0.208700 1 677 Rx d 8 03 00 00 00 00 00 00 00 
0.209000 1 545 Rx d 8 02 00 07 00 00 00 90 e3 
0.209200 1 132 Rx d 6 b0 8a f7 ff 2a 40 
0.209800 1 401 Rx d 8 13 2a f2 82 eb 82 ec 82 
0.210300 1 7b8 Rx d 8 05 40 52 c9 35 03 e0 92 
0.210500 1 37a Rx d 8 c0 00 00 00 00 00 00 00 
0.211100 1 343 Rx d 8 00 92 5c 4e 9f 00 00 00 
0.212200 1 129 Rx d 8 d8 26 27 20 00 20 ff 3f 
0.212500 1 263 Rx d 8 02 00 00 00 00 00 00 00 
0.214500 1 3a2 Rx d 8 e2 27 00 00 20 00 00 00 
0.214900 1 289 Rx d 8 aa 02 01 c0 94 00 3d 0f 
0.215100 1 2f1 Rx d 8 04 10 2d 81 34 00 01 00 
0.215400 1 221 Rx d 8 40 41 05 05 00 50 d1 cf 
0.216300 1 39d Rx d 5 e5 5d c1 27 00 
0.216800 1 2e1 Rx d 8 45 c1 02 00 50 95 a3 6a 
0.218300 1 2e8 Rx d 8 c2 10 00 00 06 80 20 62 
0.218500 1 3c3 Rx d 8 55 55 55 01 00 80 43 00 
0.218700 1 22b Rx d 8 ff ff ff ff ff ff ff ff 
0.219000 1 359 Rx d 8 02 02 00 00 64 82 86 24 
0.219300 1 3ae Rx d 8 00 40 00 08 00 00 01 4a 
0.220200 1 132 Rx d 6 b8 8a f7 ff 27 40 
0.220500 1 4e2 Rx d 8 06 00 00 00 00 00 00 00 
0.221300 1 7aa Rx d 8 c0 ef 8e 3c 00 08 8c 29 
0.221800 1 243 Rx d 8 03 00 00 80 42 65 1f 00 
0.222100 1 129 Rx d 8 cf 27 27 20 00 20 ff 3f 
0.222800 1 448 Rx d 7 00 00 10 10 00 00 00 
0.223800 1 201 Rx d 8 02 d0 00 40 06 00 b8 39 
0.224200 1 261 Rx d 8 00 10 86 00 c5 4c e0 7d 
0.224400 1 553 Rx d 8 00 00 00 00 00 00 f0 48 
0.224600 1 3f5 Rx d 8 00 c8 48 09 80 04 00 00 
0.225400 1 142 Rx d 8 01 00 40 0a c0 1b 00 00 
0.226300 1 38a Rx d 8 03 00 00 00 00 00 00 00 
0.226500 1 78a Rx d 8 01 00 06 00 02 00 00 00 
0.226700 1 552 Rx d 8 00 00 00 00 00 00 f0 47 
0.227000 1 310 Rx d 8 12 87 f5 81 33 6c e7 1a 
0.227200 1 2c1 Rx d 8 1b 17 13 00 00 00 00 00 
0.228300 1 381 Rx d 8 03 8a 7e 07 00 90 04 00 
0.228500 1 682 Rx d 8 00 00 00 40 05 02 f0 17 
0.228800 1 3a1 Rx d 8 2b 91 40 89 3e 00 f0 73 
0.229000 1 132 Rx d 6 b4 8a f8 ff 27 40 
0.229200 1 320 Rx d 8 02 00 00 00 00 00 00 00 
0.230800 1 383 Rx d 8 a7 18 45 00 31 70 c0 5e 
0.232100 1 401 Rx d 8 14 2a f0 82 f5 82 f9 82 
0.232400 1 2e1 Rx d 8 10 21 04 00 12 00 26 08 
0.232600 1 263 Rx d 8 03 00 00 00 00 00 00 34 
0.232800 1 129 Rx d 8 18 28 27 20 00 20 ff 3f 
0.234500 1 2b3 Rx d 8 03 46 46 11 00 00 80 3c 
0.235100 1 39a Rx d 8 2c 1f f7 52 ff fd fd 11 
0.236000 1 422 Rx d 6 70 00 10 00 00 00 
0.236200 1 2d1 Rx d 2 7f 01 
0.236500 1 238 Rx d 8 f0 27 9c d8 1f 00 16 fa 
0.237000 1 423 Rx d 7 00 00 00 00 08 00 00 
0.237300 1 61d Rx d 8 11 0d 8a 22 9e 15 00 14 
0.237400 1 789 Rx d 4 54 11 f0 57 
0.237600 1 3ae Rx d 8 00 40 00 08 00 00 10 59 
0.237800 1 219 Rx d 7 02 80 ff ff ff fa 0f 
0.238000 1 132 Rx d 6 be 8a f7 ff 28 40 
0.238300 1 261 Rx d 8 31 00 61 00 e6 49 fa b1 
0.238500 1 719 Rx d 8 17 00 00 00 00 00 00 00 
0.238800 1 414 Rx d 8 10 00 00 00 00 20 20 20 
0.238900 1 419 Rx d 1 00 
0.239100 1 666 Rx d 4 00 00 a0 00 
0.239300 1 55a Rx d 8 05 00 00 00 00 00 00 00 
0.239500 1 2c2 Rx d 8 20 40 c0 52 01 00 80 cb 
0.240600 1 405 Rx d 8 10 00 00 00 00 4c 52 57 
0.240800 1 2c3 Rx d 8 55 03 a8 06 00 00 12 a5 
0.241800 1 129 Rx d 8 24 29 27 20 ff 1f ff 3f 
0.242300 1 20e Rx d 3 10 00 00 
0.242900 1 243 Rx d 8 04 84 f1 ff fd 7f 55 5c 
0.243100 1 249 Rx d 4 83 05 00 00 
0.243300 1 545 Rx d 8 f0 00 22 90 9e e0 a9 13 
0.244300 1 3c8 Rx d 8 05 00 00 00 00 00 00 00 
0.244600 1 262 Rx d 8 0b 00 d5 de 00 b0 92 12 
0.244800 1 3a2 Rx d 8 a0 85 f2 f6 04 00 c5 6f 
0.245000 1 441 Rx d 8 23 00 b6 c3 58 00 3d 9a 
0.245200 1 23e Rx d 8 f4 01 3a ad fa fc 6f 81 
0.245500 1 2f9 Rx d 8 88 fb 07 10 00 00 00 00 
0.245700 1 421 Rx d 7 00 14 00 00 00 d0 48 
0.245900 1 2e1 Rx d 8 29 8a 3b a2 1f 28 00 00 
0.246100 1 201 Rx d 8 03 d0 00 40 06 00 98 3b 
0.246300 1 2c1 Rx d 8 04 00 0f 0e 09 12 07 12 
0.246500 1 204 Rx d 8 41 00 00 00 00 00 00 10 
0.246700 1 264 Rx d 6 3a 00 00 00 00 00 
0.246900 1 2c4 Rx d 8 55 00 01 08 20 00 ff 00 
0.247200 1 443 Rx d 6 7a 0f ff 03 00 00 
0.247400 1 224 Rx d 8 04 08 00 48 19 01 10 08 
0.247700 1 2b4 Rx d 6 66 05 e4 0d c1 00 
0.247900 1 132 Rx d 6 c3 8a f8 ff 27 40 
0.248100 1 2aa Rx d 3 67 f0 03 
0.248200 1 2e3 Rx d 7 94 12 62 00 18 06 00 
0.248600 1 2e2 Rx d 8 f7 13 50 3f 6d f6 d2 54 
0.248800 1 372 Rx d 8 07 00 00 00 00 00 00 00 
0.249000 1 3c2 Rx d 8 29 55 00 00 00 00 00 80 
0.249500 1 401 Rx d 8 15 2a fa 82 f9 82 fd 82 
0.249700 1 677 Rx d 8 04 00 00 00 00 00 00 00 
0.250000 1 718 Rx d 7 04 00 00 00 00 00 00 
0.250200 1 743 Rx d 1 00 
0.250800 1 263 Rx d 8 04 00 00 00 60 14 00 00 
0.252300 1 129 Rx d 8 92 2a 27 20 00 20 ff 3f 
0.252500 1 45a Rx d 8 fd 07 f8 ff 03 00 07 00 
0.252800 1 2c7 Rx d 8 00 00 00 00 00 00 46 ff 
0.253700 1 2a6 Rx d 8 00 00 6a 18 00 00 00 00 
0.254200 1 2a7 Rx d 8 00 00 00 00 00 8c 05 84 
0.254400 1 3f9 Rx d 8 00 00 00 00 00 00 00 00 
0.255200 1 39d Rx d 5 e6 5e c1 27 00 
0.256200 1 261 Rx d 8 2a 2b 37 02 80 5c 02 62 
0.257100 1 234 Rx d 8 37 e1 03 80 43 00 b4 2d 
0.258500 1 788 Rx d 8 01 00 00 00 ff a1 d8 13 
0.258700 1 1fa Rx d 3 22 c0 01 
0.259000 1 420 Rx d 8 28 01 40 4b 00 00 80 03 
0.260300 1 225 Rx d 4 05 45 d2 00 
0.260500 1 2a1 Rx d 6 00 00 98 3a 00 00 
0.260700 1 132 Rx d 6 bb 8a f7 ff 25 40 
0.260900 1 339 Rx d 8 01 41 02 00 00 02 40 02 
0.261100 1 243 Rx d 8 00 fc cf 4c b1 22 41 29 
0.261300 1 129 Rx d 8 63 2b 27 20 00 20 ff 3f 
0.262800 1 288 Rx d 8 03 16 54 8f 80 0c 01 13 
0.263100 1 2e1 Rx d 8 02 6c 7f 02 2d 47 00 00 
0.263300 1 221 Rx d 8 41 01 55 51 01 02 e0 ee 
0.263600 1 283 Rx d 6 00 00 00 00 00 00 
0.263700 1 242 Rx d 4 10 15 04 05 
0.263900 1 2d3 Rx d 8 dd 00 5c 02 42 ff 1e 64 
0.264200 1 381 Rx d 8 04 91 93 8f 94 94 8f 69 
0.264400 1 2d2 Rx d 8 6e 29 a4 4e 00 00 a1 01 
0.264700 1 252 Rx d 8 00 00 90 06 00 80 18 00 
0.264900 1 212 Rx d 8 58 2c 00 00 82 ff 37 62 
0.266400 1 292 Rx d 8 47 83 2d 76 d2 01 00 00 
0.266700 1 2f2 Rx d 2 62 01 
0.266900 1 712 Rx d 8 03 2a d4 0a 02 0b ed 0a 
0.267900 1 1f9 Rx d 8 00 00 00 00 00 00 00 00 
0.268300 1 2c1 Rx d 8 58 24 7e 00 00 8a 02 07 
0.268500 1 798 Rx d 8 96 06 00 00 00 00 f0 38 
0.268800 1 22b Rx d 8 ff ff ff ff ff ff ff ff 
0.269300 1 132 Rx d 6 c8 8a f7 ff 29 40 
0.270600 1 3c0 Rx d 8 0a 00 10 00 00 00 00 00 
0.270900 1 401 Rx d 8 16 2a f8 82 ef 82 f0 82 
0.271900 1 360 Rx d 8 03 00 00 00 00 00 00 00 
0.272300 1 261 Rx d 8 5b 4f 0a 00 00 40 15 ff 
0.272500 1 263 Rx d 8 18 7b 4d 07 d0 07 55 1f 
0.274800 1 129 Rx d 8 03 2c 27 20 00 20 ff 3f 
0.275100 1 201 Rx d 8 f8 c9 01 00 20 1f f1 06 
0.275300 1 2a8 Rx d 8 c2 10 00 00 06 80 30 32 
0.275500 1 119 Rx d 4 00 00 00 00 
0.276200 1 142 Rx d 8 28 00 02 5a 00 00 01 00 
0.276400 1 545 Rx d 8 01 00 00 00 00 10 b0 0b 
0.276700 1 103 Rx d 8 22 b3 88 04 92 2c 21 02 
0.276900 1 102 Rx d 8 21 72 88 04 8c 0e 21 08 
0.277100 1 3a2 Rx d 8 01 10 20 00 07 f0 ff 00 
0.278000 1 3ae Rx d 8 00 40 00 08 00 00 20 69 
0.278500 1 409 Rx d 1 00 
0.278800 1 132 Rx d 6 bd 8a f7 ff 29 40 
0.279000 1 2e1 Rx d 8 fb 19 e9 e9 9b e3 09 00 
0.280000 1 3a1 Rx d 8 e8 42 0d 0a 01 2c 02 30 
0.281800 1 428 Rx d 7 00 00 10 10 00 00 00 
0.282400 1 797 Rx d 4 14 09 f0 a8 
0.282900 1 439 Rx d 8 02 00 40 00 00 38 00 00 
0.283100 1 123 Rx d 8 00 00 12 92 d2 00 00 80 
0.283400 1 129 Rx d 8 11 2d 27 20 00 20 ff 3f 
0.284300 1 243 Rx d 8 01 fc 55 00 5c 00 7c 7c 
0.284600 1 400 Rx d 7 00 e0 fb be ef fb 00 
0.284800 1 122 Rx d 8 01 00 00 00 00 3f 00 00 
0.285000 1 3e8 Rx d 8 05 00 00 00 00 00 00 00 
0.285300 1 1bb Rx d 1 02 
0.286200 1 284 Rx d 8 30 00 00 00 40 08 50 4e 
0.286500 1 23e Rx d 8 f4 01 3a ad fa fc 7f 91 
0.287100 1 261 Rx d 8 04 f1 f7 4d 00 40 24 93 
0.287200 1 2c1 Rx d 8 21 ab 23 be 02 00 00 00 
0.287400 1 3a3 Rx d 8 00 d0 00 00 38 03 fc 01 
0.287600 1 677 Rx d 8 00 00 00 00 00 00 00 00 
0.287800 1 25b Rx d 8 d3 c0 02 05 6a 86 10 f5 
0.288000 1 132 Rx d 6 c0 8a f8 ff 25 40 
0.288300 1 401 Rx d 8 17 2a f3 82 f2 82 ed 82 
0.288600 1 719 Rx d 8 20 03 02 14 14 27 25 00 
0.288800 1 113 Rx d 3 01 97 01 
0.289000 1 7f4 Rx d 1 01 
0.289200 1 7ff Rx d 8 09 ef 00 00 08 00 00 00 
0.289400 1 318 Rx d 8 1a 09 31 05 0b 2c 29 d4 
0.289600 1 458 Rx d 7 00 00 00 00 40 00 00 
0.289700 1 340 Rx d 8 03 01 00 00 00 00 00 00 
0.290000 1 263 Rx d 8 49 63 55 07 e8 c7 54 1f 
0.290200 1 129 Rx d 8 ce 2e 27 20 00 20 ff 3f 
0.290500 1 272 Rx d 8 06 00 fc e0 07 b0 07 08 
0.290800 1 229 Rx d 3 2f 0d 00 
0.292300 1 2b3 Rx d 8 04 21 42 7e fc 04 01 34 
0.292500 1 249 Rx d 4 4c 06 00 00 
0.294000 1 2ec Rx d 3 67 f0 45 
0.294300 1 3cc Rx d 8 03 11 03 19 00 0e 09 00 
0.294500 1 54f Rx d 8 00 00 00 00 00 00 00 00 
0.295800 1 393 Rx d 8 06 00 fa d8 07 b0 07 08 
0.296200 1 39d Rx d 5 e7 5f c1 27 00 
0.296500 1 2e1 Rx d 8 04 00 00 80 48 44 26 00 
0.296700 1 441 Rx d 8 66 85 89 00 32 00 00 0f 
0.296900 1 379 Rx d 8 09 00 00 00 00 00 12 03 
0.297200 1 201 Rx d 8 01 04 b8 00 10 00 80 c4 
0.297300 1 7a8 Rx d 8 01 00 00 00 ff a1 d8 13 
0.297600 1 282 Rx d 8 00 00 00 00 ec 13 0b 24 
0.297900 1 132 Rx d 6 c3 8a f7 ff 24 40 
0.298100 1 381 Rx d 8 45 46 2a fc 80 81 c8 28 
0.298400 1 20c Rx d 8 00 40 47 19 00 90 08 00 
0.298600 1 3e2 Rx d 7 00 00 80 5a b0 cf 04 
0.298800 1 3c2 Rx d 8 00 55 55 55 00 00 59 45 
0.299100 1 22a Rx d 4 00 00 39 16 
0.299300 1 41d Rx d 1 40 
0.299500 1 21d Rx d 8 4c 00 02 20 80 00 10 00 
0.299700 1 43d Rx d 6 21 00 ff 1f 20 26 
0.300000 1 25d Rx d 8 6e 81 24 ac 00 f1 d8 03 
0.300100 1 243 Rx d 8 02 84 39 11 00 0c 00 00 
0.300400 1 129 Rx d 8 3f 2f 27 20 00 20 ff 3f 
0.300600 1 27d Rx d 8 00 00 00 00 00 00 00 00 
0.300800 1 241 Rx d 7 2c 2c 0c 0b 0b 53 00 
0.301000 1 29d Rx d 5 00 00 00 20 00 
0.302400 1 45a Rx d 8 a0 46 c6 c5 3f 49 00 55 
0.302700 1 49d Rx d 7 00 00 00 00 00 00 20 
0.302900 1 2bd Rx d 4 00 00 00 00 
0.304300 1 261 Rx d 8 05 22 00 c9 9a 42 30 f2 
0.305300 1 228 Rx d 8 03 16 54 8f 80 0c 01 b3 
0.306200 1 7aa Rx d 8 01 e2 0d e4 0d 00 00 2e 
0.306500 1 139 Rx d 1 00 
0.306700 1 234 Rx d 8 1c c0 01 37 dd 04 c0 50 
0.307000 1 4e3 Rx d 8 07 00 00 00 00 00 00 00 
0.307800 1 1f8 Rx d 4 00 00 00 00 
0.308100 1 2c1 Rx d 8 02 0d 06 00 00 d0 92 81 
0.308300 1 545 Rx d 8 02 00 08 00 00 00 c0 14 
0.308600 1 132 Rx d 6 bc 8a f7 ff 27 40 
0.308800 1 372 Rx d 8 08 00 00 00 00 00 00 00 
0.309000 1 401 Rx d 8 18 2a f0 82 f4 82 ef 82 
0.309800 1 7b8 Rx d 8 06 00 00 00 00 00 f0 10 
0.310300 1 3a2 Rx d 8 f2 27 00 00 20 00 00 00 
0.310500 1 37a Rx d 8 c1 00 00 00 00 00 00 00 
0.312400 1 2e1 Rx d 8 45 c1 02 00 50 95 a3 6a 
0.314500 1 263 Rx d 8 02 00 00 00 00 00 00 00 
0.314700 1 129 Rx d 8 da 20 27 20 00 20 ff 3f 
0.314900 1 343 Rx d 8 00 92 5c 7e 9f 00 00 00 
0.315200 1 289 Rx d 8 aa 02 01 00 90 00 3d 0f 
0.315400 1 2f1 Rx d 8 05 10 2c 81 34 00 01 00 
0.316300 1 221 Rx d 8 40 41 05 05 00 50 f1 ef 
0.316500 1 2e8 Rx d 8 c2 10 00 00 06 80 30 72 
0.316800 1 3c3 Rx d 8 00 00 00 00 00 45 00 00 
0.318400 1 3e3 Rx d 4 00 00 00 00 
0.318600 1 22b Rx d 8 ff ff ff ff ff ff ff ff 
0.318800 1 359 Rx d 8 03 00 00 00 ff 01 00 00 
0.319100 1 3ae Rx d 8 00 40 00 08 00 00 30 79 
0.319300 1 261 Rx d 8 00 10 86 00 c5 4c 40 dd 
0.320500 1 132 Rx d 6 be 8a f8 ff 25 40 
0.321300 1 4e2 Rx d 8 47 28 00 00 00 00 00 00 
0.321800 1 448 Rx d 7 00 00 10 10 00 00 00 
0.322100 1 243 Rx d 8 03 00 00 80 42 65 1f 00 
0.322900 1 129 Rx d 8 60 21 27 20 01 20 ff 3f 
0.323100 1 6e8 Rx d 8 01 00 00 00 00 00 00 00 
0.323700 1 201 Rx d 8 02 d0 00 40 06 00 b8 39 
0.324000 1 553 Rx d 8 00 00 00 00 00 00 00 58 
0.324200 1 3f5 Rx d 8 00 c8 48 09 80 04 00 00 
0.324500 1 142 Rx d 8 01 00 40 0a c0 1b 00 00 
0.324700 1 38a Rx d 8 00 00 00 00 00 00 00 00 
0.325000 1 23e Rx d 8 f4 01 3a ad fa fc 8f a1 
0.325400 1 3aa Rx d 8 00 00 00 00 00 00 00 00 
0.326300 1 77a Rx d 8 00 0a 1f 00 e1 0c 5f 61 
0.326500 1 552 Rx d 8 00 00 00 00 00 00 00 57 
0.326700 1 78a Rx d 8 01 00 00 00 1a 13 12 0d 
0.326900 1 2c1 Rx d 8 1b 17 13 00 00 00 00 00 
0.328500 1 2e1 Rx d 8 10 21 04 00 12 00 26 08 
0.328800 1 677 Rx d 8 01 00 00 00 00 00 00 00 
0.329100 1 682 Rx d 8 00 00 00 40 05 02 00 27 
0.329300 1 3a1 Rx d 8 2b 91 40 97 3e 00 10 a1 
0.330800 1 132 Rx d 6 b6 8a f8 ff 27 40 
0.331000 1 383 Rx d 8 a7 18 45 00 31 70 c0 5e 
0.332200 1 401 Rx d 8 19 2a fa 82 f8 82 f7 82 
0.332400 1 263 Rx d 8 03 00 00 00 00 00 00 34 
0.332600 1 129 Rx d 8 84 22 27 20 00 20 ff 3f 
0.332900 1 39a Rx d 8 fd fd fd fd fd 01 00 02 
0.333100 1 3c9 Rx d 8 09 00 00 00 00 00 00 00 
0.333300 1 422 Rx d 6 70 00 10 00 00 00 
0.334500 1 39d Rx d 5 d8 50 c1 27 00 
0.336000 1 2d1 Rx d 2 7f 01 
0.336200 1 261 Rx d 8 31 00 75 00 e8 49 5a 27 
0.337000 1 381 Rx d 8 66 00 00 00 08 01 00 0f 
0.337100 1 285 Rx d 8 41 03 65 01 0d 00 08 00 
0.337800 1 286 Rx d 5 ff ff ff ff 71 
0.338300 1 423 Rx d 7 00 00 00 00 08 00 00 
0.338500 1 789 Rx d 4 54 11 00 67 
0.338800 1 219 Rx d 7 03 80 ff ff ff fb 0f 
0.338900 1 132 Rx d 6 bd 8a f8 ff 28 40 
0.339100 1 719 Rx d 8 01 06 00 00 00 00 00 00 
0.339300 1 419 Rx d 1 00 
0.340300 1 2c2 Rx d 8 55 1b a8 06 00 00 12 a5 
0.340600 1 545 Rx d 8 f0 00 22 b0 9e df d9 62 
0.340800 1 2c3 Rx d 8 00 00 c0 4b 01 00 c0 cb 
0.342300 1 129 Rx d 8 93 23 27 20 00 20 ff 3f 
0.343000 1 20e Rx d 3 11 01 00 
0.343300 1 243 Rx d 8 04 84 f1 ff fd 7f 55 5c 
0.344200 1 249 Rx d 4 5e 07 00 00 
0.344500 1 2e1 Rx d 8 29 8a 3b a2 1f 28 00 00 
0.344700 1 3c8 Rx d 8 06 00 00 00 00 00 00 00 
0.345000 1 3a2 Rx d 8 a0 85 f2 f6 04 00 c5 6f 
0.345200 1 441 Rx d 8 23 00 b6 c3 58 00 05 62 
0.345400 1 2f9 Rx d 8 88 fb 07 18 00 00 00 00 
0.345600 1 421 Rx d 7 00 14 00 00 00 d0 48 
0.345800 1 361 Rx d 5 33 0d 20 03 00 
0.346100 1 201 Rx d 8 03 d0 00 40 06 00 98 3b 
0.346300 1 2bf Rx d 7 0a 00 00 00 20 00 00 
0.346500 1 204 Rx d 8 41 00 00 00 00 00 00 10 
0.346700 1 264 Rx d 6 3b 00 00 00 00 00 
0.346900 1 2c1 Rx d 8 04 00 0f 0e 09 12 07 12 
0.347200 1 2c4 Rx d 8 16 14 b7 02 00 00 00 01 
0.348300 1 2b4 Rx d 6 68 05 e4 0d c6 00 
0.348600 1 224 Rx d 8 04 08 00 48 19 01 10 08 
0.348800 1 132 Rx d 6 be 8a f7 ff 28 40 
0.349000 1 401 Rx d 8 1a 2a f9 82 f9 82 f9 82 
0.349300 1 2aa Rx d 3 67 00 13 
0.349500 1 3a8 Rx d 8 00 ff 00 7f 00 00 00 00 
0.349800 1 3c2 Rx d 8 29 55 00 00 00 00 00 80 
0.350000 1 261 Rx d 8 2a 2b 37 02 80 5c 62 c2 
0.350300 1 263 Rx d 8 04 00 00 00 60 14 00 00 
0.352500 1 129 Rx d 8 15 24 27 20 00 20 ff 3f 
0.352700 1 2b3 Rx d 8 45 62 7f 00 0d 81 8c 8c 
0.353700 1 45a Rx d 8 fd 07 f8 ff 03 00 07 00 
0.354200 1 2a6 Rx d 8 00 00 6a 18 00 00 00 00 
0.354400 1 2a7 Rx d 8 00 00 00 00 00 8c 05 84 
0.355100 1 2c7 Rx d 8 00 00 00 00 00 00 46 ff 
0.355300 1 3f9 Rx d 8 01 00 00 00 00 00 00 00 
0.356200 1 234 Rx d 8 37 e1 03 80 43 00 d4 4d 
0.356500 1 788 Rx d 8 02 40 cb 07 00 00 00 00 
0.356700 1 1fa Rx d 3 22 c0 01 
0.357100 1 420 Rx d 8 28 01 40 4b 00 00 00 04 
0.358500 1 225 Rx d 4 05 45 d2 00 
0.358700 1 3ae Rx d 8 00 40 00 08 00 00 40 89 
0.359000 1 2a1 Rx d 6 00 00 98 3a 00 00 
0.360300 1 132 Rx d 6 c8 8a f7 ff 25 40 
0.360500 1 2e1 Rx d 8 02 6c 7f 02 2d 47 00 00 
0.360800 1 709 Rx d 8 02 80 80 80 80 80 00 01 
0.362700 1 339 Rx d 8 01 41 02 00 00 02 40 02 
0.363000 1 243 Rx d 8 00 fc cf 4c b1 22 41 29 
0.363200 1 129 Rx d 8 02 25 27 20 00 20 ff 3f 
0.363500 1 288 Rx d 8 03 16 54 8f 80 0c 11 23 
0.363700 1 221 Rx d 8 41 01 55 51 01 02 00 0e 
0.363800 1 283 Rx d 6 00 00 00 00 00 00 
0.364100 1 242 Rx d 4 10 15 04 05 
0.364300 1 2d2 Rx d 8 6e 29 a4 4e 00 00 a1 01 
0.364500 1 212 Rx d 8 58 2c 00 00 82 ff 37 62 
0.364800 1 23e Rx d 8 f4 01 3a ad fa fc 9f b1 
0.365000 1 252 Rx d 8 00 00 90 06 00 80 18 00 
0.365300 1 292 Rx d 8 47 83 2d 76 d2 01 00 00 
0.365500 1 2f2 Rx d 2 62 01 
0.365800 1 1f9 Rx d 8 00 00 00 00 00 00 00 00 
0.366400 1 261 Rx d 8 5b 4f 0a 00 00 40 75 5f 
0.366700 1 2c1 Rx d 8 58 24 7e 00 00 8a 02 07 
0.366900 1 3b2 Rx d 8 08 30 02 01 61 36 cc 02 
0.367100 1 22b Rx d 8 ff ff ff ff ff ff ff ff 
0.367900 1 677 Rx d 8 02 00 00 00 00 00 00 00 
0.368300 1 712 Rx d 8 04 00 00 00 00 00 00 00 
0.368500 1 798 Rx d 8 38 a2 08 6a 20 02 00 1a 
0.368700 1 132 Rx d 6 c3 8a f7 ff 27 40 
0.369000 1 372 Rx d 8 09 00 00 00 00 f8 3f 00 
0.369300 1 3c0 Rx d 8 00 00 00 00 00 00 00 00 
0.370600 1 401 Rx d 8 1b 2a e9 82 ea 82 ed 82 
0.370800 1 360 Rx d 8 04 00 00 00 00 00 00 00 
0.371000 1 381 Rx d 8 07 00 00 54 7d 27 00 00 
0.371300 1 7aa Rx d 8 72 08 77 f9 59 07 21 00 
0.371900 1 129 Rx d 8 d8 26 27 20 00 20 ff 3f 
0.372300 1 263 Rx d 8 18 7b 4d 07 d0 07 55 1f 
0.372500 1 201 Rx d 8 f8 b9 01 00 20 1f f1 06 
0.373800 1 2a8 Rx d 8 c2 10 00 00 06 80 40 42 
0.374800 1 39d Rx d 5 d9 51 c1 27 00 
0.375100 1 119 Rx d 4 00 00 00 00 
0.376200 1 545 Rx d 8 01 00 00 00 00 10 e0 3b 
0.376500 1 142 Rx d 8 28 00 02 5a 00 00 01 00 
0.376700 1 2e1 Rx d 8 fb 19 eb e9 9b e0 09 00 
0.376800 1 103 Rx d 8 22 b3 88 04 92 2c 21 02 
0.378000 1 3a2 Rx d 8 01 10 20 00 07 f0 ff 00 
0.378500 1 102 Rx d 8 21 72 88 04 8c 0e 21 08 
0.378800 1 409 Rx d 1 00 
0.379000 1 132 Rx d 6 be 8a f7 ff 25 40 
0.380000 1 3a1 Rx d 8 e8 42 0d 0a 01 2c 22 50 
0.380300 1 428 Rx d 7 00 00 10 10 00 00 00 
0.380500 1 797 Rx d 4 14 09 00 b8 
0.381900 1 439 Rx d 8 02 00 40 00 00 38 00 00 
0.382400 1 123 Rx d 8 01 00 00 00 00 3f 00 00 
0.382900 1 129 Rx d 8 cf 27 27 20 00 20 ff 3f 
0.383100 1 243 Rx d 8 01 fc 55 00 5c 00 7c 7c 
0.384300 1 400 Rx d 7 00 e0 fb be ef fb 00 
0.384500 1 261 Rx d 8 04 f1 f7 4d 00 40 84 f3 
0.385100 1 31a Rx d 8 60 fc ff 02 00 00 00 7a 
0.386200 1 122 Rx d 8 00 00 18 92 12 00 00 00 
0.386500 1 3e8 Rx d 8 06 00 00 00 00 00 00 00 
0.387000 1 313 Rx d 8 02 64 64 05 00 00 80 65 
0.387200 1 285 Rx d 8 02 d5 00 00 00 00 de 00 
0.387400 1 2c1 Rx d 8 21 ab 23 be 02 00 00 00 
0.387500 1 3a3 Rx d 8 00 d0 00 00 38 03 fc 01 
0.387800 1 25b Rx d 8 d3 c0 02 05 6a 86 20 05 
0.388000 1 132 Rx d 6 c3 8a f8 ff 29 40 
0.388200 1 401 Rx d 8 1c 2a e9 82 e9 82 e7 82 
0.388500 1 42a Rx d 8 f9 6b fe 9a bf e6 af 55 
0.388700 1 113 Rx d 3 01 97 01 
0.388900 1 719 Rx d 8 ee c5 00 00 62 00 00 14 
0.389100 1 7f4 Rx d 1 01 
0.389300 1 7ff Rx d 8 01 a5 4e 43 42 4c 7b 00 
0.389500 1 318 Rx d 8 1a 09 31 05 0b 2c 2b d6 
0.389700 1 458 Rx d 7 00 00 00 00 40 00 00 
0.389900 1 2e1 Rx d 8 04 00 00 80 48 44 26 00 
0.390100 1 129 Rx d 8 18 28 27 20 00 20 ff 3f 
0.390300 1 263 Rx d 8 49 63 55 07 e8 c7 54 1f 
0.390600 1 229 Rx d 3 31 0e 00 
0.392300 1 272 Rx d 8 09 80 63 00 00 00 00 00 
0.394000 1 249 Rx d 4 3f 08 00 00 
0.394300 1 2ec Rx d 3 67 00 55 
0.394500 1 340 Rx d 8 04 00 00 00 00 00 00 00 
0.395100 1 382 Rx d 5 42 18 27 00 00 
0.395800 1 54f Rx d 8 00 00 00 00 00 00 00 00 
0.396200 1 393 Rx d 8 09 80 63 00 00 00 00 00 
0.396500 1 441 Rx d 8 66 85 89 00 32 00 08 17 
0.396700 1 379 Rx d 8 0a 00 00 00 00 00 12 03 
0.396900 1 201 Rx d 8 01 04 b8 00 10 00 80 c4 
0.397200 1 7a8 Rx d 8 02 40 c9 07 00 07 00 00 
0.397400 1 3ae Rx d 8 00 40 00 08 00 00 50 99 
0.397900 1 282 Rx d 8 00 00 00 00 ec 13 0b 24 
0.398200 1 132 Rx d 6 c9 8a f8 ff 2a 40 
0.398300 1 261 Rx d 8 05 22 00 c9 9a 42 90 52 
0.398500 1 20c Rx d 8 00 40 47 19 00 90 08 00 
0.398700 1 40a Rx d 8 01 00 01 00 00 00 00 10 
0.399000 1 3c2 Rx d 8 00 55 55 55 00 00 59 45 
0.399200 1 22a Rx d 4 00 00 39 16 
0.399400 1 75d Rx d 8 04 00 00 00 00 00 00 00 
0.399600 1 21d Rx d 8 4c 00 02 20 80 00 10 00 
0.399800 1 41d Rx d 1 40 
0.400100 1 243 Rx d 8 02 84 39 11 00 0c 00 00 
0.400200 1 129 Rx d 8 4d 29 27 20 00 20 ff 3f 
0.400500 1 25d Rx d 8 6e 81 24 ac 00 f1 d8 03 
0.400700 1 27d Rx d 8 00 00 00 00 00 00 00 00 
0.400900 1 241 Rx d 7 2b 2c cc 0a 0b 53 00 
0.402400 1 29d Rx d 5 00 00 00 20 00 
0.402700 1 43d Rx d 6 21 00 ff 1f 20 26 
0.402800 1 45a Rx d 8 a0 46 c6 c5 3f 49 00 55 
0.403100 1 2bd Rx d 4 00 00 00 00 
0.404300 1 228 Rx d 8 03 16 54 8f 80 0c 11 c3 
0.404500 1 49d Rx d 7 00 00 00 00 00 00 20 
0.404700 1 139 Rx d 1 00 
0.405000 1 234 Rx d 8 1b c0 01 37 dd 04 e0 6f 
0.405200 1 4e3 Rx d 8 20 06 03 fb 0f 00 a8 1f 
0.406200 1 1f8 Rx d 4 00 00 00 00 
0.406500 1 23e Rx d 8 f4 01 3a ad fa fc af c1 
0.406700 1 2e1 Rx d 8 45 c1 02 00 50 95 a3 6a 
0.407000 1 2c1 Rx d 8 02 0d 06 00 00 d0 92 81 
0.408000 1 381 Rx d 8 c8 83 0e 02 07 00 00 20 
0.408500 1 545 Rx d 8 02 00 09 00 00 00 f0 45 
0.408800 1 677 Rx d 8 03 00 00 00 00 00 00 00 
0.409000 1 132 Rx d 6 c3 8a f8 ff 28 40 
0.409200 1 401 Rx d 8 1d 2a e9 82 ed 82 ef 82 
0.409800 1 7b8 Rx d 8 60 42 09 93 b8 02 00 12 
0.410300 1 3a2 Rx d 8 f2 27 00 00 20 00 00 00 
0.410500 1 37a Rx d 8 c2 00 00 00 00 00 00 00 
0.411100 1 343 Rx d 8 00 92 5c 0e 9f 00 00 00 
0.412300 1 129 Rx d 8 92 2a 27 20 00 20 ff 3f 
0.412500 1 263 Rx d 8 02 00 00 00 00 00 00 00 
0.414500 1 2b3 Rx d 8 06 6d 9d db 0e 42 a2 d5 
0.414700 1 289 Rx d 8 aa 02 01 40 86 00 3d 0f 
0.415000 1 2f1 Rx d 8 06 90 2f 01 08 00 01 00 
0.415200 1 221 Rx d 8 40 41 05 05 00 50 11 0f 
0.416300 1 39d Rx d 5 da 52 c1 27 00 
0.416900 1 261 Rx d 8 00 10 86 00 c5 4c a0 3d 
0.418400 1 2e8 Rx d 8 c2 10 00 00 06 80 40 82 
0.418600 1 3c3 Rx d 8 55 55 55 01 00 80 43 00 
0.418800 1 323 Rx d 5 3b 15 20 01 02 
0.419300 1 22b Rx d 8 ff ff ff ff ff ff ff ff 
0.420300 1 359 Rx d 8 04 00 00 00 00 00 00 00 
0.420500 1 132 Rx d 6 c0 8a f7 ff 28 40 
0.421300 1 4e2 Rx d 8 20 32 00 00 00 00 28 02 
0.421800 1 448 Rx d 7 00 00 10 10 00 00 00 
0.422100 1 243 Rx d 8 03 00 00 80 42 65 1f 00 
0.422800 1 129 Rx d 8 0a 2b 27 20 ff 1f ff 3f 
0.422900 1 201 Rx d 8 02 d0 00 40 06 00 b8 39 
0.423800 1 2e1 Rx d 8 10 21 04 00 12 00 26 08 
0.424300 1 553 Rx d 8 00 00 00 00 00 00 10 68 
0.425600 1 3f5 Rx d 8 00 c8 48 09 80 04 00 00 
0.426300 1 142 Rx d 8 01 00 40 0a c0 1b 00 00 
0.426500 1 38a Rx d 8 01 00 00 00 00 00 00 00 
0.426800 1 78a Rx d 8 01 00 01 00 e4 5d a8 5d 
0.427000 1 24a Rx d 1 03 
0.427200 1 552 Rx d 8 00 00 00 00 00 00 10 67 
0.427400 1 2c1 Rx d 8 1b 17 13 00 00 00 00 00 
0.428300 1 682 Rx d 8 00 00 00 40 05 02 10 37 
0.428500 1 3a1 Rx d 8 2b 91 40 8d 3e 00 30 b7 
0.428800 1 132 Rx d 6 c3 8a f8 ff 28 40 
0.429000 1 320 Rx d 8 03 00 00 00 00 00 00 00 
0.430800 1 372 Rx d 8 0a 01 50 06 00 00 00 5c 
0.432200 1 383 Rx d 8 a7 18 43 00 31 70 c0 5e 
0.432500 1 401 Rx d 8 1e 2a f5 82 f4 82 f2 82 
0.432800 1 261 Rx d 8 31 00 81 00 e8 49 ba 93 
0.433000 1 263 Rx d 8 03 00 00 00 00 00 00 34 
0.434100 1 129 Rx d 8 03 2c 27 20 00 20 ff 3f 
0.434500 1 39a Rx d 8 34 23 fb 56 ff fd fd 11 
0.435100 1 422 Rx d 6 70 00 10 00 00 00 
0.436000 1 2d1 Rx d 2 7f 01 
0.436200 1 423 Rx d 7 00 00 00 00 08 00 00 
0.436500 1 3df Rx d 8 00 00 00 00 01 d0 00 1b 
0.437000 1 293 Rx d 8 01 0c 15 90 55 14 af 5f 
0.437300 1 285 Rx d 8 03 47 86 48 95 00 00 00 
0.437500 1 789 Rx d 4 54 11 10 77 
0.437700 1 3ae Rx d 8 00 40 00 08 00 00 60 a9 
0.437900 1 219 Rx d 7 04 74 74 00 00 00 00 
0.438100 1 132 Rx d 6 c6 8a f7 ff 27 40 
0.438500 1 2e1 Rx d 8 29 8a 3b a2 1f 28 00 00 
0.438800 1 43b Rx d 8 00 7f 00 ff 00 00 00 00 
0.438900 1 34a Rx d 8 00 a7 07 20 00 00 00 60 
0.439100 1 419 Rx d 1 00 
0.439300 1 545 Rx d 8 f0 00 22 00 9f e3 09 e7 
0.439900 1 2c2 Rx d 8 20 40 c0 52 01 00 80 cb 
0.440300 1 719 Rx d 8 0c 50 0f 00 50 00 20 00 
0.440600 1 2c3 Rx d 8 55 03 a8 06 00 00 12 a5 
0.442300 1 129 Rx d 8 11 2d 27 20 00 20 ff 3f 
0.442900 1 20e Rx d 3 12 02 00 
0.443100 1 243 Rx d 8 04 84 f1 ff fd 7f 55 5c 
0.443400 1 249 Rx d 4 5e 09 00 00 
0.444300 1 3a2 Rx d 8 a0 85 f2 f6 04 00 c5 6f 
0.444500 1 381 Rx d 8 09 00 00 82 00 00 00 6b 
0.444700 1 3c8 Rx d 8 00 00 00 00 00 00 00 00 
0.445000 1 441 Rx d 8 23 00 b6 c3 58 00 0d 6a 
0.445200 1 23e Rx d 8 f4 01 3a ad fa fc bf d1 
0.445400 1 2f9 Rx d 8 88 fb 07 20 00 00 00 00 
0.445700 1 421 Rx d 7 00 14 00 00 00 d0 48 
0.445900 1 737 Rx d 7 03 00 00 00 e0 f0 80 
0.446100 1 201 Rx d 8 03 d0 00 40 06 00 98 3b 
0.446300 1 261 Rx d 8 2a 2b 37 02 80 5c c2 22 
0.446500 1 204 Rx d 8 41 00 00 00 00 00 00 10 
0.446700 1 264 Rx d 6 3a 00 00 00 00 00 
0.446900 1 2c1 Rx d 8 04 00 0f 0e 09 12 07 12 
0.447200 1 2c4 Rx d 8 17 80 ff 00 04 00 20 00 
0.447400 1 2b4 Rx d 6 67 05 e4 0d c5 00 
0.447700 1 224 Rx d 8 04 08 00 48 19 01 10 08 
0.447900 1 132 Rx d 6 b0 8a f7 ff 2a 40 
0.448500 1 2e3 Rx d 7 06 00 00 00 00 00 00 
0.448800 1 2aa Rx d 3 67 10 23 
0.449000 1 2e2 Rx d 8 18 2e 00 00 00 00 00 00 
0.449300 1 3c2 Rx d 8 29 55 00 00 00 00 00 80 
0.449500 1 401 Rx d 8 1f 2a ed 82 ef 82 e7 82 
0.449700 1 677 Rx d 8 04 00 00 00 00 00 00 00 
0.450000 1 718 Rx d 7 00 00 00 00 00 00 00 
0.450200 1 263 Rx d 8 04 00 00 00 60 14 00 00 
0.450500 1 129 Rx d 8 ce 2e 27 20 00 20 ff 3f 
0.450800 1 45a Rx d 8 fd 07 f8 ff 03 00 07 00 
0.452300 1 7aa Rx d 8 23 82 f9 64 07 13 00 1c 
0.452500 1 2c7 Rx d 8 00 00 00 00 00 00 46 ff 
0.452800 1 2a6 Rx d 8 00 00 6a 18 00 00 00 00 
0.453700 1 2a7 Rx d 8 00 00 00 00 00 8c 05 84 
0.454200 1 366 Rx d 8 0d 00 00 00 1d d1 ec 03 
0.454400 1 3f9 Rx d 8 02 00 00 00 00 00 00 00 
0.455200 1 39d Rx d 5 db 53 c1 27 00 
0.456200 1 2e1 Rx d 8 02 6c 7f 02 2d 46 00 00 
0.457100 1 234 Rx d 8 37 e1 03 80 43 00 f4 6d 
0.458500 1 788 Rx d 8 f4 d4 a1 63 00 00 80 00 
0.458700 1 1fa Rx d 3 22 c0 01 
0.459000 1 420 Rx d 8 28 01 40 4b 00 00 80 04 
0.460300 1 225 Rx d 4 05 45 d2 00 
0.460500 1 2a1 Rx d 6 00 00 98 3a 00 00 
0.460700 1 132 Rx d 6 be 8a f8 ff 28 40 
0.460900 1 339 Rx d 8 01 41 02 00 00 02 40 02 
0.462800 1 243 Rx d 8 00 fc cf 4c b1 22 41 29 
0.463000 1 129 Rx d 8 3f 2f 27 20 00 20 ff 3f 
0.463300 1 288 Rx d 8 03 16 54 8f 80 0c 21 33 
0.463500 1 261 Rx d 8 5b 4f 0a 00 00 40 d5 bf 
0.463600 1 221 Rx d 8 41 01 55 51 01 02 20 2e 
0.463800 1 283 Rx d 6 00 00 00 00 00 00 
0.464100 1 242 Rx d 4 10 15 04 05 
0.464300 1 2d2 Rx d 8 6f 29 a4 4e 00 00 a1 01 
0.464600 1 212 Rx d 8 58 2c 00 00 82 ff 37 62 
0.464800 1 252 Rx d 8 00 00 90 06 00 80 18 00 
0.465100 1 292 Rx d 8 47 83 2d 76 d2 01 00 00 
0.465300 1 2f2 Rx d 2 62 01 
0.466400 1 312 Rx d 8 99 82 c7 14 1c 8d 00 00 
0.466700 1 1f9 Rx d 8 00 00 00 00 00 00 00 00 
0.466900 1 2c1 Rx d 8 58 24 7e 00 00 8a 02 07 
0.467900 1 392 Rx d 8 01 1c a9 67 10 27 02 00 
0.468300 1 712 Rx d 8 05 00 00 00 00 00 00 00 
0.468500 1 22b Rx d 8 ff ff ff ff ff ff ff ff 
0.468800 1 798 Rx d 8 c9 d7 02 46 18 01 10 bd 
0.469000 1 132 Rx d 6 b9 8a f7 ff 25 40 
0.469300 1 3c0 Rx d 8 01 00 00 00 00 00 00 01 
0.470300 1 401 Rx d 8 20 2a e8 82 ed 82 f6 82 
0.470600 1 360 Rx d 8 05 00 00 00 00 00 00 00 
0.470900 1 2e1 Rx d 8 fb 19 ea e9 9b da 09 00 
0.471100 1 263 Rx d 8 18 7b 4d 07 d0 07 55 1f 
0.471900 1 129 Rx d 8 da 20 27 20 00 20 ff 3f 
0.472500 1 2b3 Rx d 8 07 b2 8e 9e 3f 3c 22 11 
0.472800 1 201 Rx d 8 f0 c9 01 00 20 1f f1 06 
0.474800 1 545 Rx d 8 01 00 00 00 00 10 10 6b 
0.476200 1 2a8 Rx d 8 c2 10 00 00 06 80 50 52 
0.476400 1 119 Rx d 4 00 00 00 00 
0.476700 1 739 Rx d 5 2c 06 23 01 00 
0.476900 1 142 Rx d 8 28 00 02 5a 00 00 01 00 
0.477100 1 103 Rx d 8 22 b3 88 04 92 2c 21 02 
0.477300 1 3a2 Rx d 8 01 10 20 00 0b f0 ff 00 
0.477600 1 102 Rx d 8 21 72 88 04 8c 0e 21 08 
0.477800 1 3ae Rx d 8 00 40 00 08 00 00 70 b9 
0.478100 1 132 Rx d 6 c3 8a f7 ff 27 40 
0.478500 1 261 Rx d 8 04 f1 f7 4d 00 40 e4 53 
0.478800 1 381 Rx d 8 0a d0 d1 01 00 34 9b 00 
0.479000 1 3a1 Rx d 8 e8 42 0d 0a 01 28 42 6c 
0.480100 1 409 Rx d 1 00 
0.480300 1 428 Rx d 7 00 00 10 10 00 00 00 
0.481900 1 797 Rx d 4 14 09 10 c8 
0.482300 1 439 Rx d 8 02 00 40 00 00 38 00 00 
0.482500 1 123 Rx d 8 00 00 12 92 d2 00 00 80 
0.482700 1 129 Rx d 8 60 21 27 20 01 20 ff 3f 
0.482900 1 243 Rx d 8 01 fc 55 00 5c 00 7c 7c 
0.483600 1 38d Rx d 8 96 00 aa aa aa 24 49 02 
0.484300 1 400 Rx d 7 00 e0 fb be ef fb 00 
0.484500 1 122 Rx d 8 01 00 00 00 00 3f 00 00 
0.484700 1 253 Rx d 8 00 64 34 85 64 62 00 15 
0.485000 1 213 Rx d 2 f0 05 
0.485200 1 3e8 Rx d 8 00 00 00 00 00 00 00 00 
0.485500 1 4f3 Rx d 4 00 00 00 00 
0.486300 1 23e Rx d 8 f4 01 3a ad fa fc cf e1 
0.486500 1 2e1 Rx d 8 04 00 00 80 48 44 26 00 
0.486700 1 2c1 Rx d 8 21 ab 23 be 02 00 00 00 
0.486900 1 285 Rx d 8 04 53 93 47 8b 00 00 00 
0.487200 1 3a3 Rx d 8 00 d0 00 00 38 03 fc 01 
0.487400 1 25b Rx d 8 d3 c0 02 05 6a 86 30 15 
0.487600 1 677 Rx d 8 00 00 00 00 00 00 00 00 
0.487800 1 232 Rx d 8 4a 00 df 09 de 04 00 00 
0.488100 1 132 Rx d 6 c5 8a f7 ff 24 40 
0.488300 1 372 Rx d 8 0b f0 ff 13 00 65 66 00 
0.488500 1 401 Rx d 8 21 2a e9 82 eb 82 f2 82 
0.488800 1 719 Rx d 8 0d 00 00 00 00 00 00 00 
0.488900 1 52f Rx d 8 00 06 5b 2e 95 32 78 80 
0.489300 1 348 Rx d 8 16 00 00 06 20 08 01 10 
0.489300 1 113 Rx d 3 01 97 01 
0.489500 1 3ed Rx d 1 00 
0.489700 1 405 Rx d 8 11 33 45 37 46 41 35 4d 
0.489800 1 340 Rx d 8 05 00 00 00 00 00 00 00 
0.490000 1 129 Rx d 8 84 22 27 20 00 20 ff 3f 
0.490200 1 263 Rx d 8 49 63 55 07 e8 c7 54 1f 
0.490500 1 229 Rx d 3 3b 0f 00 
0.490700 1 272 Rx d 8 06 00 fc e0 07 b0 07 08 
0.490900 1 249 Rx d 4 e2 0a 00 00 
0.491100 1 2ec Rx d 3 67 10 65 
0.491300 1 414 Rx d 8 11 20 20 20 20 20 20 20 
0.491500 1 528 Rx d 4 6a a3 95 52 
0.491700 1 54f Rx d 8 00 00 00 00 00 00 00 00 
0.491900 1 55a Rx d 8 01 00 00 00 00 00 00 00 
0.492300 1 393 Rx d 8 06 00 fa d8 07 b0 07 08 
0.492500 1 39d Rx d 5 dc 54 c1 27 00 
0.494000 1 666 Rx d 4 00 00 a0 00 
0.494300 1 7f4 Rx d 1 01 
0.494500 1 7ff Rx d 8 02 53 26 2c 8c 51 a3 90 
0.494700 1 318 Rx d 8 1a 09 32 05 0b 2c 2d d9 
0.495900 1 458 Rx d 7 00 00 00 00 40 00 00 
0.496200 1 261 Rx d 8 05 22 00 c9 9a 42 f0 b2 
0.496500 1 441 Rx d 8 66 85 89 00 32 00 10 1f 
0.496800 1 379 Rx d 8 0b 00 00 00 00 00 18 0a 
0.497100 1 201 Rx d 8 01 04 b8 00 10 00 80 c4 
0.497300 1 7a8 Rx d 8 f4 cc 91 63 00 00 82 00 
0.497600 1 708 Rx d 5 30 22 0d 00 00 
0.497900 1 282 Rx d 8 00 00 00 00 ec 13 0b 24 
0.498100 1 132 Rx d 6 cc 8a f8 ff 28 40 
0.498400 1 20c Rx d 8 00 40 47 19 00 90 08 00 
0.498600 1 3e2 Rx d 7 00 00 80 5a b0 cf 04 
0.498800 1 3c2 Rx d 8 00 55 55 55 00 00 59 45 
0.499100 1 22a Rx d 4 00 00 39 16 
0.499300 1 41d Rx d 1 40 
0.499500 1 21d Rx d 8 4c 00 02 20 80 00 10 00 
0.499700 1 43d Rx d 6 21 00 ff 1f 20 26 
0.499900 1 25d Rx d 8 6e 81 24 ac 00 f1 d8 03 
0.500100 1 243 Rx d 8 02 84 39 11 00 0c 00 00 
0.500400 1 129 Rx d 8 93 23 27 20 00 20 ff 3f 
0.500600 1 27d Rx d 8 00 00 00 00 00 00 00 00 
0.500900 1 241 Rx d 7 2b 2c cc 0a 0b 53 00 
0.502400 1 29d Rx d 5 00 00 00 20 00 
0.502700 1 2bd Rx d 4 00 00 00 00 
0.502900 1 45a Rx d 8 a0 46 c6 c5 3f 49 00 55 
0.503300 1 49d Rx d 7 00 00 00 00 00 00 20 
0.504300 1 2e1 Rx d 8 45 c1 02 00 50 95 a3 6a 
0.505800 1 228 Rx d 8 03 16 54 8f 80 0c 21 d3 
0.506200 1 139 Rx d 1 00 
0.506500 1 234 Rx d 8 1b c0 01 37 dd 04 00 8f 
0.506700 1 4e3 Rx d 8 01 e3 06 00 00 00 28 29 
0.508000 1 1f8 Rx d 4 00 00 00 00 
0.508300 1 545 Rx d 8 02 00 0a 00 00 00 20 76 
0.508500 1 2c1 Rx d 8 02 0d 06 00 00 d0 92 81 
0.508800 1 3a2 Rx d 8 e2 27 00 00 20 00 00 00 
0.509000 1 132 Rx d 6 c6 8a f7 ff 25 40 
0.509900 1 401 Rx d 8 22 2a f3 82 fd 82 fd 82 
0.510300 1 7b8 Rx d 8 91 d7 02 a6 04 00 10 3e 
0.510500 1 37a Rx d 8 7b 00 00 00 00 00 00 00 
0.512300 1 261 Rx d 8 00 10 86 00 c5 4c 00 9d 
0.512500 1 343 Rx d 8 00 92 60 0e 9f 00 00 00 
0.514500 1 129 Rx d 8 15 24 27 20 00 20 ff 3f 
0.514700 1 263 Rx d 8 02 00 00 00 00 00 00 00 
0.514900 1 289 Rx d 8 aa 02 01 80 a1 00 3d 0f 
0.515200 1 2f1 Rx d 8 07 00 00 00 00 00 00 00 
0.515400 1 221 Rx d 8 40 41 05 05 00 50 31 2f 
0.515700 1 381 Rx d 8 0b 00 00 c8 00 00 3c 06 
0.516000 1 2e8 Rx d 8 c2 10 00 00 06 80 50 92 
0.516300 1 3c3 Rx d 8 00 00 00 00 00 45 00 00 
0.516500 1 3e3 Rx d 4 00 00 00 00 
0.516900 1 22b Rx d 8 ff ff ff ff ff ff ff ff 
0.518400 1 359 Rx d 8 86 3f d0 11 81 04 00 0e 
0.518600 1 39b Rx d 8 00 06 df e0 b0 48 21 7c 
0.518900 1 3ae Rx d 8 00 40 00 08 00 00 80 c9 
0.519300 1 3e9 Rx d 8 f1 80 02 00 00 00 10 6f 
0.520500 1 132 Rx d 6 bf 8a f7 ff 28 40 
0.521300 1 2e1 Rx d 8 10 21 04 00 12 00 26 08 
0.521900 1 4e2 Rx d 8 01 c0 06 ff 0f 00 a8 28 
0.522100 1 448 Rx d 7 00 00 10 10 00 00 00 
0.522300 1 243 Rx d 8 03 00 00 80 42 65 1f 00 
0.522900 1 129 Rx d 8 02 25 27 20 00 20 ff 3f 
0.523800 1 201 Rx d 8 02 d0 00 40 06 00 b8 39 
0.524300 1 553 Rx d 8 00 00 00 00 00 00 20 78 
0.524500 1 3f5 Rx d 8 00 c8 48 09 80 04 00 00 
0.524800 1 142 Rx d 8 01 00 40 0a c0 1b 00 00 
0.525400 1 38a Rx d 8 03 00 00 00 00 00 00 00 
0.526300 1 78a Rx d 8 01 00 02 00 66 06 65 06 
0.526500 1 23e Rx d 8 f4 01 3a ad fa fc df f1 
0.526700 1 552 Rx d 8 00 00 00 00 00 00 20 77 
0.527000 1 261 Rx d 8 31 00 92 00 e6 49 1a 02 
0.528500 1 2c1 Rx d 8 1b 17 13 00 00 00 00 00 
0.528800 1 677 Rx d 8 01 00 00 00 00 00 00 00 
0.529000 1 682 Rx d 8 00 00 00 40 05 02 20 47 
0.529300 1 3a1 Rx d 8 2b 91 40 89 3e 00 50 d3 
0.529500 1 132 Rx d 6 bd 8a f7 ff 27 40 
0.530800 1 383 Rx d 8 a7 18 43 00 31 70 c0 5e 
0.531000 1 401 Rx d 8 23 02 fb 82 00 00 00 00 
0.531100 1 263 Rx d 8 03 00 00 00 00 00 00 34 
0.532200 1 129 Rx d 8 d8 26 27 20 00 20 ff 3f 
0.532400 1 2b3 Rx d 8 08 fa fc c9 0c 8e d3 e5 
0.532600 1 39a Rx d 8 fd fd fd fd fd 01 00 02 
0.532900 1 7aa Rx d 8 04 00 0f c0 00 1a 00 00 
0.533200 1 422 Rx d 6 70 00 10 00 00 00 
0.533300 1 362 Rx d 3 00 00 00 
0.533600 1 39d Rx d 5 dd 55 c1 27 00 
0.533800 1 2d1 Rx d 2 7f 01 
0.534500 1 2e1 Rx d 8 29 8a 3b a2 1f 28 00 00 
0.536000 1 423 Rx d 7 00 00 00 00 08 00 00 
0.536200 1 473 Rx d 8 00 00 03 00 00 00 00 00 
0.536500 1 324 Rx d 8 74 4a ff 8e a0 01 00 00 
0.537100 1 5f3 Rx d 3 0a 53 09 
0.537200 1 253 Rx d 8 01 64 34 85 64 62 00 15 
0.537900 1 3b3 Rx d 8 8c 80 04 30 01 00 a8 80 
0.538500 1 789 Rx d 4 54 11 20 87 
0.538800 1 219 Rx d 7 05 00 6f 70 6f 70 00 
0.538900 1 132 Rx d 6 bf 8a f7 ff 25 40 
0.539200 1 545 Rx d 8 f0 00 22 90 9e e0 39 a3 
0.539500 1 719 Rx d 8 53 00 10 00 00 00 00 00 
0.539700 1 419 Rx d 1 00 
0.540100 1 2c2 Rx d 8 55 1b a8 06 00 00 12 a5 
0.540400 1 2c3 Rx d 8 00 00 c0 4b 01 00 c0 cb 
0.540600 1 129 Rx d 8 cf 27 27 20 00 20 ff 3f 
0.542300 1 20e Rx d 3 13 03 00 
0.543000 1 243 Rx d 8 04 84 f1 ff fd 7f 55 5c 
0.543300 1 249 Rx d 4 28 0b 00 00 
0.544300 1 3a2 Rx d 8 a0 85 f2 f6 04 00 c5 6f 
0.544500 1 3ae Rx d 8 00 40 00 08 00 00 91 da 
0.544700 1 261 Rx d 8 2a 2b 37 02 80 5c 22 82 
0.545000 1 3c8 Rx d 8 01 00 00 00 00 00 00 00 
0.545200 1 441 Rx d 8 23 00 b6 c3 58 00 15 72 
0.545400 1 2f9 Rx d 8 88 fb 07 28 00 00 00 00 
0.545700 1 421 Rx d 7 00 14 00 00 00 d0 48 
0.545900 1 2c1 Rx d 8 04 00 0f 0e 09 12 07 12 
0.546300 1 201 Rx d 8 03 d0 00 40 06 00 98 3b 
0.546500 1 2bf Rx d 7 0a 00 00 00 20 00 00 
0.546600 1 204 Rx d 8 41 00 00 00 00 00 00 10 
0.546900 1 264 Rx d 6 3a 00 00 00 00 00 
0.547100 1 2c4 Rx d 8 19 7b 1f 42 02 14 60 00 
0.547400 1 224 Rx d 8 04 08 00 48 19 01 10 08 
0.548000 1 2b4 Rx d 6 65 05 e5 0d c5 00 
0.548300 1 132 Rx d 6 c4 8a f7 ff 27 40 
0.548600 1 2a4 Rx d 8 cb c7 7d e6 53 ff ff 3b 
0.548800 1 2aa Rx d 3 67 20 33 
0.549000 1 372 Rx d 8 0c ef 7f 89 0f 00 00 00 
0.549300 1 3a8 Rx d 8 01 03 00 00 00 03 ff 00 
0.549500 1 3c2 Rx d 8 29 55 00 00 00 00 00 80 
0.549800 1 364 Rx d 4 00 82 fc 1f 
0.550000 1 2e1 Rx d 8 02 6c 7f 02 2d 46 00 00 
0.550300 1 263 Rx d 8 04 00 00 00 60 14 00 00 
0.550500 1 129 Rx d 8 71 28 27 20 ff 1f ff 3f 
0.552400 1 381 Rx d 8 0c 20 00 19 19 a9 00 06 
0.552700 1 3a4 Rx d 8 00 00 00 00 00 00 00 00 
0.553700 1 2a6 Rx d 8 00 00 6a 18 00 00 00 00 
0.554200 1 2a7 Rx d 8 00 00 00 00 00 8c 05 84 
0.554400 1 2c7 Rx d 8 00 00 00 00 00 00 46 ff 
0.555300 1 3f9 Rx d 8 03 00 00 00 00 00 00 00 
0.556200 1 45a Rx d 8 fd 07 f8 ff 03 00 07 00 
0.556500 1 234 Rx d 8 37 e1 03 80 43 00 14 8d 
0.557100 1 788 Rx d 8 01 00 00 00 ff a1 d8 13 
0.558500 1 1fa Rx d 3 22 c0 01 
0.558700 1 420 Rx d 8 28 01 40 4b 00 00 00 05 
0.559000 1 225 Rx d 4 05 45 d2 00 
0.560300 1 2a1 Rx d 6 00 00 98 3a 00 00 
0.560500 1 132 Rx d 6 c8 8a f7 ff 25 40 
0.560800 1 261 Rx d 8 5b 4f 0a 00 00 40 35 1f 
0.563000 1 339 Rx d 8 01 41 02 00 00 02 40 02 
0.563200 1 243 Rx d 8 00 fc cf 4c b1 22 41 29 
0.563400 1 129 Rx d 8 4d 29 27 20 00 20 ff 3f 
0.563700 1 288 Rx d 8 03 16 54 8f 80 0c 31 43 
0.563900 1 221 Rx d 8 41 01 55 51 01 02 40 4e 
0.564200 1 283 Rx d 6 00 00 00 00 00 00 
0.564400 1 242 Rx d 4 10 15 04 05 
0.564600 1 23e Rx d 8 f4 01 3a ad fa fc ef 01 
0.564700 1 212 Rx d 8 58 2c 00 00 82 ff 37 62 
0.565000 1 252 Rx d 8 00 00 90 06 00 80 18 00 
0.565200 1 292 Rx d 8 47 83 2d 76 d2 01 00 00 
0.565500 1 2d2 Rx d 8 6e 29 a4 4e 00 00 a1 01 
0.565700 1 1f9 Rx d 8 00 00 00 00 00 00 00 00 
0.566400 1 2c1 Rx d 8 58 24 7e 00 00 8a 02 07 
0.566700 1 2e1 Rx d 8 fb 19 e8 e9 9b de 09 00 
0.567900 1 2f2 Rx d 2 62 01 
0.568500 1 22b Rx d 8 ff ff ff ff ff ff ff ff 
0.568800 1 352 Rx d 8 01 00 df 00 60 08 51 01 
0.569300 1 677 Rx d 8 02 00 00 00 00 00 00 00 
0.569500 1 798 Rx d 8 ea a3 76 3f 1c 01 20 2b 
0.570600 1 132 Rx d 6 cb 8a f7 ff 27 40 
0.570800 1 3c0 Rx d 8 02 00 00 00 00 00 00 00 
0.571000 1 360 Rx d 8 06 00 00 00 00 00 00 00 
0.571900 1 263 Rx d 8 18 7b 4d 07 d0 07 55 1f 
0.572100 1 129 Rx d 8 92 2a 27 20 00 20 ff 3f 
0.572400 1 201 Rx d 8 f8 c9 01 00 20 1f f1 06 
0.572600 1 545 Rx d 8 01 00 00 00 00 10 40 9b 
0.574900 1 2a8 Rx d 8 c2 10 00 00 06 80 60 62 
0.575100 1 39d Rx d 5 de 56 c1 27 00 
0.576200 1 119 Rx d 4 00 00 00 00 
0.576500 1 3a2 Rx d 8 01 10 20 00 0b f0 ff 00 
0.576700 1 142 Rx d 8 28 00 02 5a 00 00 01 00 
0.576800 1 261 Rx d 8 04 f1 f7 4d 00 40 44 b3 
0.578000 1 103 Rx d 8 22 b3 88 04 92 2c 21 02 
0.578500 1 102 Rx d 8 21 72 88 04 8c 0e 21 08 
0.578800 1 409 Rx d 1 00 
0.579000 1 132 Rx d 6 ca 8a f8 ff 24 40 
0.580000 1 3a1 Rx d 8 e8 42 0d 0a 01 28 62 8c 
0.580300 1 428 Rx d 7 00 00 10 10 00 00 00 
0.580500 1 797 Rx d 4 14 09 20 d8 
0.580700 1 439 Rx d 8 02 00 40 00 00 38 00 00 
0.581700 1 123 Rx d 8 01 00 00 00 00 3f 00 00 
0.581900 1 129 Rx d 8 63 2b 27 20 00 20 ff 3f 
0.582300 1 243 Rx d 8 01 fc 55 00 5c 00 7c 7c 
0.582500 1 400 Rx d 7 00 e0 fb be ef fb 00 
0.582700 1 2e1 Rx d 8 04 00 00 80 48 44 26 00 
0.583000 1 31a Rx d 8 60 fc ff 02 00 00 10 8a 
0.584300 1 3d3 Rx d 3 00 00 00 
0.584500 1 3ae Rx d 8 00 40 00 08 00 00 a1 ea 
0.584800 1 122 Rx d 8 00 00 18 92 12 00 00 00 
0.585100 1 333 Rx d 5 04 05 e8 07 00 
0.586200 1 3e8 Rx d 8 01 00 00 00 00 00 00 00 
0.587000 1 334 Rx d 8 bf 3f 0a 04 ff 01 31 74 
0.587200 1 3fd Rx d 8 00 00 00 3c 20 00 01 80 
0.587400 1 2c1 Rx d 8 21 ab 23 be 02 00 00 00 
0.587700 1 381 Rx d 8 6d 82 01 d6 00 20 fb 0a 
0.587900 1 3a3 Rx d 8 00 d0 00 00 38 03 fc 01 
0.588100 1 25b Rx d 8 d3 c0 02 05 6a 86 40 25 
0.588400 1 132 Rx d 6 c7 8a f7 ff 25 40 
0.588600 1 42a Rx d 8 f9 6b fe 9a bf e6 af 55 
0.588800 1 113 Rx d 3 01 97 01 
0.589000 1 318 Rx d 8 1a 09 32 05 0b 2c 2f db 
0.589300 1 458 Rx d 7 00 00 00 00 40 00 00 
0.589500 1 719 Rx d 8 03 00 00 00 00 00 00 00 
0.589700 1 7f4 Rx d 1 01 
0.589900 1 7ff Rx d 8 03 33 08 00 e0 22 16 00 
0.589900 1 261 Rx d 8 05 22 00 c9 9a 42 50 12 
0.590200 1 129 Rx d 8 ae 2c 27 20 01 20 ff 3f 
0.590500 1 263 Rx d 8 49 63 55 07 e8 c7 54 1f 
0.590700 1 229 Rx d 3 46 00 00 
0.592300 1 272 Rx d 8 09 80 63 00 00 00 00 00 
0.594000 1 249 Rx d 4 3a 0c 00 00 
0.594300 1 2b3 Rx d 8 69 2b c4 49 3e 00 4b 32 
0.594500 1 2ec Rx d 3 67 20 75 
0.595900 1 340 Rx d 8 06 00 00 00 00 00 00 00 
0.596200 1 54f Rx d 8 00 00 00 00 00 00 00 00 
0.596500 1 393 Rx d 8 09 80 63 00 00 00 00 00 
0.596700 1 441 Rx d 8 66 85 89 00 32 00 18 27 
0.597000 1 379 Rx d 8 00 00 0a 48 33 3f 22 00 
0.597200 1 201 Rx d 8 01 04 b8 00 10 00 80 c4 
0.597500 1 7a8 Rx d 8 01 00 00 00 ff a1 c8 13 
0.597900 1 282 Rx d 8 00 00 00 00 ec 13 0b 24 
0.598100 1 132 Rx d 6 c7 8a f7 ff 27 40 
0.598300 1 2e1 Rx d 8 45 c1 02 00 50 95 a3 6a 
0.598500 1 20c Rx d 8 00 40 47 19 00 90 08 00 
0.598800 1 40a Rx d 8 01 00 01 00 00 00 10 20 
0.599000 1 3c2 Rx d 8 00 55 55 55 00 00 59 45 
0.599200 1 22a Rx d 4 00 00 39 16 
0.599400 1 75d Rx d 8 05 00 00 00 00 00 88 04 
0.599600 1 21d Rx d 8 4c 00 02 20 80 00 10 00 
0.599800 1 41d Rx d 1 40 
0.600000 1 25d Rx d 8 6e 81 24 ac 00 f1 d8 03 
0.600200 1 129 Rx d 8 11 2d 27 20 00 20 ff 3f 
0.600400 1 243 Rx d 8 02 84 39 11 00 0c 00 00 
0.600700 1 27d Rx d 8 00 00 00 00 00 00 00 00 
0.600900 1 241 Rx d 7 2c 2c 0c 0b 0b 53 00 
0.601000 1 29d Rx d 5 00 00 00 20 00 
0.602300 1 43d Rx d 6 21 00 ff 1f 20 26 
0.602500 1 45a Rx d 8 a0 46 c6 c5 3f 49 00 55 
0.602800 1 2bd Rx d 4 00 00 00 00 
0.602900 1 228 Rx d 8 03 16 54 8f 80 0c 31 e3 
0.603200 1 49d Rx d 7 00 00 00 00 00 00 20 
0.604300 1 7aa Rx d 8 d5 60 83 0d a0 08 10 00 
0.604500 1 139 Rx d 1 00 
0.604800 1 545 Rx d 8 02 00 0b 00 00 00 50 a7 
0.605000 1 234 Rx d 8 1b c0 01 37 dd 04 20 af 
0.606200 1 4e3 Rx d 8 02 7e 00 00 00 00 a8 03 
0.606500 1 1f8 Rx d 4 00 00 00 00 
0.606700 1 23e Rx d 8 f4 01 3a ad fa fc ff 11 
0.608000 1 261 Rx d 8 00 10 86 00 c5 4c 60 fd 
0.608500 1 2c1 Rx d 8 02 0d 06 00 00 d0 92 81 
0.608800 1 677 Rx d 8 03 00 00 00 00 00 00 00 
0.609000 1 3a2 Rx d 8 e2 27 00 00 20 00 00 00 
0.609900 1 132 Rx d 6 b5 8a f8 ff 27 40 
0.610300 1 372 Rx d 8 0d 32 00 d0 ff 5e db 8a 
0.610500 1 7b8 Rx d 8 7a dd 14 cd d0 04 20 46 
0.610800 1 37a Rx d 8 c0 00 00 00 00 00 00 00 
0.612300 1 343 Rx d 8 00 92 5c 4e 9f 00 00 00 
0.612500 1 129 Rx d 8 a7 2e 27 20 ff 1f ff 3f 
0.613000 1 263 Rx d 8 02 00 00 00 00 00 00 00 
0.614600 1 289 Rx d 8 aa 02 01 c0 94 00 3d 0f 
0.614900 1 2f1 Rx d 8 08 01 00 48 04 c0 02 00 
0.615100 1 221 Rx d 8 40 41 05 05 00 50 51 4f 
0.616300 1 39d Rx d 5 df 57 c1 27 00 
0.616900 1 2e1 Rx d 8 10 21 04 00 12 00 26 08 
0.618400 1 2e8 Rx d 8 c2 10 00 00 06 80 60 a2 
0.618600 1 25a Rx d 6 ff ff ff ff 00 00 
0.618900 1 3c3 Rx d 8 55 55 55 01 00 80 43 00 
0.619300 1 22b Rx d 8 ff ff ff ff ff ff ff ff 
0.620100 1 359 Rx d 8 07 00 00 00 00 00 00 00 
0.620400 1 132 Rx d 6 be 8a f8 ff 28 40 
0.620600 1 4e2 Rx d 8 02 38 05 00 00 00 28 25 
0.620800 1 448 Rx d 7 00 00 10 10 00 00 00 
0.621300 1 243 Rx d 8 03 00 00 80 42 65 1f 00 
0.621900 1 129 Rx d 8 3f 2f 27 20 00 20 ff 3f 
0.622100 1 201 Rx d 8 02 d0 00 40 06 00 b8 39 
0.622400 1 3ae Rx d 8 00 40 00 08 00 00 b1 fa 
0.623800 1 261 Rx d 8 31 00 b2 00 e3 49 7a 7f 
0.624300 1 381 Rx d 8 8e ef fb fe c1 c5 43 00 
0.624900 1 553 Rx d 8 00 00 00 00 00 00 30 88 
0.625600 1 3f5 Rx d 8 00 c8 48 09 80 04 00 00 
0.626300 1 142 Rx d 8 01 00 40 0a c0 1b 00 00 
0.626500 1 38a Rx d 8 00 00 00 00 00 00 00 00 
0.626700 1 78a Rx d 8 01 00 03 00 a5 04 7b 02 
0.627000 1 552 Rx d 8 00 00 00 00 00 00 30 87 
0.628300 1 2c1 Rx d 8 1b 17 13 00 00 00 00 00 
0.628500 1 38b Rx d 8 fe fe 1f 0f 20 40 25 03 
0.628800 1 682 Rx d 8 00 00 00 40 05 02 30 57 
0.629100 1 3a1 Rx d 8 2b 91 40 8b 3e 00 70 f5 
0.630800 1 132 Rx d 6 cd 8a f8 ff 29 40 
0.632100 1 320 Rx d 8 04 00 00 00 00 00 00 00 
0.632300 1 383 Rx d 8 a7 18 43 00 31 70 c0 5e 
0.632500 1 2e1 Rx d 8 29 8a 3b a2 1f 28 00 00 
0.632700 1 263 Rx d 8 03 00 00 00 00 00 00 34 
0.633000 1 129 Rx d 8 da 20 27 20 00 20 ff 3f 
0.633200 1 39a Rx d 8 30 2f ff 56 ff fd fd 11 
0.634200 1 422 Rx d 6 70 00 10 00 00 00 
0.634500 1 3bb Rx d 3 14 0f 14 
0.635300 1 2d1 Rx d 2 7f 01 
0.636000 1 2f3 Rx d 8 0e 4e 02 00 00 20 00 00 
0.636200 1 423 Rx d 7 00 00 00 00 08 00 00 
0.636500 1 273 Rx d 8 81 e1 10 00 48 00 10 01 
0.637000 1 33a Rx d 8 d0 34 63 b5 fe ff 03 45 
0.637200 1 3fd Rx d 8 01 00 02 00 00 08 12 80 
0.637900 1 789 Rx d 4 54 11 30 97 
0.638100 1 545 Rx d 8 f0 00 22 a0 9e e2 69 e5 
0.638500 1 219 Rx d 7 00 80 ff ff ff f8 0f 
0.638800 1 132 Rx d 6 bc 8a f8 ff 2a 40 
0.638900 1 261 Rx d 8 2a 2b 37 02 80 5c 82 e2 
0.639200 1 719 Rx d 8 14 00 00 00 00 59 00 00 
0.639300 1 419 Rx d 1 00 
0.640600 1 2c2 Rx d 8 20 40 c0 52 01 00 80 cb 
0.642000 1 3a2 Rx d 8 a0 85 72 f5 04 00 c5 6f 
0.642300 1 2c3 Rx d 8 55 03 a8 06 00 00 12 a5 
0.642900 1 129 Rx d 8 cd 21 27 20 00 20 ff 3f 
0.643100 1 20e Rx d 3 14 04 00 
0.643300 1 243 Rx d 8 04 84 f1 ff fd 7f 55 5c 
0.644300 1 249 Rx d 4 13 0d 00 00 
0.644500 1 3c8 Rx d 8 02 00 00 00 00 00 00 00 
0.644800 1 407 Rx d 8 0b 00 00 00 00 00 00 00 
0.645000 1 441 Rx d 8 23 00 b6 c3 58 00 1d 7a 
0.645200 1 23e Rx d 8 f4 01 3a ad fa fc 0f 21 
0.645500 1 2f9 Rx d 8 88 fb 07 03 a1 ee 6f c9 
0.645700 1 421 Rx d 7 00 14 00 00 00 d0 48 
0.646000 1 301 Rx d 8 17 00 00 00 c4 e2 a2 b8 
0.646200 1 201 Rx d 8 03 d0 00 40 06 00 98 3b 
0.646400 1 2c1 Rx d 8 04 00 0f 0e 09 12 07 12 
0.646500 1 204 Rx d 8 41 00 00 00 00 00 00 10 
0.646700 1 264 Rx d 6 3a 00 00 00 00 00 
0.647000 1 2c4 Rx d 8 00 c0 43 d2 00 00 00 00 
0.647200 1 2e1 Rx d 8 02 6c 7f 02 2d 46 00 00 
0.647400 1 224 Rx d 8 04 08 00 48 19 01 10 08 
0.647700 1 2b4 Rx d 6 67 05 e4 0d ca 00 
0.648600 1 132 Rx d 6 c9 8a f7 ff 25 40 
0.648800 1 2aa Rx d 3 67 30 43 
0.649100 1 2e3 Rx d 7 f7 93 4f 3e 41 03 0d 
0.649300 1 2e2 Rx d 8 00 00 00 40 02 0b 00 40 
0.649500 1 3c2 Rx d 8 29 55 00 00 00 00 00 80 
0.649800 1 677 Rx d 8 04 00 00 00 00 00 00 00 
0.650000 1 718 Rx d 7 01 00 00 00 00 00 00 
0.650300 1 263 Rx d 8 04 00 00 00 60 14 00 00 
0.650800 1 129 Rx d 8 84 22 27 20 00 20 ff 3f 
0.652300 1 2b3 Rx d 8 0a 0e 00 00 00 00 00 00 
0.652500 1 45a Rx d 8 fd 07 f8 ff 03 00 07 00 
0.652800 1 2a6 Rx d 8 00 00 6a 18 00 00 00 00 
0.653800 1 2a7 Rx d 8 00 00 00 00 00 8c 05 84 
0.654200 1 2c7 Rx d 8 00 00 00 00 00 00 46 ff 
0.654400 1 3f9 Rx d 8 04 00 00 00 00 00 00 00 
0.655300 1 39d Rx d 5 e0 58 c1 27 00 
0.656200 1 261 Rx d 8 5b 4f 0a 00 00 40 95 7f 
0.656500 1 234 Rx d 8 37 e1 03 80 43 00 34 ad 
0.657100 1 788 Rx d 8 02 40 cb 07 00 00 00 00 
0.658500 1 1fa Rx d 3 22 c0 01 
0.658700 1 420 Rx d 8 28 01 40 4b 00 00 80 05 
0.659000 1 225 Rx d 4 05 45 d2 00 
0.660100 1 2a1 Rx d 6 00 00 98 3a 00 00 
0.660400 1 132 Rx d 6 bf 8a f7 ff 23 40 
0.660600 1 381 Rx d 8 af 73 37 60 00 00 43 06 
0.660800 1 339 Rx d 8 01 41 02 00 00 02 40 02 
0.661000 1 243 Rx d 8 00 fc cf 4c b1 22 41 29 
0.661200 1 129 Rx d 8 3e 23 27 20 01 20 ff 3f 
0.662800 1 288 Rx d 8 03 16 54 8f 80 0c 41 53 
0.663000 1 3ae Rx d 8 00 40 00 08 00 00 c1 0a 
0.663200 1 221 Rx d 8 41 01 55 51 01 02 60 6e 
0.663500 1 283 Rx d 6 00 00 00 00 00 00 
0.663600 1 2e1 Rx d 8 fb 19 ea e9 9b e0 09 00 
0.663800 1 242 Rx d 4 10 15 04 05 
0.664100 1 7c8 Rx d 8 0a 01 cf 00 2f 00 1f 00 
0.664300 1 2d2 Rx d 8 6f 29 a4 4e 00 00 a1 01 
0.664600 1 212 Rx d 8 58 2c 00 00 82 ff 37 62 
0.664900 1 252 Rx d 8 00 00 90 06 00 80 18 00 
0.666400 1 292 Rx d 8 47 83 2d 76 d2 01 00 00 
0.666700 1 2f2 Rx d 2 62 01 
0.666900 1 3b2 Rx d 8 09 f5 1f 07 20 04 1c 00 
0.667900 1 1f9 Rx d 8 00 00 00 00 00 00 00 00 
0.668300 1 2c1 Rx d 8 58 24 7e 00 00 8a 02 07 
0.668500 1 798 Rx d 8 9b 14 50 83 06 0a 30 6e 
0.668800 1 22b Rx d 8 ff ff ff ff ff ff ff ff 
0.669000 1 132 Rx d 6 c3 8a f7 ff 27 40 
0.669200 1 372 Rx d 8 0e 00 00 0c 0e 7d 00 00 
0.669500 1 3c0 Rx d 8 03 00 00 00 00 00 00 00 
0.670600 1 360 Rx d 8 07 00 00 00 00 00 00 00 
0.670900 1 261 Rx d 8 04 f1 f7 4d 00 40 a4 13 
0.671000 1 545 Rx d 8 01 00 00 00 00 10 70 cb 
0.671900 1 129 Rx d 8 15 24 27 20 00 20 ff 3f 
0.672500 1 263 Rx d 8 18 7b 4d 07 d0 07 55 1f 
0.672900 1 709 Rx d 8 83 40 bd 09 c4 1b 02 00 
0.674900 1 201 Rx d 8 f8 c9 01 00 20 1f f1 06 
0.675100 1 2a8 Rx d 8 c2 10 00 00 06 80 70 72 
0.676200 1 3a2 Rx d 8 01 10 20 00 0d f0 ff 00 
0.676500 1 119 Rx d 4 00 00 00 00 
0.676700 1 142 Rx d 8 28 00 02 5a 00 00 01 00 
0.676900 1 103 Rx d 8 22 b3 88 04 92 2c 21 02 
0.677100 1 302 Rx d 8 17 00 00 00 49 50 7c cc 
0.678000 1 102 Rx d 8 21 72 88 04 8c 0e 21 08 
0.678500 1 409 Rx d 1 00 
0.678700 1 132 Rx d 6 ce 8a f7 ff 22 40 
0.679000 1 2e1 Rx d 8 04 00 00 80 48 44 26 00 
0.679200 1 3a1 Rx d 8 e8 42 0d 0a 01 28 82 ac 
0.680000 1 428 Rx d 7 00 00 10 10 00 00 00 
0.681900 1 797 Rx d 4 14 09 30 e8 
0.682400 1 439 Rx d 8 02 00 40 00 00 38 00 00 
0.682700 1 7aa Rx d 8 26 05 60 a8 50 92 a0 29 
0.683100 1 123 Rx d 8 00 00 12 92 d2 00 00 80 
0.684300 1 129 Rx d 8 6b 25 27 20 ff 1f ff 3f 
0.684500 1 243 Rx d 8 01 fc 55 00 5c 00 7c 7c 
0.684800 1 400 Rx d 7 00 e0 fb be ef fb 00 
0.685000 1 122 Rx d 8 01 00 00 00 00 3f 00 00 
0.685300 1 3e8 Rx d 8 02 00 00 00 00 00 00 00 
0.685500 1 294 Rx d 8 14 c1 40 00 00 00 00 00 
0.686200 1 23e Rx d 8 f4 01 3a ad fa fc 1f 31 
0.687100 1 261 Rx d 8 05 22 00 c9 9a 42 b0 72 
0.687200 1 2c1 Rx d 8 21 ab 23 be 02 00 00 00 
0.687400 1 3a3 Rx d 8 00 d0 00 00 38 03 fc 01 
0.687700 1 3fd Rx d 8 02 00 00 00 00 00 00 90 
0.687800 1 677 Rx d 8 00 00 00 00 00 00 00 00 
0.688000 1 25b Rx d 8 d3 c0 02 05 6a 86 50 35 
0.688300 1 132 Rx d 6 ba 8a f7 ff 24 40 
0.688400 1 43b Rx d 8 01 7f 00 ff 00 00 00 00 
0.688700 1 113 Rx d 3 01 97 01 
0.688900 1 3db Rx d 8 0a 1d 20 21 1d 00 00 00 
0.689000 1 719 Rx d 8 15 35 00 71 ff 02 00 00 
0.689300 1 7f4 Rx d 1 01 
0.689400 1 7ff Rx d 8 04 21 fb a8 60 20 a4 20 
0.689700 1 318 Rx d 8 1a 09 32 05 0b 2c 31 dd 
0.689900 1 2ec Rx d 3 67 30 85 
0.690200 1 129 Rx d 8 d8 26 27 20 00 20 ff 3f 
0.690500 1 263 Rx d 8 49 63 55 07 e8 c7 54 1f 
0.690800 1 229 Rx d 3 44 01 00 
0.692300 1 272 Rx d 8 06 00 fc e0 07 b0 07 08 
0.692500 1 249 Rx d 4 af 0e 00 00 
0.692700 1 340 Rx d 8 07 00 00 00 00 00 00 00 
0.694000 1 458 Rx d 7 00 00 00 00 40 00 00 
0.694300 1 54f Rx d 8 00 00 00 00 00 00 00 00 
0.694500 1 393 Rx d 8 06 00 fa d8 07 b0 07 08 
0.695900 1 39d Rx d 5 e1 59 c1 27 00 
0.696200 1 2e1 Rx d 8 45 c1 02 00 50 95 a3 6a 
0.696500 1 381 Rx d 8 30 64 41 de 40 6c 00 60 
0.696900 1 441 Rx d 8 69 85 89 00 32 00 20 32 
0.697100 1 379 Rx d 8 01 00 0a 48 33 3f 22 00 
0.697500 1 201 Rx d 8 01 04 b8 00 10 00 80 c4 
0.697900 1 7a8 Rx d 8 02 40 cc 07 00 07 00 00 
0.698000 1 282 Rx d 8 00 00 00 00 ec 13 0b 24 
0.698300 1 132 Rx d 6 bc 8a f8 ff 2a 40 
0.698500 1 20c Rx d 8 00 40 47 19 00 90 08 00 
0.698700 1 3e2 Rx d 7 00 00 80 5a b0 cf 04 
0.698900 1 3c2 Rx d 8 00 55 55 55 00 00 59 45 
0.699200 1 22a Rx d 4 00 00 39 16 
0.699400 1 37d Rx d 8 01 6b 6d 6d 00 00 00 00 
0.699600 1 41d Rx d 1 40 
0.699900 1 3dd Rx d 8 01 ba c8 0c 00 00 a9 00 
0.700100 1 43d Rx d 6 21 00 ff 1f 20 26 
0.700300 1 129 Rx d 8 62 27 27 20 01 20 ff 3f 
0.700600 1 21d Rx d 8 4c 00 02 20 80 00 10 00 
0.700800 1 243 Rx d 8 02 84 39 11 00 0c 00 00 
0.700900 1 241 Rx d 7 2c 2c 0c 0b 0b 53 00 
0.701000 1 25d Rx d 8 6e 81 24 ac 00 f1 d8 03 
0.701300 1 27d Rx d 8 00 00 00 00 00 00 00 00 
0.701500 1 45a Rx d 8 a0 46 c6 c5 3f 49 00 55 
0.701700 1 261 Rx d 8 00 10 86 00 c5 4c c0 5d 
0.702500 1 228 Rx d 8 03 16 54 8f 80 0c 41 f3 
0.702700 1 29d Rx d 5 00 00 00 20 00 
0.702900 1 2bd Rx d 4 00 00 00 00 
0.703800 1 139 Rx d 1 00 
0.704300 1 3ae Rx d 8 00 40 00 08 00 00 d1 1a 
0.706200 1 49d Rx d 7 00 00 00 00 00 00 20 
0.706500 1 545 Rx d 8 02 00 0d 00 00 00 80 d9 
0.708000 1 234 Rx d 8 1c c0 01 37 dd 04 40 d0 
0.708300 1 4e3 Rx d 8 03 59 00 00 00 00 a8 0c 
0.708500 1 1f8 Rx d 4 00 00 00 00 
0.708800 1 3a2 Rx d 8 e2 27 00 00 20 00 00 00 
0.709000 1 2c1 Rx d 8 02 0d 06 00 00 d0 92 81 
0.709300 1 132 Rx d 6 c5 8a f8 ff 2a 40 
0.709900 1 7b8 Rx d 8 73 2f 3e 0c c6 08 30 04 
0.710300 1 37a Rx d 8 c1 00 00 00 00 00 00 00 
0.710500 1 2e1 Rx d 8 10 21 04 00 12 00 26 08 
0.712400 1 343 Rx d 8 00 92 5c 0e 9f 00 00 00 
0.714500 1 129 Rx d 8 18 28 27 20 00 20 ff 3f 
0.714700 1 263 Rx d 8 02 00 00 00 00 00 00 00 
0.715000 1 2b3 Rx d 8 0b ff 9f f0 2f e0 12 00 
0.715200 1 289 Rx d 8 aa 02 01 00 88 00 3d 0f 
0.716300 1 2f1 Rx d 8 09 01 00 48 04 b8 02 00 
0.716500 1 221 Rx d 8 40 41 05 05 00 50 71 6f 
0.716900 1 2e8 Rx d 8 c2 10 00 00 06 80 70 b2 
0.718400 1 3c3 Rx d 8 00 00 00 00 00 45 00 00 
0.718600 1 3e3 Rx d 4 00 00 00 00 
0.718900 1 22b Rx d 8 ff ff ff ff ff ff ff ff 
0.719300 1 359 Rx d 8 08 04 00 00 c0 3c 37 33 
0.720500 1 261 Rx d 8 31 00 b3 00 e7 49 da e4 
0.721300 1 132 Rx d 6 c5 8a f7 ff 25 40 
0.721900 1 4e2 Rx d 8 03 49 00 00 00 00 a8 0c 
0.722100 1 448 Rx d 7 00 00 10 10 00 00 00 
0.722400 1 243 Rx d 8 03 00 00 80 42 65 1f 00 
0.722900 1 129 Rx d 8 24 29 27 20 ff 1f ff 3f 
0.723900 1 201 Rx d 8 02 d0 00 40 06 00 b8 39 
0.724400 1 553 Rx d 8 00 00 00 00 00 00 40 98 
0.724600 1 3f5 Rx d 8 00 c8 48 09 80 04 00 00 
0.724900 1 142 Rx d 8 01 00 40 0a c0 1b 00 00 
0.725400 1 38a Rx d 8 01 00 00 00 00 00 00 00 
0.726300 1 78a Rx d 8 01 00 04 00 a6 04 8f 00 
0.726500 1 23e Rx d 8 f4 01 3a ad fa fc 2f 41 
0.726700 1 552 Rx d 8 00 00 00 00 00 00 40 97 
0.728300 1 2e1 Rx d 8 29 8a 3b a2 1f 28 00 00 
0.728600 1 2c1 Rx d 8 1b 17 13 00 00 00 00 00 
0.728800 1 677 Rx d 8 01 00 00 00 00 00 00 00 
0.729100 1 682 Rx d 8 00 00 00 40 05 02 40 67 
0.730800 1 3a1 Rx d 8 2b 91 40 6f 3e 00 90 f9 
0.731000 1 132 Rx d 6 bd 8a f7 ff 25 40 
0.732200 1 383 Rx d 8 a7 18 45 00 31 70 c0 5e 
0.732400 1 381 Rx d 8 11 39 4b 00 23 80 07 96 
0.732600 1 263 Rx d 8 03 00 00 00 00 00 00 34 
0.732900 1 129 Rx d 8 92 2a 27 20 00 20 ff 3f 
0.733100 1 39a Rx d 8 fd fd fd fd fd 01 00 02 
0.734300 1 39d Rx d 5 e2 5a c1 27 00 
0.734500 1 422 Rx d 6 70 00 10 00 00 00 
0.736000 1 2d1 Rx d 2 7f 01 
0.736200 1 261 Rx d 8 2a 2b 37 02 80 5c e2 42 
0.736900 1 238 Rx d 8 f0 27 9c d8 1f 00 26 0a 
0.737100 1 423 Rx d 7 00 00 00 00 08 00 00 
0.737300 1 61d Rx d 8 11 0d 8a 22 9e 15 00 14 
0.737600 1 545 Rx d 8 f0 00 22 00 9f e3 99 77 
0.737700 1 789 Rx d 4 54 11 40 a7 
0.737900 1 219 Rx d 7 01 80 ff ff ff f9 0f 
0.738200 1 132 Rx d 6 bb 8a f7 ff 28 40 
0.738400 1 3a2 Rx d 8 a0 85 72 f8 04 00 c5 6f 
0.738600 1 719 Rx d 8 16 00 00 00 00 00 00 00 
0.738800 1 405 Rx d 8 12 43 32 35 36 38 32 33 
0.739000 1 414 Rx d 8 12 20 20 20 20 20 20 20 
0.739100 1 419 Rx d 1 00 
0.739400 1 2c2 Rx d 8 55 1b a8 06 00 00 12 a5 
0.740200 1 55a Rx d 8 02 00 00 00 00 00 00 00 
0.740400 1 666 Rx d 4 00 00 a0 00 
0.740600 1 243 Rx d 8 04 84 f1 ff fd 7f 55 5c 
0.742300 1 129 Rx d 8 63 2b 27 20 00 20 ff 3f 
0.743000 1 20e Rx d 3 15 05 00 
0.743300 1 249 Rx d 4 ce 0f 00 00 
0.744300 1 2c3 Rx d 8 00 00 c0 4b 01 00 c0 cb 
0.744600 1 3ae Rx d 8 00 40 00 08 00 00 e1 2a 
0.744800 1 2e1 Rx d 8 02 6c 7f 02 2d 46 00 00 
0.745000 1 3c8 Rx d 8 03 00 00 00 00 00 00 00 
0.745300 1 441 Rx d 8 23 00 b6 c3 58 00 25 82 
0.745500 1 2f9 Rx d 8 88 fb 07 08 a1 ee 6f c9 
0.745700 1 421 Rx d 7 00 14 00 00 00 d0 48 
0.745900 1 3f6 Rx d 8 00 00 00 00 b6 14 00 00 
0.746200 1 201 Rx d 8 03 d0 00 40 06 00 98 3b 
0.746400 1 2bf Rx d 7 0a 00 00 00 20 00 00 
0.746500 1 204 Rx d 8 41 00 00 00 00 00 00 10 
0.746800 1 264 Rx d 6 3b 00 00 00 00 00 
0.747000 1 2c1 Rx d 8 04 00 0f 0e 09 12 07 12 
0.747200 1 2c4 Rx d 8 01 80 44 d2 00 00 00 00 
0.747500 1 2b4 Rx d 6 6a 05 e4 0d cc 00 
0.748300 1 224 Rx d 8 04 08 00 48 19 01 10 08 
0.748600 1 132 Rx d 6 be 8a f7 ff 24 40 
0.748800 1 2aa Rx d 3 67 40 53 
0.749100 1 303 Rx d 8 17 00 00 00 0e 6f 85 0d 
0.749500 1 3a8 Rx d 8 02 00 18 00 00 00 00 00 
0.749700 1 3c2 Rx d 8 29 55 00 00 00 00 00 80 
0.750000 1 443 Rx d 6 6b 00 ff 03 00 00 
0.750200 1 261 Rx d 8 5b 4f 0a 00 00 40 f5 df 
0.752400 1 263 Rx d 8 04 00 00 00 60 14 00 00 
0.752600 1 129 Rx d 8 03 2c 27 20 00 20 ff 3f 
0.753800 1 45a Rx d 8 fd 07 f8 ff 03 00 07 00 
0.754200 1 2c7 Rx d 8 00 00 00 00 00 00 46 ff 
0.754500 1 2a6 Rx d 8 00 00 6a 18 00 00 00 00 
0.755300 1 2a7 Rx d 8 00 00 00 00 00 8c 05 84 
0.756200 1 3f9 Rx d 8 05 00 00 00 00 00 00 00 
0.756500 1 234 Rx d 8 37 e1 03 80 43 00 54 cd 
0.757100 1 788 Rx d 8 f8 d4 a1 63 00 00 80 00 
0.758500 1 1fa Rx d 3 22 c0 01 
0.758800 1 420 Rx d 8 28 01 40 4b 00 00 00 06 
0.759000 1 225 Rx d 4 05 45 d2 00 
0.759200 1 2a1 Rx d 6 00 00 98 3a 00 00 
0.760300 1 132 Rx d 6 ba 8a f7 ff 24 40 
0.760500 1 2e1 Rx d 8 fb 19 ee e9 9b db 09 00 
0.760800 1 339 Rx d 8 01 41 02 00 00 02 40 02 
0.762800 1 243 Rx d 8 00 fc cf 4c b1 22 41 29 
0.763000 1 129 Rx d 8 11 2d 27 20 00 20 ff 3f 
0.763300 1 288 Rx d 8 03 16 54 8f 80 0c 51 63 
0.763500 1 7aa Rx d 8 07 f7 ff f7 ff f1 ff 48 
0.763700 1 221 Rx d 8 41 01 55 51 01 02 80 8e 
0.763900 1 283 Rx d 6 00 00 00 00 00 00 
0.764100 1 242 Rx d 4 10 15 04 05 
0.764400 1 2d2 Rx d 8 6f 29 a4 4e 00 00 a1 01 
0.764600 1 212 Rx d 8 58 2c 00 00 82 ff 37 62 
0.764800 1 23e Rx d 8 f4 01 3a ad fa fc 3f 51 
0.765100 1 252 Rx d 8 00 00 90 06 00 80 18 00 
0.765300 1 292 Rx d 8 47 83 2d 76 d2 01 00 00 
0.765600 1 2f2 Rx d 2 62 01 
0.766400 1 1f9 Rx d 8 00 00 00 00 00 00 00 00 
0.766700 1 261 Rx d 8 04 f1 f7 4d 00 40 04 73 
0.767300 1 2c1 Rx d 8 58 24 7e 00 00 8a 02 07 
0.767900 1 381 Rx d 8 72 00 32 36 00 40 01 02 
0.768600 1 22b Rx d 8 ff ff ff ff ff ff ff ff 
0.768800 1 677 Rx d 8 02 00 00 00 00 00 00 00 
0.769000 1 798 Rx d 8 24 0a 62 11 43 0c 40 dc 
0.769300 1 132 Rx d 6 bf 8a f7 ff 27 40 
0.769900 1 3c0 Rx d 8 04 00 00 00 00 00 00 00 
0.770600 1 545 Rx d 8 01 00 00 00 00 10 a0 fb 
0.770800 1 360 Rx d 8 08 00 00 00 00 00 04 00 
0.771000 1 263 Rx d 8 18 7b 4d 07 d0 07 55 1f 
0.771900 1 129 Rx d 8 ce 2e 27 20 00 20 ff 3f 
0.772300 1 2b3 Rx d 8 cc 26 26 20 48 4a 53 00 
0.772600 1 201 Rx d 8 f8 c9 01 00 20 1f f1 06 
0.774900 1 3a2 Rx d 8 01 10 20 00 0b f0 ff 00 
0.775100 1 2a8 Rx d 8 c2 10 00 00 06 80 80 82 
0.776200 1 39d Rx d 5 e3 5b c1 27 00 
0.776500 1 119 Rx d 4 00 00 00 00 
0.776700 1 142 Rx d 8 28 00 02 5a 00 00 01 00 
0.776900 1 2e1 Rx d 8 04 00 00 80 48 44 26 00 
0.778000 1 103 Rx d 8 22 b3 88 04 92 2c 21 02 
0.778600 1 102 Rx d 8 21 72 88 04 8c 0e 21 08 
0.778800 1 409 Rx d 1 00 
0.779000 1 132 Rx d 6 b2 8a f7 ff 23 40 
0.780300 1 3a1 Rx d 8 e8 42 0d 0a 01 2c a2 d0 
0.780500 1 428 Rx d 7 00 00 10 10 00 00 00 
0.781000 1 797 Rx d 4 14 09 40 f8 
0.781900 1 439 Rx d 8 02 00 40 00 00 38 00 00 
0.782500 1 123 Rx d 8 01 00 00 00 00 3f 00 00 
0.782600 1 129 Rx d 8 3f 2f 27 20 00 20 ff 3f 
0.782900 1 243 Rx d 8 01 fc 55 00 5c 00 7c 7c 
0.783000 1 261 Rx d 8 05 22 00 c9 9a 42 10 d2 
0.783200 1 31a Rx d 8 60 fc ff 02 00 00 20 9a 
0.783400 1 400 Rx d 7 00 e0 fb be ef fb 00 
0.784300 1 122 Rx d 8 00 00 18 92 12 00 00 00 
0.784500 1 3e8 Rx d 8 03 00 00 00 00 00 00 00 
0.785100 1 453 Rx d 4 00 00 00 00 
0.786200 1 3ae Rx d 8 00 40 00 08 00 00 f1 3a 
0.787000 1 1bb Rx d 1 02 
0.787200 1 284 Rx d 8 30 00 00 00 40 08 60 5e 
0.787400 1 390 Rx d 2 17 06 
0.787700 1 2c1 Rx d 8 21 ab 23 be 02 00 00 00 
0.787900 1 3a3 Rx d 8 00 d0 00 00 38 03 fc 01 
0.788000 1 25b Rx d 8 d3 c0 02 05 6a 86 60 45 
0.788300 1 132 Rx d 6 ac 8a f7 ff 29 40 
0.788500 1 42a Rx d 8 f9 6b fe 9a bf e6 af 55 
0.788700 1 113 Rx d 3 01 97 01 
0.789000 1 318 Rx d 8 1a 09 32 05 0b 2c 33 df 
0.789100 1 458 Rx d 7 00 00 00 00 40 00 00 
0.789400 1 719 Rx d 8 17 00 00 00 00 00 00 00 
0.789500 1 7f4 Rx d 1 01 
0.789700 1 7ff Rx d 8 05 09 20 41 20 04 81 00 
0.789900 1 2e1 Rx d 8 45 c1 02 00 50 95 a3 6a 
0.790200 1 129 Rx d 8 da 20 27 20 00 20 ff 3f 
0.790400 1 263 Rx d 8 49 63 55 07 e8 c7 54 1f 
0.790700 1 229 Rx d 3 52 02 00 
0.792300 1 272 Rx d 8 09 80 63 00 00 00 00 00 
0.794000 1 249 Rx d 4 9b 00 00 00 
0.794300 1 2ec Rx d 3 67 40 95 
0.794600 1 340 Rx d 8 08 00 00 00 00 00 00 00 
0.795900 1 3cc Rx d 8 03 11 43 19 00 0e 09 00 
0.796200 1 54f Rx d 8 00 00 00 00 00 00 00 00 
0.796500 1 393 Rx d 8 09 80 63 00 00 00 00 00 
0.796700 1 441 Rx d 8 67 85 89 00 32 00 28 38 
0.797000 1 379 Rx d 8 02 00 0b 48 33 3f 22 00 
0.797200 1 201 Rx d 8 01 04 b8 00 10 00 80 c4 
0.797500 1 7a8 Rx d 8 f8 cc a1 63 00 00 82 00 
0.797900 1 282 Rx d 8 00 00 00 00 ec 13 0b 24 
0.798000 1 132 Rx d 6 bd 8a f7 ff 27 40 
0.798300 1 261 Rx d 8 00 10 87 00 c5 4c 20 be 
0.798500 1 20c Rx d 8 00 40 47 19 00 90 08 00 
0.798700 1 40a Rx d 8 01 00 01 00 00 00 20 30 
0.798900 1 3c2 Rx d 8 00 55 55 55 00 00 59 45 
0.799200 1 22a Rx d 4 00 00 39 16 
0.799400 1 31e Rx d 8 00 00 00 00 00 00 00 00 
0.799600 1 41d Rx d 1 40 
0.799900 1 21d Rx d 8 4c 00 02 20 80 00 10 00 
0.800100 1 43d Rx d 6 21 00 ff 1f 20 26 
0.800300 1 129 Rx d 8 cd 21 27 20 00 20 ff 3f 
0.800500 1 243 Rx d 8 02 84 39 11 00 0c 00 00 
0.800700 1 25d Rx d 8 6e 81 24 ac 00 f1 d8 03 
0.800900 1 241 Rx d 7 2c 2c 0c 0b 0b 53 00 
0.801100 1 27d Rx d 8 00 00 00 00 00 00 00 00 
0.801300 1 45a Rx d 8 a0 46 c6 c5 3f 49 00 55 
0.801500 1 49d Rx d 7 00 00 00 00 00 00 20 
0.802500 1 29d Rx d 5 00 00 00 20 00 
0.802700 1 228 Rx d 8 03 16 54 8f 80 0c 51 03 
0.802900 1 2bd Rx d 4 00 00 00 00 
0.803100 1 381 Rx d 8 13 00 00 00 00 00 04 ff 
0.803400 1 139 Rx d 1 00 
0.804300 1 545 Rx d 8 02 00 0e 00 00 00 b0 0a 
0.804600 1 75d Rx d 8 06 7d 00 00 00 00 00 00 
0.804800 1 234 Rx d 8 1b c0 01 38 e1 04 60 f4 
0.806200 1 4e3 Rx d 8 04 00 00 00 00 00 00 00 
0.806500 1 1f8 Rx d 4 00 00 00 00 
0.808100 1 23e Rx d 8 f4 01 3a ad fa fc 4f 61 
0.808500 1 3a2 Rx d 8 e2 27 00 00 20 00 00 00 
0.808800 1 2e1 Rx d 8 10 21 04 00 12 00 26 08 
0.809000 1 2c1 Rx d 8 02 0d 06 00 00 d0 92 81 
0.809900 1 677 Rx d 8 03 00 00 00 00 00 00 00 
0.810300 1 132 Rx d 6 bf 8a f8 ff 27 40 
0.810500 1 7b8 Rx d 8 a4 d8 61 00 00 00 40 37 
0.810800 1 37a Rx d 8 c2 00 00 00 00 00 00 00 
0.812300 1 343 Rx d 8 00 92 5c 4e 9f 00 00 00 
0.812500 1 129 Rx d 8 84 22 27 20 00 20 ff 3f 
0.814600 1 263 Rx d 8 02 00 00 00 00 00 00 00 
0.814800 1 289 Rx d 8 aa 02 01 c0 a5 00 3d 0f 
0.815000 1 2f1 Rx d 8 0a b1 01 00 00 00 00 00 
0.815300 1 221 Rx d 8 40 41 05 05 00 50 91 8f 
0.816300 1 39d Rx d 5 e4 5c c1 27 00 
0.816900 1 261 Rx d 8 31 00 0b 01 ec 49 3a a2 
0.817500 1 2e8 Rx d 8 c2 10 00 00 06 80 80 c2 
0.817700 1 3c3 Rx d 8 55 55 55 01 00 80 43 00 
0.817800 1 726 Rx d 3 08 00 00 
0.818100 1 22b Rx d 8 ff ff ff ff ff ff ff ff 
0.818300 1 359 Rx d 8 09 00 00 00 00 00 00 00 
0.818700 1 132 Rx d 6 b3 8a f7 ff 27 40 
0.818800 1 4e2 Rx d 8 04 32 00 03 0e f0 00 00 
0.819000 1 332 Rx d 6 35 1a 8b 06 0a 5f 
0.819200 1 300 Rx d 8 0d 03 00 00 a1 d7 36 76 
0.819400 1 311 Rx d 2 ff 03 
0.819600 1 3d2 Rx d 8 48 37 d6 00 76 b7 df 00 
0.819900 1 3f2 Rx d 8 02 5c ea 47 00 00 00 00 
0.820100 1 243 Rx d 8 03 00 00 80 42 65 1f 00 
0.820400 1 129 Rx d 8 3e 23 27 20 01 20 ff 3f 
0.820600 1 448 Rx d 7 00 00 10 10 00 00 00 
0.821300 1 452 Rx d 3 e0 90 00 
0.821900 1 201 Rx d 8 02 d0 00 40 06 00 b8 39 
0.822100 1 472 Rx d 8 ff 25 a0 39 00 7f ff 07 
0.822400 1 492 Rx d 7 7d 03 ff 0f 28 00 00 
0.823000 1 3ae Rx d 8 00 40 00 08 00 00 01 4a 
0.823300 1 2e1 Rx d 8 29 8a 3b a2 1f 28 00 00 
0.823900 1 553 Rx d 8 00 00 00 00 00 00 50 a8 
0.824300 1 3f5 Rx d 8 00 c8 48 09 80 04 00 00 
0.825500 1 142 Rx d 8 01 00 40 0a c0 1b 00 00 
0.826300 1 38a Rx d 8 03 00 00 00 00 00 00 00 
0.826500 1 3aa Rx d 8 01 00 00 00 00 00 00 00 
0.826700 1 77a Rx d 8 a1 16 e4 5d fc 5d e4 5d 
0.827000 1 78a Rx d 8 01 00 05 00 9d 0d 07 00 
0.827200 1 552 Rx d 8 00 00 00 00 00 00 50 a7 
0.827500 1 2c1 Rx d 8 1b 17 13 00 00 00 00 00 
0.827700 1 682 Rx d 8 00 00 00 40 05 02 50 77 
0.828300 1 3a1 Rx d 8 2b 91 40 8d 3e 00 b0 37 
0.828600 1 132 Rx d 6 b2 8a f7 ff 27 40 
0.828800 1 320 Rx d 8 80 00 00 00 00 00 00 00 
0.829000 1 383 Rx d 8 a7 18 43 00 31 70 c0 5e 
0.829300 1 6c8 Rx d 8 34 63 00 13 04 00 00 00 
0.830800 1 372 Rx d 8 00 08 00 92 22 12 0c 24 
0.832300 1 401 Rx d 8 00 2a f0 82 f1 82 f7 82 
0.832500 1 261 Rx d 8 2a 2b 37 02 80 5c 42 a2 
0.832600 1 263 Rx d 8 03 00 00 00 00 00 00 34 
0.832800 1 129 Rx d 8 b8 24 27 20 01 20 ff 3f 
0.833000 1 2b3 Rx d 8 0d 05 a0 94 36 22 f7 a1 
0.833200 1 39a Rx d 8 34 37 fb 56 ff fd fd 11 
0.833400 1 422 Rx d 6 70 00 10 00 00 00 
0.833700 1 285 Rx d 8 41 03 65 01 0d 00 08 00 
0.834500 1 286 Rx d 5 ff ff ff ff 71 
0.835900 1 2d1 Rx d 2 7f 01 
0.836100 1 353 Rx d 8 7b 0f 39 80 07 0c fd 01 
0.836300 1 373 Rx d 8 1e 2d 47 00 00 de 06 1f 
0.836500 1 3d8 Rx d 4 64 00 68 00 
0.836800 1 423 Rx d 7 00 00 00 00 08 00 00 
0.837100 1 545 Rx d 8 f0 00 22 00 9f e3 c9 a7 
0.837200 1 789 Rx d 4 54 11 50 b7 
0.837900 1 3a2 Rx d 8 a0 85 f2 f6 04 00 c5 6f 
0.838300 1 219 Rx d 7 02 80 ff ff ff fa 0f 
0.838500 1 132 Rx d 6 b8 8a f8 ff 2a 40 
0.838800 1 2e1 Rx d 8 02 6c 7f 02 2d 46 00 00 
0.838900 1 381 Rx d 8 14 00 20 00 00 00 00 fe 
0.839200 1 719 Rx d 8 20 03 02 14 14 27 25 00 
0.839300 1 419 Rx d 1 00 
0.840600 1 2c2 Rx d 8 20 40 c0 52 01 00 80 cb 
0.842300 1 7aa Rx d 8 08 00 00 00 18 01 1b 0e 
0.842900 1 2c3 Rx d 8 55 03 a8 06 00 00 12 a5 
0.843100 1 129 Rx d 8 02 25 27 20 00 20 ff 3f 
0.843400 1 20e Rx d 3 16 06 00 
0.844200 1 243 Rx d 8 04 84 f1 ff fd 7f 55 5c 
0.844500 1 249 Rx d 4 e8 01 00 00 
0.844700 1 3c8 Rx d 8 04 00 00 00 00 00 00 00 
0.844900 1 441 Rx d 8 23 00 b6 c3 58 00 2d 8a 
0.845200 1 23e Rx d 8 f4 01 3a ad fa fc 5f 71 
0.845400 1 2f9 Rx d 8 88 fb 07 10 00 00 00 00 
0.845600 1 421 Rx d 7 00 14 00 00 00 d0 48 
0.845800 1 724 Rx d 3 08 00 00 
0.846100 1 201 Rx d 8 03 d0 00 40 06 00 98 3b 
0.846300 1 261 Rx d 8 5b 4f 0a 00 00 40 55 3f 
0.846500 1 204 Rx d 8 41 00 00 00 00 00 00 10 
0.846700 1 264 Rx d 6 3a 00 00 00 00 00 
0.846900 1 2c1 Rx d 8 04 00 0f 0e 09 12 07 12 
0.847100 1 2c4 Rx d 8 02 00 00 d2 00 00 00 00 
0.847300 1 2b4 Rx d 6 67 05 e4 0d c4 00 
0.847600 1 224 Rx d 8 04 08 00 48 19 01 10 08 
0.847800 1 3ae Rx d 8 00 40 00 08 00 00 10 59 
0.848000 1 132 Rx d 6 ae 8a f7 ff 28 40 
0.848600 1 2aa Rx d 3 67 50 63 
0.848800 1 2e3 Rx d 7 48 4e 39 00 00 00 00 
0.849100 1 2e2 Rx d 8 e2 21 2c 5c 49 59 29 0c 
0.849500 1 3c2 Rx d 8 29 55 00 00 00 00 00 80 
0.849700 1 401 Rx d 8 01 2a f7 82 f6 82 f0 82 
0.849900 1 677 Rx d 8 04 00 00 00 00 00 00 00 
0.850200 1 718 Rx d 7 02 00 00 00 00 00 00 
0.850800 1 263 Rx d 8 04 00 00 00 60 14 00 00 
0.852300 1 129 Rx d 8 d8 26 27 20 00 20 ff 3f 
0.852500 1 45a Rx d 8 fd 07 f8 ff 03 00 07 00 
0.852800 1 2c7 Rx d 8 00 00 00 00 00 00 46 ff 
0.853800 1 2a6 Rx d 8 00 00 6a 18 00 00 00 00 
0.854200 1 2a7 Rx d 8 00 00 00 00 00 8c 05 84 
0.854500 1 3f9 Rx d 8 06 00 00 00 00 00 00 00 
0.855300 1 39d Rx d 5 e5 5d c1 27 00 
0.856200 1 2e1 Rx d 8 fb 19 ef e9 9b e5 09 00 
0.857100 1 234 Rx d 8 37 e1 03 80 43 00 74 ed 
0.858500 1 788 Rx d 8 01 00 00 00 ff a1 d8 13 
0.858800 1 1fa Rx d 3 22 c0 01 
0.859000 1 420 Rx d 8 28 01 40 4b 00 00 80 06 
0.860300 1 225 Rx d 4 05 45 d2 00 
0.860500 1 2a1 Rx d 6 00 00 98 3a 00 00 
0.860700 1 132 Rx d 6 af 8a f7 ff 27 40 
0.860900 1 339 Rx d 8 01 41 02 00 00 02 40 02 
0.864100 1 243 Rx d 8 00 fc cf 4c b1 22 41 29 
0.864300 1 129 Rx d 8 cf 27 27 20 00 20 ff 3f 
0.864500 1 288 Rx d 8 03 16 54 8f 80 0c 61 73 
0.864800 1 261 Rx d 8 04 f1 f7 4d 00 40 64 d3 
0.865000 1 221 Rx d 8 41 01 55 51 01 02 a0 ae 
0.865200 1 283 Rx d 6 00 00 00 00 00 00 
0.865500 1 242 Rx d 4 10 15 04 05 
0.865600 1 1f9 Rx d 8 00 00 00 00 00 00 00 00 
0.865700 1 212 Rx d 8 58 2c 00 00 82 ff 37 62 
0.866000 1 252 Rx d 8 00 00 90 06 00 80 18 00 
0.866200 1 292 Rx d 8 47 83 2d 76 d2 01 00 00 
0.866400 1 22b Rx d 8 ff ff ff ff ff ff ff ff 
0.866600 1 2c1 Rx d 8 58 24 7e 00 00 8a 02 07 
0.866900 1 2d2 Rx d 8 6e 29 a4 4e 00 00 a1 01 
0.867100 1 2f2 Rx d 2 62 01 
0.867400 1 35f Rx d 1 00 
0.867900 1 42e Rx d 8 00 e0 bf ff fe ef bf ff 
0.868300 1 42f Rx d 7 fb ab cb 02 fa 00 ff 
0.868600 1 545 Rx d 8 01 00 00 00 00 10 d0 2b 
0.868800 1 132 Rx d 6 d0 8a f7 ff 25 40 
0.869000 1 3c0 Rx d 8 05 00 00 00 00 00 00 00 
0.869300 1 401 Rx d 8 02 2a f4 82 f3 82 f9 82 
0.870600 1 798 Rx d 8 05 00 00 00 00 00 50 01 
0.871000 1 360 Rx d 8 09 00 00 00 00 00 00 00 
0.871900 1 2e1 Rx d 8 04 00 00 80 48 44 26 00 
0.872300 1 263 Rx d 8 18 7b 4d 07 d0 07 55 1f 
0.872600 1 129 Rx d 8 18 28 27 20 00 20 ff 3f 
0.874900 1 3a2 Rx d 8 01 10 20 00 0b f0 ff 00 
0.875100 1 201 Rx d 8 f8 c9 01 00 20 1f f1 06 
0.876200 1 2a8 Rx d 8 c2 10 00 00 06 80 90 92 
0.876500 1 119 Rx d 4 00 00 00 00 
0.876700 1 142 Rx d 8 28 00 02 5a 00 00 01 00 
0.876900 1 381 Rx d 8 d5 52 42 3f 3a 00 00 01 
0.877100 1 103 Rx d 8 22 b3 88 04 92 2c 21 02 
0.878000 1 102 Rx d 8 21 72 88 04 8c 0e 21 08 
0.878600 1 409 Rx d 1 00 
0.878800 1 132 Rx d 6 bd 8a f7 ff 27 40 
0.879000 1 261 Rx d 8 05 22 00 c9 9a 42 70 32 
0.880000 1 3a1 Rx d 8 e8 42 0d 0a 01 28 c2 ec 
0.881900 1 428 Rx d 7 00 00 10 10 00 00 00 
0.882200 1 797 Rx d 4 14 09 50 08 
0.882400 1 439 Rx d 8 02 00 40 00 00 38 00 00 
0.882600 1 123 Rx d 8 00 00 12 92 d2 00 00 80 
0.883100 1 129 Rx d 8 4d 29 27 20 00 20 ff 3f 
0.883400 1 243 Rx d 8 01 fc 55 00 5c 00 7c 7c 
0.884300 1 400 Rx d 7 00 e0 fb be ef fb 00 
0.884500 1 122 Rx d 8 01 00 00 00 00 3f 00 00 
0.884800 1 355 Rx d 7 80 ec 00 bc 94 00 00 
0.885000 1 313 Rx d 8 02 64 64 05 00 00 90 75 
0.885300 1 3e8 Rx d 8 04 00 00 00 00 00 00 00 
0.885900 1 23e Rx d 8 f4 01 3a ad fa fc 6f 81 
0.886200 1 285 Rx d 8 02 d5 00 00 00 00 de 00 
0.886500 1 2e1 Rx d 8 45 c1 02 00 50 95 a3 6a 
0.886700 1 2c1 Rx d 8 21 ab 23 be 02 00 00 00 
0.887100 1 3a3 Rx d 8 00 d0 00 00 38 03 fc 01 
0.887200 1 677 Rx d 8 00 00 00 00 00 00 00 00 
0.887400 1 25b Rx d 8 d3 c0 02 05 6a 86 70 55 
0.887600 1 3ae Rx d 8 00 40 00 08 00 00 20 69 
0.887800 1 132 Rx d 6 c1 8a f7 ff 27 40 
0.888100 1 372 Rx d 8 01 e6 15 04 50 00 38 01 
0.888400 1 401 Rx d 8 03 2a fa 82 fd 82 f4 82 
0.888600 1 719 Rx d 8 01 06 00 00 00 00 00 00 
0.888800 1 113 Rx d 3 01 97 01 
0.889100 1 7f4 Rx d 1 01 
0.889200 1 7ff Rx d 8 06 84 32 00 00 00 08 c0 
0.889400 1 318 Rx d 8 1a 09 32 05 0b 2c 35 e1 
0.889600 1 458 Rx d 7 00 00 00 00 40 00 00 
0.889800 1 340 Rx d 8 09 00 00 00 00 00 00 00 
0.890000 1 263 Rx d 8 49 63 55 07 e8 c7 54 1f 
0.890500 1 129 Rx d 8 fb 2a 27 20 ff 1f ff 3f 
0.890800 1 272 Rx d 8 06 00 fc e0 07 b0 07 08 
0.892300 1 229 Rx d 3 6d 03 00 
0.892500 1 2b3 Rx d 8 ae 55 00 fc ff 31 19 08 
0.894000 1 249 Rx d 4 2a 02 00 00 
0.894300 1 2ec Rx d 3 67 50 a5 
0.894600 1 54f Rx d 8 00 00 00 00 00 00 00 00 
0.895900 1 393 Rx d 8 06 00 fa d8 07 b0 07 08 
0.896200 1 39d Rx d 5 e6 5e c1 27 00 
0.896600 1 261 Rx d 8 00 10 88 00 c5 4c 80 1f 
0.896900 1 441 Rx d 8 67 85 89 00 32 00 30 40 
0.897100 1 379 Rx d 8 03 c0 0d 48 33 b7 25 00 
0.897400 1 201 Rx d 8 01 04 b8 00 10 00 80 c4 
0.897500 1 7a8 Rx d 8 01 00 00 00 ff a1 d8 13 
0.897900 1 282 Rx d 8 00 00 00 00 ec 13 0b 24 
0.898000 1 132 Rx d 6 c6 8a f7 ff 27 40 
0.898300 1 20c Rx d 8 00 40 47 19 00 90 08 00 
0.898500 1 3e2 Rx d 7 00 00 80 5a b0 cf 04 
0.898700 1 23a Rx d 8 0a 00 00 00 00 00 00 00 
0.898900 1 3c2 Rx d 8 00 55 55 55 00 00 59 45 
0.899200 1 22a Rx d 4 00 00 39 16 
0.899400 1 31e Rx d 8 01 02 00 00 00 00 00 00 
0.899600 1 41d Rx d 1 40 
0.899800 1 21d Rx d 8 4c 00 02 20 80 00 10 00 
0.900000 1 43d Rx d 6 21 00 ff 1f 20 26 
0.900200 1 129 Rx d 8 63 2b 27 20 00 20 ff 3f 
0.900500 1 243 Rx d 8 02 84 39 11 00 0c 00 00 
0.900700 1 25d Rx d 8 6e 81 24 ac 00 f1 d8 03 
0.900900 1 241 Rx d 7 2c 2c 0c 0b 0b 53 00 
0.901000 1 27d Rx d 8 00 00 00 00 00 00 00 00 
0.901300 1 29d Rx d 5 00 00 00 20 00 
0.901900 1 2bd Rx d 4 00 00 00 00 
0.902400 1 45a Rx d 8 a0 46 c6 c5 3f 49 00 55 
0.902700 1 228 Rx d 8 03 16 54 8f 80 0c 61 13 
0.902900 1 2e1 Rx d 8 10 21 04 00 12 00 26 08 
0.904300 1 49d Rx d 7 00 00 00 00 00 00 20 
0.906200 1 139 Rx d 1 00 
0.906500 1 545 Rx d 8 02 00 12 00 00 00 e0 3e 
0.906700 1 3a2 Rx d 8 e2 27 00 00 20 00 00 00 
0.907400 1 234 Rx d 8 1b c0 01 37 dd 04 80 0f 
0.908000 1 4e3 Rx d 8 cd 04 6b 51 00 0a 00 00 
0.908300 1 1f8 Rx d 4 00 00 00 00 
0.908500 1 2c1 Rx d 8 02 0d 06 00 00 d0 92 81 
0.908800 1 132 Rx d 6 c6 8a f8 ff 25 40 
0.909000 1 401 Rx d 8 04 2a f7 82 f6 82 e9 82 
0.909200 1 7b8 Rx d 8 05 60 52 c7 35 03 50 20 
0.909900 1 7aa Rx d 8 09 08 07 08 07 01 00 00 
0.910300 1 37a Rx d 8 7b 00 00 00 00 00 00 00 
0.910600 1 261 Rx d 8 31 00 df 00 e9 49 9a d2 
0.912400 1 381 Rx d 8 16 10 00 00 00 64 64 00 
0.912600 1 129 Rx d 8 03 2c 27 20 00 20 ff 3f 
0.914500 1 263 Rx d 8 02 00 00 00 00 00 00 00 
0.914700 1 343 Rx d 8 00 92 5c 4e 9f 00 00 00 
0.915000 1 289 Rx d 8 aa 02 01 00 99 00 3d 0f 
0.915200 1 2f1 Rx d 8 2b 64 00 89 00 00 00 00 
0.916300 1 221 Rx d 8 40 41 05 05 00 50 b1 af 
0.916500 1 2e8 Rx d 8 c2 10 00 00 06 80 90 d2 
0.916900 1 727 Rx d 2 08 00 
0.918400 1 3c3 Rx d 8 00 00 00 00 00 45 00 00 
0.918600 1 3e3 Rx d 4 00 00 00 00 
0.918900 1 22b Rx d 8 ff ff ff ff ff ff ff ff 
0.919300 1 359 Rx d 8 0a 78 c5 a5 5d 5d da c7 
0.920500 1 132 Rx d 6 be 8a f8 ff 27 40 
0.921300 1 2e1 Rx d 8 29 8a 3b a2 1f 28 00 00 
0.921900 1 4e2 Rx d 8 55 00 64 41 03 08 00 00 
0.922100 1 448 Rx d 7 00 00 10 10 00 00 00 
0.922400 1 129 Rx d 8 78 2d 27 20 ff 1f ff 3f 
0.922900 1 243 Rx d 8 03 00 00 80 42 65 1f 00 
0.923900 1 201 Rx d 8 02 d0 00 40 06 00 b8 39 
0.924300 1 553 Rx d 8 00 00 00 00 00 00 60 b8 
0.924500 1 3f5 Rx d 8 00 c8 48 09 80 04 00 00 
0.924800 1 142 Rx d 8 01 00 40 0a c0 1b 00 00 
0.925500 1 38a Rx d 8 00 00 00 00 00 00 00 00 
0.925800 1 78a Rx d 8 01 00 06 00 02 00 00 00 
0.926300 1 23e Rx d 8 f4 01 3a ad fa fc 7f 91 
0.926500 1 552 Rx d 8 00 00 00 00 00 00 60 b7 
0.926700 1 261 Rx d 8 2a 2b 37 02 80 5c a2 02 
0.927000 1 2c1 Rx d 8 1b 17 13 00 00 00 00 00 
0.928600 1 677 Rx d 8 01 00 00 00 00 00 00 00 
0.928800 1 682 Rx d 8 00 00 00 40 05 02 60 87 
0.929100 1 3ae Rx d 8 00 40 00 08 00 00 30 79 
0.930800 1 3a1 Rx d 8 2b 91 40 83 3e 00 d0 4d 
0.931000 1 132 Rx d 6 b8 8a f7 ff 27 40 
0.932300 1 383 Rx d 8 a7 18 43 00 31 70 c0 5e 
0.932500 1 401 Rx d 8 05 2a e8 82 eb 82 f0 82 
0.932600 1 263 Rx d 8 03 00 00 00 00 00 00 34 
0.932900 1 129 Rx d 8 ce 2e 27 20 00 20 ff 3f 
0.933100 1 39a Rx d 8 fd fd fd fd fd 01 00 02 
0.933300 1 422 Rx d 6 70 00 10 00 00 00 
0.933600 1 39d Rx d 5 e7 5f c1 27 00 
0.933800 1 2d3 Rx d 8 dd 00 5c 02 42 ff 1e 64 
0.934500 1 293 Rx d 8 01 0c 15 90 55 14 bf 6f 
0.934900 1 2d1 Rx d 2 7f 01 
0.936000 1 2e1 Rx d 8 02 6c 7f 02 2d 46 00 00 
0.936200 1 3df Rx d 8 00 00 00 00 01 d0 00 1b 
0.937100 1 423 Rx d 7 00 00 00 00 08 00 00 
0.937300 1 285 Rx d 8 03 47 86 48 95 00 00 00 
0.937500 1 545 Rx d 8 f0 00 22 b0 9e de f9 81 
0.937700 1 789 Rx d 4 54 11 60 c7 
0.937900 1 3a2 Rx d 8 a0 85 f2 f6 04 00 c5 6f 
0.938600 1 219 Rx d 7 03 80 ff ff ff fb 0f 
0.938800 1 132 Rx d 6 c7 8a f8 ff 27 40 
0.938900 1 43b Rx d 8 02 7f 00 ff 00 00 00 00 
0.939200 1 34a Rx d 8 01 07 00 00 00 00 00 60 
0.939300 1 419 Rx d 1 00 
0.940300 1 719 Rx d 8 ee c5 00 00 62 00 00 14 
0.940700 1 2c2 Rx d 8 55 1b a8 06 00 00 12 a5 
0.942300 1 2c3 Rx d 8 00 00 c0 4b 01 00 c0 cb 
0.943000 1 129 Rx d 8 3f 2f 27 20 00 20 ff 3f 
0.943300 1 20e Rx d 3 17 07 00 
0.944300 1 243 Rx d 8 04 84 f1 ff fd 7f 55 5c 
0.944600 1 249 Rx d 4 d3 03 00 00 
0.944800 1 261 Rx d 8 5b 4f 0a 00 00 40 b5 9f 
0.945000 1 3c8 Rx d 8 05 00 00 00 00 00 00 00 
0.945300 1 441 Rx d 8 23 00 b6 c3 58 00 35 92 
0.945500 1 2f9 Rx d 8 88 fb 07 18 00 00 00 00 
0.945700 1 421 Rx d 7 00 14 00 00 00 d0 48 
0.945900 1 3bd Rx d 8 03 00 00 00 00 00 00 00 
0.946200 1 201 Rx d 8 03 d0 00 40 06 00 98 3b 
0.946400 1 2bf Rx d 7 0a 00 00 00 20 00 00 
0.946500 1 204 Rx d 8 41 00 00 00 00 00 00 10 
0.946700 1 264 Rx d 6 3a 00 00 00 00 00 
0.947000 1 2c1 Rx d 8 04 00 0f 0e 09 12 07 12 
0.947200 1 2c4 Rx d 8 43 01 0e 20 01 12 80 00 
0.947500 1 2b4 Rx d 6 67 05 e5 0d cb 00 
0.947700 1 224 Rx d 8 04 08 00 48 19 01 10 08 
0.948300 1 132 Rx d 6 b5 8a f7 ff 28 40 
0.948600 1 2aa Rx d 3 67 60 73 
0.948900 1 372 Rx d 8 02 88 40 3e 90 01 1c 5a 
0.949100 1 381 Rx d 8 17 00 00 00 00 00 00 00 
0.949300 1 3a8 Rx d 8 03 00 00 00 00 00 00 00 
0.949600 1 3c2 Rx d 8 29 55 00 00 00 00 00 80 
0.949800 1 401 Rx d 8 06 2a ef 82 ef 82 f2 82 
0.950100 1 2e1 Rx d 8 fb 19 e7 e9 9b da 09 00 
0.950300 1 263 Rx d 8 04 00 00 00 60 14 00 00 
0.952400 1 129 Rx d 8 da 20 27 20 00 20 ff 3f 
0.952700 1 2b3 Rx d 8 ef 02 80 3e 01 0e 00 00 
0.953800 1 45a Rx d 8 fd 07 f8 ff 03 00 07 00 
0.954200 1 2a6 Rx d 8 00 00 6a 18 00 00 00 00 
0.954500 1 2a7 Rx d 8 00 00 00 00 00 8c 05 84 
0.955300 1 2c7 Rx d 8 00 00 00 00 00 00 46 ff 
0.956200 1 3f9 Rx d 8 07 00 00 00 00 00 00 00 
0.956500 1 234 Rx d 8 37 e1 03 80 43 00 94 0d 
0.956800 1 788 Rx d 8 02 40 ca 07 00 00 00 00 
0.957100 1 1fa Rx d 3 22 c0 01 
0.958500 1 420 Rx d 8 28 01 40 4b 00 00 00 07 
0.958800 1 225 Rx d 4 05 45 d2 00 
0.959000 1 2a1 Rx d 6 00 00 98 3a 00 00 
0.960300 1 132 Rx d 6 bb 8a f7 ff 24 40 
0.960500 1 261 Rx d 8 04 f1 07 4e 00 40 c4 44 
0.960800 1 2d7 Rx d 4 01 00 00 80 
0.962700 1 339 Rx d 8 01 41 02 00 00 02 40 02 
0.962900 1 243 Rx d 8 00 fc cf 4c b1 22 41 29 
0.963200 1 129 Rx d 8 cd 21 27 20 00 20 ff 3f 
0.963400 1 288 Rx d 8 03 16 54 8f 80 0c 71 83 
0.963700 1 221 Rx d 8 41 01 55 51 01 02 c0 ce 
0.963800 1 283 Rx d 6 00 00 00 00 00 00 
0.964200 1 242 Rx d 4 10 15 04 05 
0.964400 1 2d2 Rx d 8 6e 29 a4 4e 00 00 a1 01 
0.964500 1 212 Rx d 8 58 2c 00 00 82 ff 37 62 
0.964700 1 23e Rx d 8 f4 01 3a ad fa fc 8f a1 
0.965000 1 252 Rx d 8 00 00 90 06 00 80 18 00 
0.965200 1 292 Rx d 8 47 83 2d 76 d2 01 00 00 
0.965500 1 2f2 Rx d 2 62 01 
0.965700 1 312 Rx d 8 70 e4 66 04 4c 51 15 14 
0.966000 1 1f9 Rx d 8 00 00 00 00 00 00 00 00 
0.966200 1 2c1 Rx d 8 58 24 7e 00 00 8a 02 07 
0.966400 1 2e1 Rx d 8 04 00 00 80 48 44 26 00 
0.966600 1 22b Rx d 8 ff ff ff ff ff ff ff ff 
0.966900 1 392 Rx d 8 00 10 00 00 00 00 00 00 
0.967100 1 3b2 Rx d 8 0a 8c 1f c4 a0 1a 69 1b 
0.967400 1 3ae Rx d 8 00 40 00 08 00 00 40 89 
0.967900 1 545 Rx d 8 01 00 00 00 00 10 00 5b 
0.968200 1 677 Rx d 8 02 00 00 00 00 00 00 00 
0.968600 1 712 Rx d 8 00 2a d4 0a fa 0a dd 0a 
0.968800 1 132 Rx d 6 ba 8a f7 ff 28 40 
0.969300 1 3c0 Rx d 8 06 00 00 00 00 00 00 00 
0.970600 1 401 Rx d 8 07 2a ea 82 f2 82 f5 82 
0.971000 1 798 Rx d 8 be 05 00 00 00 00 60 cf 
0.971100 1 360 Rx d 8 0a 00 00 00 00 00 00 00 
0.971900 1 3a2 Rx d 8 01 10 20 00 0d f0 ff 00 
0.972300 1 263 Rx d 8 18 7b 4d 07 d0 07 55 1f 
0.972600 1 129 Rx d 8 84 22 27 20 00 20 ff 3f 
0.974900 1 201 Rx d 8 f8 c9 01 00 20 1f f1 06 
0.975100 1 2a8 Rx d 8 c2 10 00 00 06 80 a0 a2 
0.976200 1 39d Rx d 5 d8 50 c1 27 00 
0.976500 1 119 Rx d 4 00 00 00 00 
0.976700 1 142 Rx d 8 28 00 02 5a 00 00 01 00 
0.976900 1 261 Rx d 8 05 22 00 c9 9a 42 d0 92 
0.978100 1 103 Rx d 8 22 b3 88 04 92 2c 21 02 
0.978600 1 102 Rx d 8 21 72 88 04 8c 0e 21 08 
0.978800 1 409 Rx d 1 00 
0.979000 1 132 Rx d 6 ba 8a f7 ff 27 40 
0.980000 1 3a1 Rx d 8 e8 42 0d 0a 01 28 e2 0c 
0.980300 1 428 Rx d 7 00 00 10 10 00 00 00 
0.980500 1 797 Rx d 4 14 09 60 18 
0.980800 1 439 Rx d 8 02 00 40 00 00 38 00 00 
0.981000 1 123 Rx d 8 01 00 00 00 00 3f 00 00 
0.981900 1 129 Rx d 8 93 23 27 20 00 20 ff 3f 
0.982400 1 243 Rx d 8 01 fc 55 00 5c 00 7c 7c 
0.982700 1 400 Rx d 7 00 e0 fb be ef fb 00 
0.982800 1 2e1 Rx d 8 45 c1 02 00 50 95 a3 6a 
0.983000 1 31a Rx d 8 60 fc ff 02 00 00 30 aa 
0.983200 1 381 Rx d 8 18 00 00 00 00 00 00 00 
0.983600 1 709 Rx d 8 c4 4d 37 f5 c5 1f 80 00 
0.984300 1 122 Rx d 8 00 00 18 92 12 00 00 00 
0.984600 1 253 Rx d 8 00 64 34 85 64 62 00 15 
0.985100 1 3e8 Rx d 8 05 00 00 00 00 00 00 00 
0.986200 1 4f3 Rx d 4 00 00 00 00 
0.986500 1 213 Rx d 2 00 15 
0.986700 1 82 Rx d 8 00 7f ff 80 ff 03 00 80 
0.987100 1 285 Rx d 8 04 53 93 47 8b 00 00 00 
0.987200 1 2c1 Rx d 8 21 ab 23 be 02 00 00 00 
0.987500 1 3a3 Rx d 8 00 d0 00 00 38 03 fc 01 
0.987700 1 25b Rx d 8 d3 c0 02 05 6a 86 80 65 
0.988000 1 132 Rx d 6 b1 8a f7 ff 28 40 
0.988100 1 401 Rx d 8 08 2a f6 82 e6 82 ee 82 
0.988400 1 748 Rx d 5 2e 22 0b 00 00 
0.988600 1 42a Rx d 8 f9 6b fe 9a bf e6 af 55 
0.988900 1 113 Rx d 3 01 97 01 
0.989100 1 405 Rx d 8 10 00 00 00 00 4c 52 57 
0.989200 1 414 Rx d 8 10 00 00 00 00 20 20 20 
0.989500 1 55a Rx d 8 04 00 00 00 00 00 00 00 
0.989600 1 666 Rx d 4 00 00 a0 00 
0.989800 1 340 Rx d 8 0a 04 00 00 00 00 00 00 
0.990000 1 261 Rx d 8 00 10 89 00 c5 4c e0 80 
0.990300 1 129 Rx d 8 b8 24 27 20 01 20 ff 3f 
0.990500 1 263 Rx d 8 49 63 55 07 e8 c7 54 1f 
0.990800 1 229 Rx d 3 43 04 00 
0.990900 1 272 Rx d 8 09 80 63 00 00 00 00 00 
0.991100 1 249 Rx d 4 d3 04 00 00 
0.991400 1 2ec Rx d 3 67 60 b5 
0.991600 1 54f Rx d 8 00 00 00 00 00 00 00 00 
0.992300 1 719 Rx d 8 0c 50 0f 00 50 00 20 00 
0.994000 1 7aa Rx d 8 0a 8c 06 8c 06 00 56 00 
0.994300 1 393 Rx d 8 09 80 63 00 00 00 00 00 
0.994600 1 7f4 Rx d 1 01 
0.995900 1 7ff Rx d 8 07 20 80 44 40 00 02 20 
0.996200 1 318 Rx d 8 1a 09 32 05 0b 2c 37 e3 
0.996500 1 458 Rx d 7 00 00 00 00 40 00 00 
0.996700 1 441 Rx d 8 67 85 89 00 32 00 38 48 
0.997000 1 379 Rx d 8 04 00 4f 38 d3 01 00 00 
0.997200 1 201 Rx d 8 01 04 b8 00 10 00 80 c4 
0.997500 1 7a8 Rx d 8 02 40 cd 07 00 07 00 00 
0.997900 1 282 Rx d 8 00 00 00 00 ec 13 0b 24 
0.998200 1 132 Rx d 6 c5 8a f7 ff 27 40 
0.998300 1 2e1 Rx d 8 10 21 04 00 12 00 26 08 
0.998500 1 20c Rx d 8 00 40 47 19 00 90 08 00 
0.998800 1 40a Rx d 8 01 00 01 00 00 00 30 40 
0.999000 1 3c2 Rx d 8 00 55 55 55 00 00 59 45 
0.999200 1 22a Rx d 4 00 00 39 16 
0.999400 1 75d Rx d 8 80 00 00 00 00 00 00 20 
0.999700 1 31e Rx d 8 02 00 00 00 00 00 00 00 
0.999900 1 41d Rx d 1 40 
1.000100 1 21d Rx d 8 4c 00 02 20 80 00 10 00 
1.000300 1 129 Rx d 8 af 25 27 20 01 20 ff 3f 
1.000500 1 243 Rx d 8 02 84 39 11 00 0c 00 00 
1.000700 1 25d Rx d 8 6e 81 24 ac 00 f1 d8 03 
1.001000 1 241 Rx d 7 2c 2c 0c 0b 0b 53 00 
1.001100 1 27d Rx d 8 00 00 00 00 00 00 00 00 
1.001300 1 43d Rx d 6 21 00 ff 1f 20 26 
