date Mon Aug 24 05:50:40 PM 2026
base hex timestamps absolute
// version 7.0.0
19.506000 1 3a1 Rx d 8 2b fa 40 6b 3e 00 f0 be 
19.506400 1 23e Rx d 8 f4 01 3a c0 fa fc ff 24 
19.507500 1 788 Rx d 8 01 00 00 00 ff a1 98 12 
19.514600 1 2c2 Rx d 8 55 63 a8 46 01 00 1a a5 
19.523900 1 3c2 Rx d 8 29 55 00 00 00 00 00 80 
19.530800 1 545 Rx d 8 01 00 00 00 00 10 60 bb 
19.546100 1 23e Rx d 8 f4 01 3a c0 fa fc 0f 34 
19.553700 1 7a8 Rx d 8 01 00 00 00 ff a1 98 12 
19.555600 1 3a1 Rx d 8 e8 42 0d 8a 01 08 02 8c 
19.557500 1 3a3 Rx d 8 00 e0 00 00 38 03 fc 01 
19.564500 1 545 Rx d 8 02 00 02 00 00 00 70 be 
19.564800 1 272 Rx d 8 06 00 ef 78 07 b0 07 08 
19.573700 1 3c2 Rx d 8 00 55 55 55 00 00 59 45 
19.586100 1 23e Rx d 8 f4 01 3a c0 fa fc 1f 44 
19.596600 1 2b4 Rx d 6 13 05 a6 0d cc 00 
19.597200 1 545 Rx d 8 40 01 27 30 95 4a 89 4a 
19.604900 1 3a1 Rx d 8 2b fa 40 79 3e 00 10 ec 
19.609100 1 788 Rx d 8 02 40 d0 07 00 00 00 00 
19.615400 1 2c2 Rx d 8 20 40 40 6a 01 00 00 cb 
19.623700 1 3c2 Rx d 8 29 55 00 00 00 00 00 80 
19.626600 1 23e Rx d 8 f4 01 3a c0 fa fc 2f 54 
19.629100 1 545 Rx d 8 01 00 00 00 00 10 90 eb 
19.653900 1 7a8 Rx d 8 02 40 d0 07 00 07 00 00 
19.655400 1 3a1 Rx d 8 e8 42 0d 8a 01 08 22 ac 
19.656500 1 3a3 Rx d 8 00 e0 00 00 38 03 fc 01 
19.663700 1 545 Rx d 8 02 00 02 00 00 00 a0 ee 
19.664900 1 272 Rx d 8 09 80 63 00 00 00 00 00 
19.666600 1 23e Rx d 8 f4 01 3a c0 fa fc 3f 64 
19.673600 1 3c2 Rx d 8 00 55 55 55 00 00 59 45 
19.695000 1 545 Rx d 8 40 01 27 10 95 49 b9 59 
19.697200 1 2b4 Rx d 6 15 05 a7 0d cf 00 
19.705700 1 3a1 Rx d 8 2b fa 40 77 3e 00 30 0a 
19.706400 1 23e Rx d 8 f4 01 3a c0 fa fc 4f 74 
19.707500 1 788 Rx d 8 a8 bc 71 63 00 00 80 00 
19.714600 1 2c2 Rx d 8 55 63 a8 46 01 00 1a a5 
19.723900 1 3c2 Rx d 8 29 55 00 00 00 00 00 80 
19.729100 1 545 Rx d 8 01 00 00 00 00 10 c0 1b 
19.746100 1 23e Rx d 8 f4 01 3a c0 fa fc 5f 84 
19.753400 1 7a8 Rx d 8 a8 b4 71 63 00 00 82 00 
19.755600 1 3a1 Rx d 8 e8 42 0d 8a 01 08 42 cc 
19.757500 1 3a3 Rx d 8 00 e0 00 00 38 03 fc 01 
19.761000 1 545 Rx d 8 02 00 02 00 00 00 d0 1e 
19.764900 1 272 Rx d 8 06 00 ef 78 07 b0 07 08 
19.772500 1 23a Rx d 8 22 04 70 37 fc e9 69 34 
19.773200 1 3c2 Rx d 8 00 55 55 55 00 00 59 45 
19.786100 1 23e Rx d 8 f4 01 3a c0 fa fc 6f 94 
19.794600 1 545 Rx d 8 f0 00 22 10 95 45 e9 2f 
19.797100 1 2b4 Rx d 6 14 05 a7 0d d3 00 
19.806400 1 3a1 Rx d 8 2b fa 40 77 3e 00 50 2a 
19.807500 1 788 Rx d 8 01 00 00 00 ff a1 98 12 
19.814600 1 2c2 Rx d 8 20 40 40 6a 01 00 00 cb 
19.825200 1 3c2 Rx d 8 29 55 00 00 00 00 00 80 
19.826500 1 23e Rx d 8 f4 01 3a c0 fa fc 7f a4 
19.829100 1 545 Rx d 8 01 00 00 00 00 10 f0 4b 
19.853400 1 7a8 Rx d 8 01 00 00 00 ff a1 98 12 
19.854900 1 3a1 Rx d 8 e8 42 0d 8a 01 08 62 ec 
19.856500 1 3a3 Rx d 8 00 e0 00 00 38 03 fc 01 
19.861100 1 545 Rx d 8 02 00 02 00 00 00 00 4e 
19.864900 1 272 Rx d 8 09 80 63 00 00 00 00 00 
19.866600 1 23e Rx d 8 f4 01 3a c0 fa fc 8f b4 
19.873600 1 3c2 Rx d 8 00 55 55 55 00 00 59 45 
19.895100 1 545 Rx d 8 40 01 27 10 95 45 19 b5 
19.897200 1 2b4 Rx d 6 13 05 a7 0d cd 00 
19.905700 1 3a1 Rx d 8 2b fa 40 77 3e 00 70 4a 
19.906500 1 23e Rx d 8 f4 01 3a c0 fa fc 9f c4 
19.909100 1 788 Rx d 8 02 40 ce 07 00 00 00 00 
19.914100 1 2c2 Rx d 8 55 63 a8 46 01 00 1a a5 
19.924200 1 3c2 Rx d 8 29 55 00 00 00 00 00 80 
19.929100 1 545 Rx d 8 01 00 00 00 00 10 20 7b 
19.946100 1 23e Rx d 8 f4 01 3a c0 fa fc af d4 
19.953100 1 7a8 Rx d 8 02 40 d3 07 00 07 00 00 
19.955700 1 3a1 Rx d 8 e8 42 0d 8a 01 08 82 0c 
19.957500 1 3a3 Rx d 8 00 e0 00 00 38 03 fc 01 
19.961000 1 545 Rx d 8 02 00 02 00 00 00 30 7e 
19.964900 1 272 Rx d 8 06 00 ef 78 07 b0 07 08 
19.973700 1 3c2 Rx d 8 00 55 55 55 00 00 59 45 
19.986000 1 23e Rx d 8 f4 01 3a c0 fa fc bf e4 
19.992000 1 545 Rx d 8 f0 00 22 10 95 49 49 93 
19.997200 1 2b4 Rx d 6 15 05 a7 0d cc 00 
20.006500 1 3a1 Rx d 8 2b fa 40 81 3e 00 90 74 
20.007500 1 788 Rx d 8 a8 bc 71 63 00 00 80 00 
20.015400 1 2c2 Rx d 8 20 40 40 6a 01 00 00 cb 
20.024500 1 3c2 Rx d 8 29 55 00 00 00 00 00 80 
20.025300 1 545 Rx d 8 01 00 00 00 00 10 50 ab 
20.026600 1 23e Rx d 8 f4 01 3a c0 fa fc cf f4 
20.053800 1 7a8 Rx d 8 a8 b4 71 63 00 00 82 00 
20.055400 1 3a1 Rx d 8 e8 42 0d 8a 01 08 a2 2c 
20.056200 1 3a3 Rx d 8 00 e0 00 00 38 03 fc 01 
20.058500 1 545 Rx d 8 02 00 02 00 00 00 60 ae 
20.064900 1 272 Rx d 8 09 80 63 00 00 00 00 00 
20.066600 1 23e Rx d 8 f4 01 3a c0 fa fc df 04 
20.073700 1 3c2 Rx d 8 00 55 55 55 00 00 59 45 
20.091700 1 545 Rx d 8 40 01 2c e0 94 46 79 ea 
20.097200 1 2b4 Rx d 6 13 05 a6 0d d0 00 
20.105100 1 3a1 Rx d 8 2b fa 40 79 3e 00 b0 8c 
20.106500 1 23e Rx d 8 f4 01 3a c0 fa fc ef 14 
20.109100 1 788 Rx d 8 01 00 00 00 ff a1 a8 12 
20.114600 1 2c2 Rx d 8 55 63 a8 46 01 00 1a a5 
20.123700 1 3c2 Rx d 8 29 55 00 00 00 00 00 80 
20.124400 1 545 Rx d 8 01 00 00 00 00 10 80 db 
20.146200 1 23e Rx d 8 f4 01 3a c0 fa fc ff 24 
20.154000 1 7a8 Rx d 8 01 00 00 00 ff a1 98 12 
20.155700 1 3a1 Rx d 8 e8 42 0d 8a 01 08 c2 4c 
20.156500 1 3a3 Rx d 8 00 e0 00 00 38 03 fc 01 
20.157500 1 545 Rx d 8 02 00 02 00 00 00 90 de 
20.164900 1 272 Rx d 8 06 00 ef 78 07 b0 07 08 
20.173700 1 3c2 Rx d 8 00 55 55 55 00 00 59 45 
20.186100 1 23e Rx d 8 f4 01 3a c0 fa fc 0f 34 
20.190200 1 545 Rx d 8 40 01 27 40 95 47 a9 77 
20.197300 1 2b4 Rx d 6 14 05 a6 0d cd 00 
20.206500 1 3a1 Rx d 8 2b fa 40 7b 3e 00 d0 ae 
20.207500 1 788 Rx d 8 02 40 d0 07 00 00 00 00 
20.215400 1 2c2 Rx d 8 20 40 40 6a 01 00 00 cb 
20.224200 1 3c2 Rx d 8 29 55 00 00 00 00 00 80 
20.225300 1 545 Rx d 8 01 00 00 00 00 10 b0 0b 
20.226600 1 23e Rx d 8 f4 01 3a c0 fa fc 1f 44 
20.253100 1 7a8 Rx d 8 02 40 d4 07 00 07 00 00 
20.255500 1 3a1 Rx d 8 e8 42 0d 8a 01 08 e2 6c 
20.256200 1 3a3 Rx d 8 00 e0 00 00 38 03 fc 01 
20.256600 1 545 Rx d 8 02 00 01 00 00 00 c0 0d 
20.264700 1 272 Rx d 8 09 80 63 00 00 00 00 00 
20.264900 1 382 Rx d 5 42 18 27 00 00 
20.266600 1 23e Rx d 8 f4 01 3a c0 fa fc 2f 54 
20.273700 1 3c2 Rx d 8 00 55 55 55 00 00 59 45 
20.289600 1 545 Rx d 8 f0 00 27 10 95 45 d9 24 
20.297300 1 2b4 Rx d 6 13 05 a7 0d cf 00 
20.305700 1 3a1 Rx d 8 2b fa 40 77 3e 00 f0 ca 
20.306500 1 23e Rx d 8 f4 01 3a c0 fa fc 3f 64 
20.309100 1 788 Rx d 8 a8 bc 71 63 00 00 80 00 
20.314600 1 2c2 Rx d 8 55 63 a8 46 01 00 1a a5 
20.322600 1 545 Rx d 8 01 00 00 00 00 10 e0 3b 
20.323800 1 3c2 Rx d 8 29 55 00 00 00 00 00 80 
20.346200 1 23e Rx d 8 f4 01 3a c0 fa fc 4f 74 
20.353200 1 7a8 Rx d 8 a8 b4 71 63 00 00 82 00 
20.355500 1 3a1 Rx d 8 e8 42 0d 8a 01 08 02 8c 
20.356000 1 3a3 Rx d 8 00 e0 00 00 38 03 fc 01 
20.356200 1 545 Rx d 8 02 00 01 00 00 00 f0 3d 
20.364900 1 272 Rx d 8 06 00 ef 78 07 b0 07 08 
20.373400 1 3c2 Rx d 8 00 55 55 55 00 00 59 45 
20.386200 1 23e Rx d 8 f4 01 3a c0 fa fc 5f 84 
20.388600 1 545 Rx d 8 40 01 27 10 95 49 09 a9 
20.397300 1 2b4 Rx d 6 13 05 a6 0d d3 00 
20.402700 1 373 Rx d 8 0b a2 ab 00 00 de 06 1f 
20.406500 1 3a1 Rx d 8 2b fa 40 77 3e 00 10 ea 
20.407600 1 788 Rx d 8 01 00 00 00 ff a1 a8 12 
20.415500 1 2c2 Rx d 8 20 40 40 6a 01 00 00 cb 
20.421600 1 545 Rx d 8 01 00 00 00 00 10 10 6b 
20.425300 1 3c2 Rx d 8 29 55 00 00 00 00 00 80 
20.426600 1 23e Rx d 8 f4 01 3a c0 fa fc 6f 94 
20.454200 1 545 Rx d 8 02 00 01 00 00 00 20 6d 
20.454300 1 7a8 Rx d 8 01 00 00 00 ff a1 98 12 
20.455500 1 3a1 Rx d 8 e8 42 0d 8a 01 08 22 ac 
20.456600 1 3a3 Rx d 8 00 e0 00 00 38 03 fc 01 
20.464900 1 272 Rx d 8 09 80 63 00 00 00 00 00 
20.466600 1 23e Rx d 8 f4 01 3a c0 fa fc 7f a4 
20.473700 1 3c2 Rx d 8 00 55 55 55 00 00 59 45 
20.488200 1 545 Rx d 8 40 01 27 10 95 45 39 d5 
20.496700 1 2b4 Rx d 6 12 05 a7 0d cb 00 
20.505700 1 3a1 Rx d 8 2b fa 40 77 3e 00 30 0a 
20.506500 1 23e Rx d 8 f4 01 3a c0 fa fc 8f b4 
20.507600 1 788 Rx d 8 02 40 d0 07 00 00 00 00 
20.514600 1 2c2 Rx d 8 55 63 a8 46 01 00 1a a5 
20.521400 1 545 Rx d 8 01 00 00 00 00 10 40 9b 
20.524000 1 3c2 Rx d 8 29 55 00 00 00 00 00 80 
20.546200 1 23e Rx d 8 f4 01 3a c0 fa fc 9f c4 
20.554400 1 545 Rx d 8 02 00 01 00 00 00 50 9d 
20.554500 1 7a8 Rx d 8 02 40 d3 07 00 07 00 00 
20.555200 1 3a1 Rx d 8 e8 42 0d 8a 01 08 42 cc 
20.556500 1 3a3 Rx d 8 00 e0 00 00 38 03 fc 01 
20.564900 1 272 Rx d 8 06 00 ef 78 07 b0 07 08 
20.573700 1 3c2 Rx d 8 00 55 55 55 00 00 59 45 
20.586000 1 23e Rx d 8 f4 01 3a c0 fa fc af d4 
20.586900 1 545 Rx d 8 f0 00 27 00 95 48 69 a7 
20.596800 1 2b4 Rx d 6 14 05 a6 0d cf 00 
20.605100 1 3a1 Rx d 8 2b fa 40 75 3e 00 50 28 
20.607600 1 788 Rx d 8 a8 bc 71 63 00 00 80 00 
20.615400 1 2c2 Rx d 8 20 40 40 6a 01 00 00 cb 
20.619300 1 545 Rx d 8 01 00 00 00 00 10 70 cb 
20.624000 1 3c2 Rx d 8 29 55 00 00 00 00 00 80 
20.626700 1 23e Rx d 8 f4 01 3a c0 fa fc bf e4 
20.652800 1 545 Rx d 8 02 00 01 00 00 00 80 cd 
20.653300 1 7a8 Rx d 8 a8 b4 71 63 00 00 82 00 
20.655500 1 3a1 Rx d 8 e8 42 0d 8a 01 08 62 ec 
20.656600 1 3a3 Rx d 8 00 e0 00 00 38 03 fc 01 
20.665000 1 272 Rx d 8 09 80 63 00 00 00 00 00 
20.666700 1 23e Rx d 8 f4 01 3a c0 fa fc cf f4 
20.673700 1 3c2 Rx d 8 00 55 55 55 00 00 59 45 
20.685500 1 545 Rx d 8 f0 00 27 00 95 44 99 d3 
20.697300 1 2b4 Rx d 6 15 05 a6 0d d0 00 
20.705700 1 3a1 Rx d 8 2b fa 40 75 3e 00 70 48 
20.706500 1 23e Rx d 8 f4 01 3a c0 fa fc df 04 
20.709100 1 788 Rx d 8 01 00 00 00 ff a1 a8 12 
20.714600 1 2c2 Rx d 8 55 63 a8 46 01 00 1a a5 
20.718300 1 545 Rx d 8 01 00 00 00 00 10 a0 fb 
20.723900 1 3c2 Rx d 8 29 55 00 00 00 00 00 80 
20.746200 1 23e Rx d 8 f4 01 3a c0 fa fc ef 14 
20.752800 1 545 Rx d 8 02 00 02 00 00 00 b0 fe 
20.753100 1 7a8 Rx d 8 01 00 00 00 ff a1 98 12 
20.755700 1 3a1 Rx d 8 e8 42 0d 8a 01 08 82 0c 
20.756500 1 3a3 Rx d 8 00 e0 00 00 38 03 fc 01 
20.765000 1 272 Rx d 8 06 00 ef 78 07 b0 07 08 
20.772700 1 23a Rx d 8 23 08 1a 00 00 00 00 00 
20.773400 1 3c2 Rx d 8 00 55 55 55 00 00 59 45 
20.783900 1 545 Rx d 8 40 01 27 30 95 46 c9 86 
20.786000 1 23e Rx d 8 f4 01 3a c0 fa fc ff 24 
20.797300 1 2b4 Rx d 6 14 05 a7 0d d1 00 
20.806500 1 3a1 Rx d 8 2b fa 40 79 3e 00 90 6c 
20.809100 1 788 Rx d 8 02 40 d1 07 00 00 00 00 
20.815400 1 2c2 Rx d 8 20 40 40 6a 01 00 00 cb 
20.817000 1 545 Rx d 8 01 00 00 00 00 10 d0 2b 
20.825300 1 3c2 Rx d 8 29 55 00 00 00 00 00 80 
20.826700 1 23e Rx d 8 f4 01 3a c0 fa fc 0f 34 
20.852800 1 545 Rx d 8 02 00 02 00 00 00 e0 2e 
20.853100 1 7a8 Rx d 8 02 40 cf 07 00 07 00 00 
20.855000 1 3a1 Rx d 8 e8 42 0d 8a 01 08 a2 2c 
20.856600 1 3a3 Rx d 8 00 e0 00 00 38 03 fc 01 
20.865000 1 272 Rx d 8 09 80 63 00 00 00 00 00 
20.866700 1 23e Rx d 8 f4 01 3a c0 fa fc 1f 44 
20.873700 1 3c2 Rx d 8 00 55 55 55 00 00 59 45 
20.883500 1 545 Rx d 8 40 01 27 30 95 4a f9 ba 
20.897300 1 2b4 Rx d 6 13 05 a6 0d cc 00 
20.905700 1 3a1 Rx d 8 2b fa 40 83 3e 00 b0 96 
20.906500 1 23e Rx d 8 f4 01 3a c0 fa fc 2f 54 
20.909100 1 788 Rx d 8 a8 bc 71 63 00 00 80 00 
20.913900 1 2c2 Rx d 8 55 03 a8 46 81 00 1a a5 
20.914100 1 3c2 Rx d 8 00 55 55 55 04 00 59 45 
20.914300 1 2c2 Rx d 8 24 72 40 6a 01 00 00 cb 
20.917000 1 545 Rx d 8 01 00 00 00 00 10 00 5b 
20.924200 1 3c2 Rx d 8 29 55 00 00 00 00 00 80 
20.924400 1 2c2 Rx d 8 55 03 a8 46 81 00 1a a5 
20.946200 1 23e Rx d 8 f4 01 3a c0 fa fc 3f 64 
20.949200 1 545 Rx d 8 02 00 03 00 00 00 10 5f 
20.953800 1 7a8 Rx d 8 a4 b4 71 63 00 00 82 00 
20.955700 1 3a1 Rx d 8 e8 42 0d 8a 01 08 c2 4c 
20.956500 1 3a3 Rx d 8 00 e0 00 00 38 03 fc 01 
20.965000 1 272 Rx d 8 06 00 ee 70 07 b0 07 08 
20.973700 1 3c2 Rx d 8 00 55 55 55 04 00 59 45 
20.982700 1 545 Rx d 8 f0 07 27 e0 94 42 29 47 
20.986000 1 23e Rx d 8 f4 01 3a c0 fa fc 4f 74 
20.997300 1 2b4 Rx d 6 15 05 a7 0d 07 01 
21.505700 1 3a1 Rx d 8 2b fa 40 77 3e 00 70 4a 
21.506600 1 23e Rx d 8 f4 01 3a c0 fa fc 1f 44 
21.507600 1 788 Rx d 8 a8 bc 71 63 00 00 80 00 
21.510900 1 545 Rx d 8 01 00 00 00 00 10 20 7b 
21.514700 1 2c2 Rx d 8 55 a3 a8 46 01 00 1a a5 
21.524100 1 3c2 Rx d 8 29 55 00 00 00 00 00 80 
21.543800 1 545 Rx d 8 02 00 0f 00 00 00 30 8b 
21.546300 1 23e Rx d 8 f4 01 3a c0 fa fc 2f 54 
21.554000 1 7a8 Rx d 8 a8 b4 71 63 00 00 82 00 
21.555800 1 3a1 Rx d 8 e8 42 0d 8a 01 08 82 0c 
21.556600 1 3a3 Rx d 8 00 e0 00 00 38 03 fc 01 
21.565000 1 272 Rx d 8 06 00 ef 78 07 b0 07 08 
21.573800 1 3c2 Rx d 8 00 55 55 55 00 00 59 45 
21.576200 1 545 Rx d 8 f0 00 22 30 95 4a 49 b4 
21.586100 1 23e Rx d 8 f4 01 3a c0 fa fc 3f 64 
21.597300 1 2b4 Rx d 6 13 05 a7 0d cf 00 
21.605100 1 3a1 Rx d 8 2b fa 40 79 3e 00 90 6c 
21.608600 1 788 Rx d 8 01 00 00 00 ff a1 a8 12 
21.609200 1 545 Rx d 8 01 00 00 00 00 10 50 ab 
21.614700 1 2c2 Rx d 8 20 40 40 6f 01 00 00 cb 
21.623800 1 3c2 Rx d 8 29 55 00 00 00 00 00 80 
21.626700 1 23e Rx d 8 f4 01 3a c0 fa fc 4f 74 
21.642700 1 545 Rx d 8 02 00 0d 00 00 00 60 b9 
21.653300 1 7a8 Rx d 8 01 00 00 00 ff a1 98 12 
21.655500 1 3a1 Rx d 8 e8 42 0d 8a 01 08 a2 2c 
21.656600 1 3a3 Rx d 8 00 e0 00 00 38 03 fc 01 
21.665000 1 272 Rx d 8 09 80 63 00 00 00 00 00 
21.666700 1 23e Rx d 8 f4 01 3a c0 fa fc 5f 84 
21.673800 1 3c2 Rx d 8 00 55 55 55 00 00 59 45 
21.676200 1 545 Rx d 8 40 01 27 60 95 49 79 69 
21.697400 1 2b4 Rx d 6 13 05 a7 0d d2 00 
21.705700 1 3a1 Rx d 8 2b fa 40 6d 3e 00 b0 80 
21.706600 1 23e Rx d 8 f4 01 3a c0 fa fc 6f 94 
21.707700 1 788 Rx d 8 02 40 d2 07 00 00 00 00 
21.709200 1 545 Rx d 8 01 00 00 00 00 10 80 db 
21.714700 1 2c2 Rx d 8 55 a3 a8 46 01 00 1a a5 
21.724400 1 3c2 Rx d 8 29 55 00 00 00 00 00 80 
21.741100 1 545 Rx d 8 02 00 0b 00 00 00 90 e7 
21.746300 1 23e Rx d 8 f4 01 3a c0 fa fc 7f a4 
21.753900 1 7a8 Rx d 8 02 40 d6 07 00 07 00 00 
21.755800 1 3a1 Rx d 8 e8 42 0d 8a 01 08 c2 4c 
21.756600 1 3a3 Rx d 8 00 e0 00 00 38 03 fc 01 
21.765000 1 272 Rx d 8 06 00 ef 78 07 b0 07 08 
21.772700 1 23a Rx d 8 24 ff ff ff ff 00 00 00 
21.774200 1 3c2 Rx d 8 00 55 55 55 00 00 59 45 
21.775600 1 545 Rx d 8 40 01 27 10 95 49 a9 49 
21.786100 1 23e Rx d 8 f4 01 3a c0 fa fc 8f b4 
21.796300 1 2b4 Rx d 6 13 05 a6 0d c8 00 
21.806600 1 3a1 Rx d 8 2b fa 40 81 3e 00 d0 b4 
21.807400 1 545 Rx d 8 01 00 00 00 00 10 b0 0b 
21.807700 1 788 Rx d 8 a8 bc 71 63 00 00 80 00 
21.815500 1 2c2 Rx d 8 20 40 40 6f 01 00 00 cb 
21.825400 1 3c2 Rx d 8 29 55 00 00 00 00 00 80 
21.826700 1 23e Rx d 8 f4 01 3a c0 fa fc 9f c4 
21.841100 1 545 Rx d 8 02 00 0a 00 00 00 c0 16 
21.854000 1 7a8 Rx d 8 a8 b4 71 63 00 00 82 00 
21.855000 1 3a1 Rx d 8 e8 42 0d 8a 01 08 e2 6c 
21.857600 1 3a3 Rx d 8 00 e0 00 00 38 03 fc 01 
21.865100 1 272 Rx d 8 09 80 63 00 00 00 00 00 
21.866300 1 23e Rx d 8 f4 01 3a c0 fa fc af d4 
21.874100 1 3c2 Rx d 8 00 55 55 55 00 00 59 45 
21.874700 1 545 Rx d 8 40 01 27 50 95 4d d9 bd 
21.896200 1 2b4 Rx d 6 14 05 a7 0d cd 00 
21.905600 1 3a1 Rx d 8 2b fa 40 7d 3e 00 f0 d0 
21.906100 1 545 Rx d 8 01 00 00 00 00 10 e0 3b 
21.906600 1 23e Rx d 8 f4 01 3a c0 fa fc bf e4 
21.909200 1 788 Rx d 8 01 00 00 00 ff a1 98 12 
21.914300 1 2c2 Rx d 8 55 a3 a8 46 01 00 1a a5 
21.924100 1 3c2 Rx d 8 29 55 00 00 00 00 00 80 
21.941100 1 545 Rx d 8 02 00 09 00 00 00 f0 45 
21.946300 1 23e Rx d 8 f4 01 3a c0 fa fc cf f4 
21.953600 1 7a8 Rx d 8 01 00 00 00 ff a1 98 12 
21.955800 1 3a1 Rx d 8 e8 42 0d 8a 01 08 02 8c 
21.956600 1 3a3 Rx d 8 00 e0 00 00 38 03 fc 01 
21.965100 1 272 Rx d 8 06 00 ef 78 07 b0 07 08 
21.972500 1 545 Rx d 8 40 01 27 30 95 4a 09 ca 
21.973500 1 3c2 Rx d 8 00 55 55 55 00 00 59 45 
21.986100 1 23e Rx d 8 f4 01 3a c0 fa fc df 04 
21.997400 1 2b4 Rx d 6 12 05 a6 0d cf 00 
22.005100 1 3a1 Rx d 8 2b fa 40 79 3e 00 10 ec 
22.006600 1 545 Rx d 8 01 00 00 00 00 10 10 6b 
22.009200 1 788 Rx d 8 02 40 d1 07 00 00 00 00 
22.015400 1 2c2 Rx d 8 20 40 40 6f 01 00 00 cb 
22.025400 1 3c2 Rx d 8 29 55 00 00 00 00 00 80 
22.026700 1 23e Rx d 8 f4 01 3a c0 fa fc ef 14 
22.038700 1 545 Rx d 8 02 00 08 00 00 00 20 74 
22.053200 1 7a8 Rx d 8 02 40 d0 07 00 07 00 00 
22.055500 1 3a1 Rx d 8 e8 42 0d 8a 01 08 22 ac 
22.056400 1 3a3 Rx d 8 00 e0 00 00 38 03 fc 01 
22.065100 1 272 Rx d 8 09 80 63 00 00 00 00 00 
22.066700 1 23e Rx d 8 f4 01 3a c0 fa fc ff 24 
22.071800 1 545 Rx d 8 40 01 27 60 95 49 39 29 
22.073800 1 3c2 Rx d 8 00 55 55 55 00 00 59 45 
22.096200 1 2b4 Rx d 6 12 05 a7 0d cc 00 
22.104600 1 545 Rx d 8 01 00 00 00 00 10 40 9b 
22.105000 1 3a1 Rx d 8 2b fa 40 77 3e 00 30 0a 
22.106600 1 23e Rx d 8 f4 01 3a c0 fa fc 0f 34 
22.109200 1 788 Rx d 8 a8 bc 71 63 00 00 80 00 
22.114800 1 2c2 Rx d 8 55 a3 a8 46 01 00 1a a5 
22.123800 1 3c2 Rx d 8 29 55 00 00 00 00 00 80 
22.137500 1 545 Rx d 8 02 00 07 00 00 00 50 a3 
22.146300 1 23e Rx d 8 f4 01 3a c0 fa fc 1f 44 
22.153300 1 7a8 Rx d 8 a8 b4 71 63 00 00 82 00 
22.155800 1 3a1 Rx d 8 e8 42 0d 8a 01 08 42 cc 
22.156600 1 3a3 Rx d 8 00 e0 00 00 38 03 fc 01 
22.165100 1 272 Rx d 8 06 00 ef 78 07 b0 07 08 
22.172300 1 545 Rx d 8 40 01 27 30 95 4a 69 2a 
22.173800 1 3c2 Rx d 8 00 55 55 55 00 00 59 45 
22.186100 1 23e Rx d 8 f4 01 3a c0 fa fc 2f 54 
22.197400 1 2b4 Rx d 6 14 05 a7 0d cb 00 
22.203700 1 545 Rx d 8 01 00 00 00 00 10 70 cb 
22.206600 1 3a1 Rx d 8 2b fa 40 83 3e 00 50 36 
22.207700 1 788 Rx d 8 01 00 00 00 ff a1 a8 12 
22.215500 1 2c2 Rx d 8 20 40 40 6f 01 00 00 cb 
22.225400 1 3c2 Rx d 8 29 55 00 00 00 00 00 80 
22.226800 1 23e Rx d 8 f4 01 3a c0 fa fc 3f 64 
22.236200 1 545 Rx d 8 02 00 06 00 00 00 80 d2 
22.253900 1 7a8 Rx d 8 01 00 00 00 ff a1 98 12 
22.255500 1 3a1 Rx d 8 e8 42 0d 8a 01 08 62 ec 
22.257600 1 3a3 Rx d 8 00 e0 00 00 38 03 fc 01 
22.264800 1 272 Rx d 8 09 80 63 00 00 00 00 00 
22.265100 1 382 Rx d 5 42 18 27 00 00 
22.266800 1 23e Rx d 8 f4 01 3a c0 fa fc 4f 74 
22.269200 1 545 Rx d 8 40 01 27 60 95 49 99 89 
22.273800 1 3c2 Rx d 8 00 55 55 55 00 00 59 45 
22.296200 1 2b4 Rx d 6 14 05 a6 0d d1 00 
22.302800 1 545 Rx d 8 01 00 00 00 00 10 a0 fb 
22.305800 1 3a1 Rx d 8 2b fa 40 77 3e 00 70 4a 
22.306600 1 23e Rx d 8 f4 01 3a c0 fa fc 5f 84 
22.309200 1 788 Rx d 8 02 40 d1 07 00 00 00 00 
22.314700 1 2c2 Rx d 8 55 a3 a8 46 01 00 1a a5 
22.323900 1 3c2 Rx d 8 29 55 00 00 00 00 00 80 
22.335300 1 545 Rx d 8 02 00 05 00 00 00 b0 01 
22.346300 1 23e Rx d 8 f4 01 3a c0 fa fc 6f 94 
22.353600 1 7a8 Rx d 8 02 40 d0 07 00 07 00 00 
22.355200 1 3a1 Rx d 8 e8 42 0d 8a 01 08 82 0c 
22.356100 1 3a3 Rx d 8 00 e0 00 00 38 03 fc 01 
22.365100 1 272 Rx d 8 06 00 ef 78 07 b0 07 08 
22.372600 1 545 Rx d 8 f0 00 27 50 95 48 c9 57 
22.373600 1 3c2 Rx d 8 00 55 55 55 00 00 59 45 
22.386100 1 23e Rx d 8 f4 01 3a c0 fa fc 7f a4 
22.397400 1 2b4 Rx d 6 12 05 a6 0d cf 00 
22.401300 1 545 Rx d 8 01 00 00 00 00 10 d0 2b 
22.402400 1 373 Rx d 8 0b a2 ab 00 00 de 06 1f 
22.406600 1 3a1 Rx d 8 2b fa 40 6b 3e 00 90 5e 
22.409200 1 788 Rx d 8 a8 bc 71 63 00 00 80 00 
22.415500 1 2c2 Rx d 8 20 40 40 6f 01 00 00 cb 
22.425400 1 3c2 Rx d 8 29 55 00 00 00 00 00 80 
22.426800 1 23e Rx d 8 f4 01 3a c0 fa fc 8f b4 
22.434300 1 545 Rx d 8 02 00 05 00 00 00 e0 31 
22.453400 1 7a8 Rx d 8 a8 b4 71 63 00 00 82 00 
22.455500 1 3a1 Rx d 8 e8 42 0d 8a 01 08 a2 2c 
22.456600 1 3a3 Rx d 8 00 e0 00 00 38 03 fc 01 
22.465100 1 272 Rx d 8 09 80 63 00 00 00 00 00 
22.466600 1 23e Rx d 8 f4 01 3a c0 fa fc 9f c4 
22.469200 1 545 Rx d 8 f0 00 27 50 95 48 f9 87 
22.473800 1 3c2 Rx d 8 00 55 55 55 00 00 59 45 
22.496200 1 2b4 Rx d 6 13 05 a7 0d cc 00 
22.501400 1 545 Rx d 8 01 00 00 00 00 10 00 5b 
22.505800 1 3a1 Rx d 8 2b fa 40 75 3e 00 b0 88 
22.506600 1 23e Rx d 8 f4 01 3a c0 fa fc af d4 
22.507700 1 788 Rx d 8 01 00 00 00 ff a1 a8 12 
22.514800 1 2c2 Rx d 8 55 a3 a8 46 01 00 1a a5 
22.524100 1 3c2 Rx d 8 29 55 00 00 00 00 00 80 
22.533700 1 545 Rx d 8 02 00 04 00 00 00 10 60 
22.546300 1 23e Rx d 8 f4 01 3a c0 fa fc bf e4 
22.553300 1 7a8 Rx d 8 01 00 00 00 ff a1 98 12 
22.555800 1 3a1 Rx d 8 e8 42 0d 8a 01 08 c2 4c 
22.556600 1 3a3 Rx d 8 00 e0 00 00 38 03 fc 01 
22.565100 1 272 Rx d 8 06 00 ef 78 07 b0 07 08 
22.566800 1 545 Rx d 8 40 01 27 30 95 4a 29 ea 
22.573800 1 3c2 Rx d 8 00 55 55 55 00 00 59 45 
22.586100 1 23e Rx d 8 f4 01 3a c0 fa fc cf f4 
22.597400 1 2b4 Rx d 6 13 05 a7 0d d1 00 
22.599200 1 545 Rx d 8 01 00 00 00 00 10 30 8b 
22.605200 1 3a1 Rx d 8 2b fa 40 79 3e 00 d0 ac 
22.609200 1 788 Rx d 8 02 40 ce 07 00 00 00 00 
22.615500 1 2c2 Rx d 8 20 40 40 6f 01 00 00 cb 
22.624200 1 3c2 Rx d 8 29 55 00 00 00 00 00 80 
22.626800 1 23e Rx d 8 f4 01 3a c0 fa fc df 04 
22.632500 1 545 Rx d 8 02 00 04 00 00 00 40 90 
22.654000 1 7a8 Rx d 8 02 40 d3 07 00 07 00 00 
22.655500 1 3a1 Rx d 8 e8 42 0d 8a 01 08 e2 6c 
22.656600 1 3a3 Rx d 8 00 e0 00 00 38 03 fc 01 
22.664900 1 272 Rx d 8 09 80 63 00 00 00 00 00 
22.665400 1 545 Rx d 8 40 01 27 90 95 48 59 78 
22.666800 1 23e Rx d 8 f4 01 3a c0 fa fc ef 14 
22.673900 1 3c2 Rx d 8 00 55 55 55 00 00 59 45 
22.696300 1 2b4 Rx d 6 12 05 a6 0d cd 00 
22.698900 1 545 Rx d 8 01 00 00 00 00 10 60 bb 
22.705800 1 3a1 Rx d 8 2b fa 40 7d 3e 00 f0 d0 
22.706600 1 23e Rx d 8 f4 01 3a c0 fa fc ff 24 
22.709200 1 788 Rx d 8 a8 bc 71 63 00 00 80 00 
22.714800 1 2c2 Rx d 8 55 a3 a8 46 01 00 1a a5 
22.724200 1 3c2 Rx d 8 29 55 00 00 00 00 00 80 
22.732500 1 545 Rx d 8 02 00 03 00 00 00 70 bf 
22.746300 1 23e Rx d 8 f4 01 3a c0 fa fc 0f 34 
22.754000 1 7a8 Rx d 8 a8 b4 71 63 00 00 82 00 
22.755900 1 3a1 Rx d 8 e8 42 0d 8a 01 08 02 8c 
22.756600 1 3a3 Rx d 8 00 e0 00 00 38 03 fc 01 
22.764400 1 545 Rx d 8 f0 00 22 10 95 45 89 cf 
22.765100 1 272 Rx d 8 06 00 ef 78 07 b0 07 08 
22.772800 1 23a Rx d 8 25 ff ff ff ff 00 00 00 
22.773700 1 3c2 Rx d 8 00 55 55 55 00 00 59 45 
22.786200 1 23e Rx d 8 f4 01 3a c0 fa fc 1f 44 
22.796700 1 2b4 Rx d 6 14 05 a6 0d ce 00 
22.797400 1 545 Rx d 8 01 00 00 00 00 10 90 eb 
22.806600 1 3a1 Rx d 8 2b fa 40 81 3e 00 10 f4 
22.809200 1 788 Rx d 8 01 00 00 00 ff a1 a8 12 
22.815500 1 2c2 Rx d 8 20 40 40 6f 01 00 00 cb 
22.825400 1 3c2 Rx d 8 29 55 00 00 00 00 00 80 
22.826800 1 23e Rx d 8 f4 01 3a c0 fa fc 2f 54 
22.831500 1 545 Rx d 8 02 00 03 00 00 00 a0 ef 
22.854000 1 7a8 Rx d 8 01 00 00 00 ff a1 98 12 
22.855100 1 3a1 Rx d 8 e8 42 0d 8a 01 08 22 ac 
22.856700 1 3a3 Rx d 8 00 e0 00 00 38 03 fc 01 
22.864100 1 545 Rx d 8 40 01 2c 50 95 48 b9 9d 
22.865100 1 272 Rx d 8 09 80 63 00 00 00 00 00 
22.866800 1 23e Rx d 8 f4 01 3a c0 fa fc 3f 64 
22.873900 1 3c2 Rx d 8 00 55 55 55 00 00 59 45 
22.896400 1 2b4 Rx d 6 13 05 a6 0d cf 00 
22.897400 1 545 Rx d 8 01 00 00 00 00 10 c0 1b 
22.905800 1 3a1 Rx d 8 2b fa 40 87 3e 00 30 1a 
22.906600 1 23e Rx d 8 f4 01 3a c0 fa fc 4f 74 
22.909200 1 788 Rx d 8 02 40 d0 07 00 00 00 00 
22.914300 1 2c2 Rx d 8 55 a3 a8 46 01 00 1a a5 
22.924100 1 3c2 Rx d 8 29 55 00 00 00 00 00 80 
22.929200 1 545 Rx d 8 02 00 03 00 00 00 d0 1f 
22.946400 1 23e Rx d 8 f4 01 3a c0 fa fc 5f 84 
22.953300 1 7a8 Rx d 8 02 40 d5 07 00 07 00 00 
22.955900 1 3a1 Rx d 8 e8 42 0d 8a 01 08 42 cc 
22.956600 1 3a3 Rx d 8 00 e0 00 00 38 03 fc 01 
22.962700 1 545 Rx d 8 40 01 27 60 95 49 e9 d9 
22.965100 1 272 Rx d 8 06 00 ef 78 07 b0 07 08 
22.973900 1 3c2 Rx d 8 00 55 55 55 00 00 59 45 
22.986200 1 23e Rx d 8 f4 01 3a c0 fa fc 6f 94 
22.996300 1 2b4 Rx d 6 12 05 a6 0d d1 00 
22.997400 1 545 Rx d 8 01 00 00 00 00 10 f0 4b 
36.506200 1 3a1 Rx d 8 2b fa 40 6d 3e 00 30 00 
36.507500 1 23e Rx d 8 f4 01 3a c0 fa fc 8f b4 
36.509600 1 788 Rx d 8 a8 bc 71 63 00 00 80 00 
36.514800 1 2c2 Rx d 8 55 a3 a8 46 01 00 1a a5 
36.525100 1 3c2 Rx d 8 29 55 00 00 00 00 00 80 
36.526400 1 545 Rx d 8 40 01 27 10 95 45 99 35 
36.546900 1 23e Rx d 8 f4 01 3a c0 fa fc 9f c4 
36.555000 1 7a8 Rx d 8 a8 b4 71 63 00 00 82 00 
36.556800 1 3a1 Rx d 8 e8 42 0d 8a 01 08 42 cc 
36.558200 1 3a3 Rx d 8 00 e0 00 00 38 03 fc 01 
36.559600 1 545 Rx d 8 01 00 00 00 00 10 a0 fb 
36.566200 1 272 Rx d 8 06 00 ef 78 07 b0 07 08 
36.574100 1 3c2 Rx d 8 00 55 55 55 00 00 59 45 
36.586600 1 23e Rx d 8 f4 01 3a c0 fa fc af d4 
36.592800 1 545 Rx d 8 02 00 02 00 00 00 b0 fe 
36.595200 1 2b4 Rx d 6 12 05 a6 0d ca 00 
36.606000 1 3a1 Rx d 8 2b fa 40 77 3e 00 50 2a 
36.609600 1 788 Rx d 8 01 00 00 00 ff a1 a8 12 
36.614800 1 2c2 Rx d 8 20 40 40 6f 01 00 00 cb 
36.624800 1 3c2 Rx d 8 29 55 00 00 00 00 00 80 
36.626400 1 545 Rx d 8 40 01 27 10 95 49 c9 69 
36.626800 1 23e Rx d 8 f4 01 3a c0 fa fc bf e4 
36.654400 1 7a8 Rx d 8 01 00 00 00 ff a1 98 12 
36.655900 1 3a1 Rx d 8 e8 42 0d 8a 01 0c 62 f0 
36.657600 1 3a3 Rx d 8 00 e0 00 00 38 03 fc 01 
36.658300 1 545 Rx d 8 01 00 00 00 00 10 d0 2b 
36.666200 1 272 Rx d 8 09 80 63 00 00 00 00 00 
36.666800 1 23e Rx d 8 f4 01 3a c0 fa fc cf f4 
36.674100 1 3c2 Rx d 8 00 55 55 55 00 00 59 45 
36.691500 1 545 Rx d 8 02 00 02 00 00 00 e0 2e 
36.695200 1 2b4 Rx d 6 14 05 a6 0d cf 00 
36.706200 1 3a1 Rx d 8 2b fa 40 7d 3e 00 70 50 
36.707600 1 23e Rx d 8 f4 01 3a c0 fa fc df 04 
36.709600 1 788 Rx d 8 02 40 d2 07 00 00 00 00 
36.714800 1 2c2 Rx d 8 55 a3 a8 46 01 00 1a a5 
36.725200 1 3c2 Rx d 8 29 55 00 00 00 00 00 80 
36.725600 1 545 Rx d 8 40 01 27 50 95 48 f9 d8 
36.747300 1 23e Rx d 8 f4 01 3a c0 fa fc ef 14 
36.755300 1 7a8 Rx d 8 02 40 d2 07 00 07 00 00 
36.756600 1 3a1 Rx d 8 e8 42 0d 8a 01 08 82 0c 
36.756900 1 545 Rx d 8 01 00 00 00 00 10 00 5b 
36.758200 1 3a3 Rx d 8 00 e0 00 00 38 03 fc 01 
36.766200 1 272 Rx d 8 06 00 ef 78 07 b0 07 08 
36.773800 1 23a Rx d 8 0d 32 68 ef 3e 1c 34 d7 
36.774500 1 3c2 Rx d 8 00 55 55 55 00 00 59 45 
36.786600 1 23e Rx d 8 f4 01 3a c0 fa fc ff 24 
36.791900 1 545 Rx d 8 02 00 02 00 00 00 10 5e 
36.795400 1 2b4 Rx d 6 12 05 a6 0d d2 00 
36.807600 1 3a1 Rx d 8 2b fa 40 75 3e 00 90 68 
36.809600 1 788 Rx d 8 a8 bc 71 63 00 00 80 00 
36.814900 1 2c2 Rx d 8 20 40 40 6f 01 00 00 cb 
36.823600 1 545 Rx d 8 40 01 27 00 95 44 29 b4 
36.826300 1 3c2 Rx d 8 29 55 00 00 00 00 00 80 
36.826600 1 23e Rx d 8 f4 01 3a c0 fa fc 0f 34 
36.855200 1 7a8 Rx d 8 a8 b4 71 63 00 00 82 00 
36.856100 1 3a1 Rx d 8 e8 42 0d 8a 01 08 a2 2c 
36.856600 1 545 Rx d 8 01 00 00 00 00 10 30 8b 
36.857300 1 3a3 Rx d 8 00 e0 00 00 38 03 fc 01 
36.866200 1 272 Rx d 8 09 80 63 00 00 00 00 00 
36.867500 1 23e Rx d 8 f4 01 3a c0 fa fc 1f 44 
36.874100 1 3c2 Rx d 8 00 55 55 55 00 00 59 45 
36.889600 1 545 Rx d 8 02 00 02 00 00 00 40 8e 
36.895600 1 2b4 Rx d 6 11 05 a6 0d cd 00 
36.906200 1 3a1 Rx d 8 2b fa 40 6d 3e 00 b0 80 
36.907200 1 23e Rx d 8 f4 01 3a c0 fa fc 2f 54 
36.909600 1 788 Rx d 8 01 00 00 00 ff a1 a8 12 
36.914900 1 2c2 Rx d 8 55 a3 a8 46 01 00 1a a5 
36.921800 1 545 Rx d 8 f0 00 22 10 95 45 59 9f 
36.925100 1 3c2 Rx d 8 29 55 00 00 00 00 00 80 
36.947100 1 23e Rx d 8 f4 01 3a c0 fa fc 3f 64 
36.954500 1 7a8 Rx d 8 01 00 00 00 ff a1 98 12 
36.955100 1 545 Rx d 8 01 00 00 00 00 10 60 bb 
36.956200 1 3a1 Rx d 8 e8 42 0d 8a 01 08 c2 4c 
36.958200 1 3a3 Rx d 8 00 e0 00 00 38 03 fc 01 
36.966200 1 272 Rx d 8 06 00 ef 78 07 b0 07 08 
36.974100 1 3c2 Rx d 8 00 55 55 55 00 00 59 45 
36.986600 1 23e Rx d 8 f4 01 3a c0 fa fc 4f 74 
36.989600 1 545 Rx d 8 02 00 02 00 00 00 70 be 
36.995400 1 2b4 Rx d 6 13 05 a6 0d cb 00 
37.007600 1 3a1 Rx d 8 2b fa 40 81 3e 00 d0 b4 
37.009600 1 788 Rx d 8 02 40 d2 07 00 00 00 00 
37.014900 1 2c2 Rx d 8 20 40 40 6f 01 00 00 cb 
37.022600 1 545 Rx d 8 40 01 27 10 95 49 89 29 
37.026300 1 3c2 Rx d 8 29 55 00 00 00 00 00 80 
37.026600 1 23e Rx d 8 f4 01 3a c0 fa fc 5f 84 
37.054000 1 545 Rx d 8 01 00 00 00 00 10 90 eb 
37.055100 1 7a8 Rx d 8 02 40 ce 07 00 07 00 00 
37.055900 1 3a1 Rx d 8 e8 42 0d 8a 01 08 e2 6c 
37.057400 1 3a3 Rx d 8 00 e0 00 00 38 03 fc 01 
37.066200 1 272 Rx d 8 09 80 63 00 00 00 00 00 
37.066500 1 23e Rx d 8 f4 01 3a c0 fa fc 6f 94 
37.074200 1 3c2 Rx d 8 00 55 55 55 00 00 59 45 
37.086900 1 545 Rx d 8 02 00 02 00 00 00 a0 ee 
37.095400 1 2b4 Rx d 6 14 05 a7 0d d1 00 
37.106000 1 3a1 Rx d 8 2b fa 40 81 3e 00 f0 d4 
37.107200 1 23e Rx d 8 f4 01 3a c0 fa fc 7f a4 
37.109600 1 788 Rx d 8 a8 bc 71 63 00 00 80 00 
37.114900 1 2c2 Rx d 8 55 a3 a8 46 01 00 1a a5 
37.120500 1 545 Rx d 8 40 01 2c 10 95 49 b9 5e 
37.124800 1 3c2 Rx d 8 29 55 00 00 00 00 00 80 
37.147300 1 23e Rx d 8 f4 01 3a c0 fa fc 8f b4 
37.154000 1 545 Rx d 8 01 00 00 00 00 10 c0 1b 
37.155100 1 7a8 Rx d 8 a8 b4 71 63 00 00 82 00 
37.156800 1 3a1 Rx d 8 e8 42 0d 8a 01 08 02 8c 
37.157200 1 3a3 Rx d 8 00 e0 00 00 38 03 fc 01 
37.166200 1 272 Rx d 8 06 00 ef 78 07 b0 07 08 
37.174100 1 3c2 Rx d 8 00 55 55 55 00 00 59 45 
37.186200 1 545 Rx d 8 02 00 02 00 00 00 d0 1e 
37.186700 1 23e Rx d 8 f4 01 3a c0 fa fc 9f c4 
37.195300 1 2b4 Rx d 6 13 05 a7 0d cf 00 
37.205900 1 3a1 Rx d 8 2b fa 40 75 3e 00 10 e8 
37.209600 1 788 Rx d 8 01 00 00 00 ff a1 a8 12 
37.214900 1 2c2 Rx d 8 20 40 40 6f 01 00 00 cb 
37.218900 1 545 Rx d 8 40 01 27 00 95 48 e9 78 
37.226400 1 3c2 Rx d 8 29 55 00 00 00 00 00 80 
37.226700 1 23e Rx d 8 f4 01 3a c0 fa fc af d4 
37.252900 1 545 Rx d 8 01 00 00 00 00 10 f0 4b 
37.254500 1 7a8 Rx d 8 01 00 00 00 ff a1 98 12 
37.255900 1 3a1 Rx d 8 e8 42 0d 8a 01 08 22 ac 
37.258300 1 3a3 Rx d 8 00 e0 00 00 38 03 fc 01 
37.265800 1 272 Rx d 8 09 80 63 00 00 00 00 00 
37.266200 1 382 Rx d 5 42 18 27 00 00 
37.266500 1 23e Rx d 8 f4 01 3a c0 fa fc bf e4 
37.274200 1 3c2 Rx d 8 00 55 55 55 01 00 59 45 
37.275600 1 3c2 Rx d 8 00 55 55 55 01 00 59 45 
37.275800 1 2c2 Rx d 8 22 50 40 6f 01 00 00 cb 
37.285200 1 545 Rx d 8 02 00 02 00 00 00 00 4e 
37.286600 1 2c2 Rx d 8 55 03 a8 46 81 00 1a a5 
37.295100 1 2b4 Rx d 6 15 05 a6 0d 11 01 
37.306200 1 3a1 Rx d 8 2b fa 40 13 3e 00 30 a6 
37.307600 1 23e Rx d 8 f4 01 3a c0 fa fc cf f4 
37.309600 1 788 Rx d 8 02 40 ce 07 00 00 00 00 
37.314900 1 2c2 Rx d 8 22 52 ca 6e 01 00 00 cb 
37.317900 1 545 Rx d 8 d0 05 27 00 95 44 19 38 
37.325100 1 3c2 Rx d 8 29 55 00 00 00 00 00 80 
37.346400 1 3c2 Rx d 8 00 55 55 55 02 00 59 45 
37.347400 1 23e Rx d 8 f4 01 3a c0 fa fc df 04 
37.351800 1 545 Rx d 8 01 00 00 00 00 10 20 7b 
37.354500 1 7a8 Rx d 8 02 40 d1 07 00 07 00 00 
37.355600 1 2c2 Rx d 8 2c 53 c9 6d 01 00 00 cb 
37.356100 1 3a1 Rx d 8 e8 42 0d 8a 01 08 42 cc 
37.357300 1 3a3 Rx d 8 00 e0 00 00 38 03 fc 01 
37.366200 1 272 Rx d 8 06 00 ee 70 07 b0 07 08 
37.374100 1 3c2 Rx d 8 00 55 55 55 02 00 59 45 
37.384700 1 545 Rx d 8 02 00 02 00 00 00 30 7e 
37.386700 1 23e Rx d 8 f4 01 3a c0 fa fc ef 14 
37.395100 1 2b4 Rx d 6 12 05 a6 0d 23 01 
37.396300 1 373 Rx d 8 08 a2 ab 00 00 de 06 1f 
37.407600 1 3a1 Rx d 8 2b fa 40 d1 3d 00 50 83 
37.409600 1 788 Rx d 8 a0 bc 71 63 00 00 80 00 
37.414900 1 2c2 Rx d 8 55 03 a8 46 81 00 1a a5 
37.416900 1 545 Rx d 8 30 0c 27 d0 94 45 49 9f 
37.426200 1 3c2 Rx d 8 29 55 00 00 00 00 00 80 
37.426500 1 23e Rx d 8 f4 01 3a c0 fa fc ff 24 
37.450300 1 545 Rx d 8 01 00 00 00 00 10 50 ab 
37.455100 1 7a8 Rx d 8 a4 b4 71 63 00 00 82 00 
37.456100 1 3a1 Rx d 8 e8 42 0d 8a 01 08 62 ec 
37.457300 1 3a3 Rx d 8 00 e0 00 00 38 03 fc 01 
37.466200 1 272 Rx d 8 09 80 63 00 00 00 00 00 
37.466500 1 23e Rx d 8 f4 01 3a c0 fa fc 0f 34 
37.474200 1 3c2 Rx d 8 00 55 55 55 02 00 59 45 
37.483700 1 545 Rx d 8 02 00 02 00 00 00 60 ae 
37.495300 1 2b4 Rx d 6 14 05 a6 0d 2a 01 
37.495600 1 3c2 Rx d 8 00 55 55 55 01 00 59 45 
37.506200 1 3a1 Rx d 8 2b fa 40 bd 3d 00 70 8f 
37.507600 1 23e Rx d 8 f4 01 3a c0 fa fc 1f 44 
37.509600 1 788 Rx d 8 01 00 00 00 ff a1 78 12 
37.514900 1 2c2 Rx d 8 2c 54 d3 6a 01 00 00 cb 
37.516400 1 545 Rx d 8 d0 0c 2c d0 94 45 79 74 
37.525100 1 3c2 Rx d 8 29 55 00 00 00 00 00 80 
37.547400 1 23e Rx d 8 f4 01 3a c0 fa fc 2f 54 
37.549700 1 545 Rx d 8 01 00 00 00 00 10 80 db 
37.554500 1 7a8 Rx d 8 01 00 00 00 ff a1 98 12 
37.556900 1 3a1 Rx d 8 e8 42 0d 8a 01 08 82 0c 
37.557200 1 3a3 Rx d 8 00 e0 00 00 38 03 fc 01 
37.566300 1 272 Rx d 8 06 00 ee 70 07 b0 07 08 
37.574100 1 3c2 Rx d 8 00 55 55 55 01 00 59 45 
37.581900 1 545 Rx d 8 02 00 02 00 00 00 90 de 
37.586700 1 23e Rx d 8 f4 01 3a c0 fa fc 3f 64 
37.595600 1 2b4 Rx d 6 17 05 a6 0d 2a 01 
37.606000 1 3a1 Rx d 8 2b fa 40 cf 3d 00 90 c1 
37.609600 1 788 Rx d 8 02 40 d0 07 00 00 00 00 
37.614900 1 545 Rx d 8 d0 0c 27 c0 94 3f a9 89 
37.615300 1 2c2 Rx d 8 55 03 a8 46 81 00 1a a5 
37.624900 1 3c2 Rx d 8 29 55 00 00 00 00 00 80 
37.626500 1 23e Rx d 8 f4 01 3a c0 fa fc 4f 74 
37.649700 1 545 Rx d 8 01 00 00 00 00 10 b0 0b 
37.654900 1 7a8 Rx d 8 02 40 d1 07 00 07 00 00 
37.655900 1 3a1 Rx d 8 e8 42 0d 8a 01 08 a2 2c 
37.657300 1 3a3 Rx d 8 00 e0 00 00 38 03 fc 01 
37.665700 1 3c2 Rx d 8 00 55 55 55 00 00 59 45 
37.666300 1 272 Rx d 8 09 80 63 00 00 00 00 00 
37.666900 1 23e Rx d 8 f4 01 3a c0 fa fc 5f 84 
37.674200 1 3c2 Rx d 8 00 55 55 55 00 00 59 45 
37.682700 1 545 Rx d 8 02 00 03 00 00 00 c0 0f 
37.695300 1 2b4 Rx d 6 13 05 a6 0d 2b 01 
37.706200 1 3a1 Rx d 8 2b fa 40 bb 3d 00 b0 cd 
37.707700 1 23e Rx d 8 f4 01 3a c0 fa fc 6f 94 
37.709600 1 788 Rx d 8 9c bc 71 63 00 00 80 00 
37.714700 1 545 Rx d 8 d0 0c 27 80 94 3f d9 79 
37.714900 1 2c2 Rx d 8 2c 54 93 67 01 00 00 cb 
37.724900 1 3c2 Rx d 8 29 55 00 00 00 00 00 80 
37.746700 1 23e Rx d 8 f4 01 3a c0 fa fc 7f a4 
37.746900 1 545 Rx d 8 01 00 00 00 00 10 e0 3b 
37.754500 1 7a8 Rx d 8 a4 b4 71 63 00 00 82 00 
37.756900 1 3a1 Rx d 8 e8 42 0d 8a 01 08 c2 4c 
37.757300 1 3a3 Rx d 8 00 e0 00 00 38 03 fc 01 
37.766300 1 272 Rx d 8 06 00 ee 70 07 b0 07 08 
37.773800 1 23a Rx d 8 0e 32 68 ef 3e 1c 34 d7 
37.774500 1 3c2 Rx d 8 00 55 55 55 00 00 59 45 
37.783700 1 545 Rx d 8 02 00 04 00 00 00 f0 40 
37.786700 1 23e Rx d 8 f4 01 3a c0 fa fc 8f b4 
37.795300 1 2b4 Rx d 6 13 05 a6 0d 2e 01 
37.796200 1 3c2 Rx d 8 00 55 55 55 02 00 59 45 
37.796700 1 2c2 Rx d 8 20 40 13 66 01 00 00 cb 
37.805500 1 2c2 Rx d 8 53 63 a8 46 81 00 1a a5 
37.807600 1 3a1 Rx d 8 2b fa 40 33 3e 00 d0 66 
37.809600 1 788 Rx d 8 01 00 00 00 ff a1 88 12 
37.813500 1 545 Rx d 8 40 01 27 10 95 49 09 a9 
37.814900 1 2c2 Rx d 8 20 40 01 66 01 00 00 cb 
37.826400 1 3c2 Rx d 8 29 55 00 00 00 00 00 80 
37.826700 1 23e Rx d 8 f4 01 3a c0 fa fc 9f c4 
37.846200 1 545 Rx d 8 01 00 00 00 00 10 10 6b 
37.854500 1 7a8 Rx d 8 01 00 00 00 ff a1 98 12 
37.856000 1 3a1 Rx d 8 e8 42 0d 8a 01 08 e2 6c 
37.857300 1 3a3 Rx d 8 00 e0 00 00 38 03 fc 01 
37.866200 1 272 Rx d 8 09 80 63 00 00 00 00 00 
37.866500 1 23e Rx d 8 f4 01 3a c0 fa fc af d4 
37.874200 1 3c2 Rx d 8 00 55 55 55 02 00 59 45 
37.879600 1 545 Rx d 8 02 00 06 00 00 00 20 72 
37.895500 1 2b4 Rx d 6 14 05 a6 0d d2 00 
37.906200 1 3a1 Rx d 8 2b fa 40 79 3e 00 f0 cc 
37.907300 1 23e Rx d 8 f4 01 3a c0 fa fc bf e4 
37.909600 1 788 Rx d 8 02 40 d3 07 00 00 00 00 
37.912500 1 545 Rx d 8 40 01 27 30 95 46 39 f6 
37.914900 1 2c2 Rx d 8 55 63 a8 46 81 00 1a a5 
37.925400 1 3c2 Rx d 8 29 55 00 00 00 00 00 80 
37.944900 1 545 Rx d 8 01 00 00 00 00 10 40 9b 
37.947400 1 23e Rx d 8 f4 01 3a c0 fa fc cf f4 
37.955100 1 7a8 Rx d 8 02 40 d5 07 00 07 00 00 
37.956900 1 3a1 Rx d 8 e8 42 0d 8a 01 08 02 8c 
37.957300 1 3a3 Rx d 8 00 e0 00 00 38 03 fc 01 
37.966300 1 272 Rx d 8 06 00 ef 78 07 b0 07 08 
37.974200 1 3c2 Rx d 8 00 55 55 55 02 00 59 45 
37.978200 1 545 Rx d 8 02 00 07 00 00 00 50 a3 
37.986700 1 23e Rx d 8 f4 01 3a c0 fa fc df 04 
37.995300 1 2b4 Rx d 6 12 05 a7 0d d2 00 
41.506400 1 3a1 Rx d 8 2b fa 40 75 3e 00 70 48 
41.507700 1 23e Rx d 8 f4 01 3a c0 fa fc 5f 84 
41.509200 1 545 Rx d 8 01 00 00 00 00 10 00 5b 
41.509700 1 788 Rx d 8 02 40 cf 07 00 00 00 00 
41.515200 1 2c2 Rx d 8 55 63 a8 46 01 00 1a a5 
41.525600 1 3c2 Rx d 8 29 55 00 00 00 00 00 80 
41.542200 1 545 Rx d 8 02 00 04 00 00 00 10 60 
41.547500 1 23e Rx d 8 f4 01 3a c0 fa fc 6f 94 
41.555400 1 7a8 Rx d 8 02 40 d2 07 00 07 00 00 
41.557100 1 3a1 Rx d 8 e8 42 0d 8a 01 08 82 0c 
41.558900 1 3a3 Rx d 8 00 e0 00 00 38 03 fc 01 
41.566600 1 272 Rx d 8 06 00 ef 78 07 b0 07 08 
41.574400 1 3c2 Rx d 8 00 55 55 55 00 00 59 45 
41.575100 1 545 Rx d 8 f0 00 27 10 95 49 29 78 
41.586900 1 23e Rx d 8 f4 01 3a c0 fa fc 7f a4 
41.595100 1 2b4 Rx d 6 14 05 a7 0d d4 00 
41.606400 1 3a1 Rx d 8 2b fa 40 6d 3e 00 90 60 
41.608100 1 545 Rx d 8 01 00 00 00 00 10 30 8b 
41.609700 1 788 Rx d 8 a8 bc 71 63 00 00 80 00 
41.615200 1 2c2 Rx d 8 20 40 00 66 01 00 00 cb 
41.625300 1 3c2 Rx d 8 29 55 00 00 00 00 00 80 
41.626800 1 23e Rx d 8 f4 01 3a c0 fa fc 8f b4 
41.642300 1 545 Rx d 8 02 00 04 00 00 00 40 90 
41.655600 1 7a8 Rx d 8 a8 b4 71 63 00 00 82 00 
41.656100 1 3a1 Rx d 8 e8 42 0d 8a 01 08 a2 2c 
41.658100 1 3a3 Rx d 8 00 e0 00 00 38 03 fc 01 
41.666400 1 272 Rx d 8 09 80 63 00 00 00 00 00 
41.666600 1 23e Rx d 8 f4 01 3a c0 fa fc 9f c4 
41.674800 1 3c2 Rx d 8 00 55 55 55 00 00 59 45 
41.675300 1 545 Rx d 8 f0 00 22 30 95 47 59 c1 
41.694900 1 2b4 Rx d 6 12 05 a6 0d d1 00 
41.706300 1 3a1 Rx d 8 2b fa 40 7d 3e 00 b0 90 
41.706900 1 23e Rx d 8 f4 01 3a c0 fa fc af d4 
41.707200 1 545 Rx d 8 01 00 00 00 00 10 60 bb 
41.709700 1 788 Rx d 8 01 00 00 00 ff a1 a8 12 
41.715200 1 2c2 Rx d 8 55 63 a8 46 01 00 1a a5 
41.725300 1 3c2 Rx d 8 29 55 00 00 00 00 00 80 
41.741800 1 545 Rx d 8 02 00 04 00 00 00 70 c0 
41.747500 1 23e Rx d 8 f4 01 3a c0 fa fc bf e4 
41.755400 1 7a8 Rx d 8 01 00 00 00 ff a1 98 12 
41.757200 1 3a1 Rx d 8 e8 42 0d 8a 01 08 c2 4c 
41.759000 1 3a3 Rx d 8 00 e0 00 00 38 03 fc 01 
41.766600 1 272 Rx d 8 06 00 ef 78 07 b0 07 08 
41.773900 1 545 Rx d 8 f0 00 27 10 95 49 89 d8 
41.774100 1 23a Rx d 8 12 00 00 00 00 00 00 00 
41.774800 1 3c2 Rx d 8 00 55 55 55 00 00 59 45 
41.787000 1 23e Rx d 8 f4 01 3a c0 fa fc cf f4 
41.795900 1 2b4 Rx d 6 14 05 a6 0d d1 00 
41.806300 1 3a1 Rx d 8 2b fa 40 81 3e 00 d0 b4 
41.807900 1 545 Rx d 8 01 00 00 00 00 10 90 eb 
41.809700 1 788 Rx d 8 02 40 d2 07 00 00 00 00 
41.815200 1 2c2 Rx d 8 20 40 00 66 01 00 00 cb 
41.826600 1 3c2 Rx d 8 29 55 00 00 00 00 00 80 
41.826800 1 23e Rx d 8 f4 01 3a c0 fa fc df 04 
41.839200 1 545 Rx d 8 02 00 03 00 00 00 a0 ef 
41.855500 1 7a8 Rx d 8 02 40 d4 07 00 07 00 00 
41.856200 1 3a1 Rx d 8 e8 42 0d 8a 01 08 e2 6c 
41.859000 1 3a3 Rx d 8 00 e0 00 00 38 03 fc 01 
41.866400 1 272 Rx d 8 09 80 63 00 00 00 00 00 
41.866600 1 23e Rx d 8 f4 01 3a c0 fa fc ef 14 
41.872800 1 545 Rx d 8 40 01 27 60 95 49 b9 a9 
41.874400 1 3c2 Rx d 8 00 55 55 55 00 00 59 45 
41.896000 1 2b4 Rx d 6 14 05 a6 0d d6 00 
41.905200 1 545 Rx d 8 01 00 00 00 00 10 c0 1b 
41.906600 1 3a1 Rx d 8 2b fa 40 6d 3e 00 f0 c0 
41.907900 1 23e Rx d 8 f4 01 3a c0 fa fc ff 24 
41.909700 1 788 Rx d 8 a8 bc 71 63 00 00 80 00 
41.915200 1 2c2 Rx d 8 55 63 a8 46 01 00 1a a5 
41.925300 1 3c2 Rx d 8 29 55 00 00 00 00 00 80 
41.938100 1 545 Rx d 8 02 00 03 00 00 00 d0 1f 
41.947500 1 23e Rx d 8 f4 01 3a c0 fa fc 0f 34 
41.955200 1 7a8 Rx d 8 a8 b4 71 63 00 00 82 00 
41.957200 1 3a1 Rx d 8 e8 42 0d 8a 01 08 02 8c 
41.959000 1 3a3 Rx d 8 00 e0 00 00 38 03 fc 01 
41.966600 1 272 Rx d 8 06 00 ef 78 07 b0 07 08 
41.973600 1 545 Rx d 8 f0 00 27 00 95 48 e9 27 
41.974400 1 3c2 Rx d 8 00 55 55 55 00 00 59 45 
41.987000 1 23e Rx d 8 f4 01 3a c0 fa fc 1f 44 
41.995900 1 2b4 Rx d 6 13 05 a6 0d ce 00 
42.004900 1 545 Rx d 8 01 00 00 00 00 10 f0 4b 
42.007900 1 3a1 Rx d 8 2b fa 40 75 3e 00 10 e8 
42.009700 1 788 Rx d 8 01 00 00 00 ff a1 a8 12 
42.015200 1 2c2 Rx d 8 20 40 00 66 01 00 00 cb 
42.026400 1 3c2 Rx d 8 29 55 00 00 00 00 00 80 
42.026800 1 23e Rx d 8 f4 01 3a c0 fa fc 2f 54 
42.037200 1 545 Rx d 8 02 00 03 00 00 00 00 4f 
42.054900 1 7a8 Rx d 8 01 00 00 00 ff a1 98 12 
42.056200 1 3a1 Rx d 8 e8 42 0d 8a 01 08 22 ac 
42.057700 1 3a3 Rx d 8 00 e0 00 00 38 03 fc 01 
42.066400 1 272 Rx d 8 09 80 63 00 00 00 00 00 
42.066700 1 23e Rx d 8 f4 01 3a c0 fa fc 3f 64 
42.070700 1 545 Rx d 8 40 01 27 00 95 44 19 a4 
42.074400 1 3c2 Rx d 8 00 55 55 55 00 00 59 45 
42.096000 1 2b4 Rx d 6 14 05 a6 0d d1 00 
42.103100 1 545 Rx d 8 01 00 00 00 00 10 20 7b 
42.106400 1 3a1 Rx d 8 2b fa 40 75 3e 00 30 08 
42.106900 1 23e Rx d 8 f4 01 3a c0 fa fc 4f 74 
42.109700 1 788 Rx d 8 02 40 d2 07 00 00 00 00 
42.115200 1 2c2 Rx d 8 55 63 a8 46 01 00 1a a5 
42.125100 1 3c2 Rx d 8 29 55 00 00 00 00 00 80 
42.136200 1 545 Rx d 8 02 00 03 00 00 00 30 7f 
42.147400 1 23e Rx d 8 f4 01 3a c0 fa fc 5f 84 
42.155700 1 7a8 Rx d 8 02 40 d2 07 00 07 00 00 
42.157200 1 3a1 Rx d 8 e8 42 0d 8a 01 08 42 cc 
42.159000 1 3a3 Rx d 8 00 e0 00 00 38 03 fc 01 
42.166600 1 272 Rx d 8 06 00 ef 78 07 b0 07 08 
42.169900 1 545 Rx d 8 f0 00 27 40 95 47 49 c6 
42.174400 1 3c2 Rx d 8 00 55 55 55 00 00 59 45 
42.187000 1 23e Rx d 8 f4 01 3a c0 fa fc 6f 94 
42.194900 1 2b4 Rx d 6 12 05 a7 0d d5 00 
42.202200 1 545 Rx d 8 01 00 00 00 00 10 50 ab 
42.206300 1 3a1 Rx d 8 2b fa 40 71 3e 00 50 24 
42.209700 1 788 Rx d 8 a8 bc 71 63 00 00 80 00 
42.215200 1 2c2 Rx d 8 20 40 00 66 01 00 00 cb 
42.226600 1 3c2 Rx d 8 29 55 00 00 00 00 00 80 
42.226800 1 23e Rx d 8 f4 01 3a c0 fa fc 7f a4 
42.235900 1 545 Rx d 8 02 00 03 00 00 00 60 af 
42.255400 1 7a8 Rx d 8 a8 b4 71 63 00 00 82 00 
42.256200 1 3a1 Rx d 8 e8 42 0d 8a 01 08 62 ec 
42.258500 1 3a3 Rx d 8 00 e0 00 00 38 03 fc 01 
42.266200 1 272 Rx d 8 09 80 63 00 00 00 00 00 
42.266400 1 382 Rx d 5 42 18 27 00 00 
42.266700 1 23e Rx d 8 f4 01 3a c0 fa fc 8f b4 
42.270300 1 545 Rx d 8 40 01 2c 00 95 48 79 0d 
42.274500 1 3c2 Rx d 8 00 55 55 55 00 00 59 45 
42.296000 1 2b4 Rx d 6 11 05 a6 0d cc 00 
42.302200 1 545 Rx d 8 01 00 00 00 00 10 80 db 
42.306400 1 3a1 Rx d 8 2b fa 40 6b 3e 00 70 3e 
42.307900 1 23e Rx d 8 f4 01 3a c0 fa fc 9f c4 
42.309700 1 788 Rx d 8 01 00 00 00 ff a1 a8 12 
42.315200 1 2c2 Rx d 8 55 63 a8 46 01 00 1a a5 
42.325400 1 3c2 Rx d 8 29 55 00 00 00 00 00 80 
42.334500 1 545 Rx d 8 02 00 03 00 00 00 90 df 
42.347500 1 23e Rx d 8 f4 01 3a c0 fa fc af d4 
42.355200 1 7a8 Rx d 8 01 00 00 00 ff a1 98 12 
42.356800 1 3a1 Rx d 8 e8 42 0d 8a 01 08 82 0c 
42.357500 1 3a3 Rx d 8 00 e0 00 00 38 03 fc 01 
42.366600 1 272 Rx d 8 06 00 ef 78 07 b0 07 08 
42.367200 1 545 Rx d 8 40 01 27 10 95 45 a9 45 
42.374500 1 3c2 Rx d 8 00 55 55 55 00 00 59 45 
42.387000 1 23e Rx d 8 f4 01 3a c0 fa fc bf e4 
42.393800 1 373 Rx d 8 09 a2 ab 00 00 de 06 1f 
42.395300 1 2b4 Rx d 6 12 05 a7 0d d0 00 
42.400200 1 545 Rx d 8 01 00 00 00 00 10 b0 0b 
42.407900 1 3a1 Rx d 8 2b fa 40 77 3e 00 90 6a 
42.409700 1 788 Rx d 8 02 40 d2 07 00 00 00 00 
42.415200 1 2c2 Rx d 8 20 40 00 66 01 00 00 cb 
42.426600 1 3c2 Rx d 8 29 55 00 00 00 00 00 80 
42.426800 1 23e Rx d 8 f4 01 3a c0 fa fc cf f4 
42.433200 1 545 Rx d 8 02 00 03 00 00 00 c0 0f 
42.454900 1 7a8 Rx d 8 02 40 ce 07 00 07 00 00 
42.456200 1 3a1 Rx d 8 e8 42 0d 8a 01 08 a2 2c 
42.458500 1 3a3 Rx d 8 00 e0 00 00 38 03 fc 01 
42.466200 1 545 Rx d 8 40 01 27 00 95 48 d9 68 
42.466400 1 272 Rx d 8 09 80 63 00 00 00 00 00 
42.466900 1 23e Rx d 8 f4 01 3a c0 fa fc df 04 
42.474500 1 3c2 Rx d 8 00 55 55 55 00 00 59 45 
42.495100 1 2b4 Rx d 6 16 05 a6 0d d2 00 
42.500700 1 545 Rx d 8 01 00 00 00 00 10 e0 3b 
42.506400 1 3a1 Rx d 8 2b fa 40 6b 3e 00 b0 7e 
42.507800 1 23e Rx d 8 f4 01 3a c0 fa fc ef 14 
42.509700 1 788 Rx d 8 a8 bc 71 63 00 00 80 00 
42.515200 1 2c2 Rx d 8 55 63 a8 46 01 00 1a a5 
42.525400 1 3c2 Rx d 8 29 55 00 00 00 00 00 80 
42.533100 1 545 Rx d 8 02 00 03 00 00 00 f0 3f 
42.547500 1 23e Rx d 8 f4 01 3a c0 fa fc ff 24 
42.554900 1 7a8 Rx d 8 a8 b4 71 63 00 00 82 00 
42.557200 1 3a1 Rx d 8 e8 42 0d 8a 01 08 c2 4c 
42.558500 1 3a3 Rx d 8 00 e0 00 00 38 03 fc 01 
42.566000 1 545 Rx d 8 40 01 27 10 95 45 09 a5 
42.566500 1 272 Rx d 8 06 00 ef 78 07 b0 07 08 
42.574500 1 3c2 Rx d 8 00 55 55 55 00 00 59 45 
42.587000 1 23e Rx d 8 f4 01 3a c0 fa fc 0f 34 
42.595800 1 2b4 Rx d 6 11 05 a7 0d ce 00 
42.598200 1 545 Rx d 8 01 00 00 00 00 10 10 6b 
42.606400 1 3a1 Rx d 8 2b fa 40 63 3e 00 d0 96 
42.609700 1 788 Rx d 8 01 00 00 00 ff a1 a8 12 
42.615200 1 2c2 Rx d 8 20 40 00 66 01 00 00 cb 
42.625400 1 3c2 Rx d 8 29 55 00 00 00 00 00 80 
42.626800 1 23e Rx d 8 f4 01 3a c0 fa fc 1f 44 
42.631100 1 545 Rx d 8 02 00 04 00 00 00 20 70 
42.655500 1 7a8 Rx d 8 01 00 00 00 ff a1 98 12 
42.656200 1 3a1 Rx d 8 e8 42 0d 8a 01 08 e2 6c 
42.658500 1 3a3 Rx d 8 00 e0 00 00 38 03 fc 01 
42.665400 1 545 Rx d 8 40 01 27 30 95 46 39 f6 
42.666400 1 272 Rx d 8 09 80 63 00 00 00 00 00 
42.666700 1 23e Rx d 8 aa ac 72 a3 01 02 28 d6 
42.674500 1 3c2 Rx d 8 00 55 55 55 00 00 59 45 
42.696000 1 2b4 Rx d 6 15 05 a7 0d cf 00 
42.697200 1 545 Rx d 8 01 00 00 00 00 10 40 9b 
42.706400 1 3a1 Rx d 8 2b fa 40 79 3e 00 f0 cc 
42.708000 1 23e Rx d 8 aa ac 72 a3 05 02 38 ea 
42.709700 1 788 Rx d 8 02 40 d1 07 00 00 00 00 
42.715200 1 2c2 Rx d 8 55 63 a8 46 01 00 1a a5 
42.725400 1 3c2 Rx d 8 29 55 00 00 00 00 00 80 
42.730200 1 545 Rx d 8 02 00 04 00 00 00 50 a0 
42.747400 1 23e Rx d 8 ab be 72 a4 01 02 48 0a 
42.755500 1 7a8 Rx d 8 02 40 d1 07 00 07 00 00 
42.757200 1 3a1 Rx d 8 e8 42 0d 8a 01 08 02 8c 
42.758500 1 3a3 Rx d 8 00 e0 00 00 38 03 fc 01 
42.765500 1 545 Rx d 8 40 01 27 10 95 49 69 09 
42.766700 1 272 Rx d 8 06 00 ef 78 07 b0 07 08 
42.774200 1 23a Rx d 8 13 00 00 00 00 00 00 00 
42.774900 1 3c2 Rx d 8 00 55 55 55 00 00 59 45 
42.787000 1 23e Rx d 8 ab c6 72 a4 01 02 58 22 
42.795000 1 2b4 Rx d 6 13 05 a6 0d d2 00 
42.797200 1 545 Rx d 8 01 00 00 00 00 10 70 cb 
42.808000 1 3a1 Rx d 8 2b fa 40 6d 3e 00 10 e0 
42.809700 1 788 Rx d 8 a8 bc 71 63 00 00 80 00 
42.815300 1 2c2 Rx d 8 20 40 00 66 01 00 00 cb 
42.826600 1 3c2 Rx d 8 29 55 00 00 00 00 00 80 
42.826800 1 23e Rx d 8 ab c6 72 a4 01 02 68 32 
42.829200 1 545 Rx d 8 02 00 05 00 00 00 80 d1 
42.855500 1 7a8 Rx d 8 a8 b4 71 63 00 00 82 00 
42.856800 1 3a1 Rx d 8 e8 42 0d 8a 01 08 22 ac 
42.857500 1 3a3 Rx d 8 00 e0 00 00 38 03 fc 01 
42.862200 1 545 Rx d 8 40 01 2c 10 95 49 99 3e 
42.866400 1 272 Rx d 8 09 80 63 00 00 00 00 00 
42.866700 1 23e Rx d 8 ab c6 72 b1 01 02 78 4f 
42.874700 1 3c2 Rx d 8 00 55 55 55 00 00 59 45 
42.895500 1 2b4 Rx d 6 12 05 a6 0d cd 00 
42.896000 1 545 Rx d 8 01 00 00 00 00 10 a0 fb 
42.906400 1 3a1 Rx d 8 2b fa 40 6d 3e 00 30 00 
42.908000 1 23e Rx d 8 ab c6 72 b1 01 02 88 5f 
42.909700 1 788 Rx d 8 01 00 00 00 ff a1 a8 12 
42.915300 1 2c2 Rx d 8 55 63 a8 46 01 00 1a a5 
42.925400 1 3c2 Rx d 8 29 55 00 00 00 00 00 80 
42.928300 1 545 Rx d 8 02 00 05 00 00 00 b0 01 
42.947500 1 23e Rx d 8 aa c6 72 b1 01 02 98 6e 
42.955000 1 7a8 Rx d 8 01 00 00 00 ff a1 98 12 
42.957200 1 3a1 Rx d 8 e8 42 0d 8a 01 08 42 cc 
42.959000 1 3a3 Rx d 8 00 e0 00 00 38 03 fc 01 
42.962300 1 545 Rx d 8 f0 00 22 10 95 45 c9 0f 
42.966700 1 272 Rx d 8 06 00 ef 78 07 b0 07 08 
42.974500 1 3c2 Rx d 8 00 55 55 55 00 00 59 45 
42.987000 1 23e Rx d 8 aa c6 72 b1 01 02 a8 7e 
42.995000 1 2b4 Rx d 6 12 05 a6 0d ce 00 
42.996000 1 545 Rx d 8 01 00 00 00 00 10 d0 2b 
56.507000 1 23e Rx d 8 f4 01 3a bd fa fc cf f1 
56.507700 1 3a1 Rx d 8 2b fa 40 81 3e 00 30 14 
56.510700 1 788 Rx d 8 02 40 d0 07 00 00 00 00 
56.516200 1 2c2 Rx d 8 55 63 a8 46 01 00 1a a5 
56.526500 1 3c2 Rx d 8 29 55 00 00 00 00 00 80 
56.526700 1 545 Rx d 8 f0 00 27 10 95 45 79 c4 
56.547500 1 23e Rx d 8 f4 01 3a bd fa fc df 01 
56.556500 1 7a8 Rx d 8 02 40 d1 07 00 07 00 00 
56.557800 1 3a1 Rx d 8 e8 42 0d 8a 01 08 42 cc 
56.558100 1 545 Rx d 8 01 00 00 00 00 10 80 db 
56.560000 1 3a3 Rx d 8 00 e0 00 00 38 03 fc 01 
56.567700 1 272 Rx d 8 06 00 ef 78 07 b0 07 08 
56.576200 1 3c2 Rx d 8 00 55 55 55 00 00 59 45 
56.587500 1 23e Rx d 8 f4 01 3a bd fa fc ef 11 
56.592200 1 545 Rx d 8 02 00 01 00 00 00 90 dd 
56.594300 1 2b4 Rx d 6 15 05 a7 0d ca 00 
56.607500 1 3a1 Rx d 8 2b fa 40 95 3e 00 50 48 
56.610700 1 788 Rx d 8 a8 bc 71 63 00 00 80 00 
56.616200 1 2c2 Rx d 8 20 40 00 66 01 00 00 cb 
56.624900 1 545 Rx d 8 f0 00 27 10 95 49 a9 f8 
56.626200 1 3c2 Rx d 8 29 55 00 00 00 00 00 80 
56.627800 1 23e Rx d 8 f4 01 3a bd fa fc ff 21 
56.656900 1 7a8 Rx d 8 a8 b4 71 63 00 00 82 00 
56.657200 1 3a1 Rx d 8 e8 42 0d 8a 01 08 62 ec 
56.657700 1 545 Rx d 8 01 00 00 00 00 10 b0 0b 
56.660000 1 3a3 Rx d 8 00 e0 00 00 38 03 fc 01 
56.667000 1 23e Rx d 8 f4 01 3a bd fa fc 0f 31 
56.667800 1 272 Rx d 8 09 80 63 00 00 00 00 00 
56.676200 1 3c2 Rx d 8 00 55 55 55 00 00 59 45 
56.690100 1 545 Rx d 8 02 00 01 00 00 00 c0 0d 
56.694400 1 2b4 Rx d 6 15 05 a6 0d cc 00 
56.707000 1 23e Rx d 8 31 1d 73 c0 01 11 15 e8 
56.708800 1 3a1 Rx d 8 2b fa 40 8d 3e 00 70 60 
56.710700 1 788 Rx d 8 01 00 00 00 ff a1 a8 12 
56.716200 1 2c2 Rx d 8 55 63 a8 46 01 00 1a a5 
56.725100 1 545 Rx d 8 f0 00 22 30 95 4a d9 44 
56.726300 1 3c2 Rx d 8 29 55 00 00 00 00 00 80 
56.747500 1 23e Rx d 8 31 1d 73 c0 01 11 25 f8 
56.756900 1 545 Rx d 8 01 00 00 00 00 10 e0 3b 
56.757400 1 3a1 Rx d 8 e8 42 0d 8a 01 08 82 0c 
56.757500 1 7a8 Rx d 8 01 00 00 00 ff a1 98 12 
56.759300 1 3a3 Rx d 8 00 e0 00 00 38 03 fc 01 
56.767700 1 272 Rx d 8 06 00 ef 78 07 b0 07 08 
56.775000 1 23a Rx d 8 21 8f 84 ee 23 82 88 dc 
56.775500 1 3c2 Rx d 8 00 55 55 55 00 00 59 45 
56.787000 1 23e Rx d 8 31 37 73 c0 01 11 35 22 
56.790100 1 545 Rx d 8 02 00 01 00 00 00 f0 3d 
56.794300 1 2b4 Rx d 6 13 05 a6 0d ca 00 
56.808900 1 3a1 Rx d 8 2b fa 40 81 3e 00 90 74 
56.810700 1 788 Rx d 8 02 40 d3 07 00 00 00 00 
56.816200 1 2c2 Rx d 8 20 40 00 66 01 00 00 cb 
56.822100 1 545 Rx d 8 f0 00 27 10 95 45 09 54 
56.827000 1 3c2 Rx d 8 29 55 00 00 00 00 00 80 
56.827800 1 23e Rx d 8 31 37 73 c0 01 11 45 32 
56.855100 1 545 Rx d 8 01 00 00 00 00 10 10 6b 
56.856600 1 7a8 Rx d 8 02 40 d4 07 00 07 00 00 
56.857200 1 3a1 Rx d 8 e8 42 0d 8a 01 08 a2 2c 
56.860000 1 3a3 Rx d 8 00 e0 00 00 38 03 fc 01 
56.867100 1 23e Rx d 8 31 4d 73 c0 01 11 55 58 
56.867800 1 272 Rx d 8 09 80 63 00 00 00 00 00 
56.876200 1 3c2 Rx d 8 00 55 55 55 00 00 59 45 
56.888100 1 545 Rx d 8 02 00 01 00 00 00 20 6d 
56.894400 1 2b4 Rx d 6 12 05 a7 0d c7 00 
56.907000 1 23e Rx d 8 31 4d 73 c0 01 11 65 68 
56.908800 1 3a1 Rx d 8 2b fa 40 81 3e 00 b0 94 
56.910700 1 788 Rx d 8 a8 bc 71 63 00 00 80 00 
56.916300 1 2c2 Rx d 8 55 63 a8 46 01 00 1a a5 
56.922200 1 545 Rx d 8 f0 00 22 10 95 45 39 7f 
56.926300 1 3c2 Rx d 8 29 55 00 00 00 00 00 80 
56.947500 1 23e Rx d 8 31 4d 73 c0 05 11 75 7c 
56.954100 1 545 Rx d 8 01 00 00 00 00 10 40 9b 
56.956800 1 7a8 Rx d 8 a8 b4 71 63 00 00 82 00 
56.958200 1 3a1 Rx d 8 e8 42 0d 8a 01 08 c2 4c 
56.960000 1 3a3 Rx d 8 00 e0 00 00 38 03 fc 01 
56.967700 1 272 Rx d 8 06 00 ef 78 07 b0 07 08 
56.976200 1 3c2 Rx d 8 00 55 55 55 00 00 59 45 
56.987200 1 23e Rx d 8 31 5f 73 c0 01 11 85 9a 
56.987900 1 545 Rx d 8 02 00 01 00 00 00 50 9d 
56.994600 1 2b4 Rx d 6 13 05 a6 0d c8 00 
57.008900 1 3a1 Rx d 8 2b fa 40 8b 3e 00 d0 be 
57.010700 1 788 Rx d 8 01 00 00 00 ff a1 a8 12 
57.016300 1 2c2 Rx d 8 20 40 00 66 01 00 00 cb 
57.020000 1 545 Rx d 8 f0 00 27 10 95 45 69 b4 
57.026400 1 3c2 Rx d 8 29 55 00 00 00 00 00 80 
57.026700 1 3c2 Rx d 8 00 55 55 55 04 00 59 45 
57.027200 1 2c2 Rx d 8 24 72 00 66 01 00 00 cb 
57.027400 1 23e Rx d 8 31 5f 73 c0 01 11 95 aa 
57.036700 1 2c2 Rx d 8 55 03 a8 46 81 00 1a a5 
57.054200 1 545 Rx d 8 01 00 00 00 00 10 70 cb 
57.056600 1 7a8 Rx d 8 01 00 00 00 ff a1 98 12 
57.057200 1 3a1 Rx d 8 e8 42 0d 8a 01 08 e2 6c 
57.058800 1 3a3 Rx d 8 00 e0 00 00 38 03 fc 01 
57.067100 1 23e Rx d 8 31 6d 73 c0 01 11 a5 c8 
57.067800 1 272 Rx d 8 09 80 63 00 00 00 00 00 
57.076200 1 3c2 Rx d 8 00 55 55 55 04 00 59 45 
57.086900 1 545 Rx d 8 02 00 02 00 00 00 80 ce 
57.094700 1 2b4 Rx d 6 12 05 a7 0d e7 00 
57.107300 1 23e Rx d 8 31 6d 73 c0 01 11 b5 d8 
57.107800 1 3a1 Rx d 8 2b fa 40 4f 3e 00 f0 a2 
57.110700 1 788 Rx d 8 02 40 d3 07 00 00 00 00 
57.116300 1 2c2 Rx d 8 24 6e f9 67 01 00 00 cb 
57.120100 1 545 Rx d 8 30 05 27 10 95 45 99 29 
57.126000 1 3c2 Rx d 8 29 55 00 00 00 00 00 80 
57.147500 1 23e Rx d 8 31 6d 73 c0 05 11 c5 ec 
57.152100 1 545 Rx d 8 01 00 00 00 00 10 a0 fb 
57.156600 1 7a8 Rx d 8 02 40 cf 07 00 07 00 00 
57.158200 1 3a1 Rx d 8 e8 42 0d 8a 01 08 02 8c 
57.160000 1 3a3 Rx d 8 00 e0 00 00 38 03 fc 01 
57.167800 1 272 Rx d 8 06 00 ee 70 07 b0 07 08 
57.176200 1 3c2 Rx d 8 00 55 55 55 04 00 59 45 
57.185800 1 545 Rx d 8 02 00 04 00 00 00 b0 00 
57.186900 1 23e Rx d 8 31 6d 73 c0 05 11 d5 fc 
57.194500 1 2b4 Rx d 6 13 05 a6 0d fc 00 
57.207300 1 3a1 Rx d 8 2b fa 40 17 3e 00 10 8a 
57.210700 1 788 Rx d 8 a4 bc 71 63 00 00 80 00 
57.216300 1 2c2 Rx d 8 55 03 a8 46 81 00 1a a5 
57.216700 1 3c2 Rx d 8 00 55 55 55 08 00 59 45 
57.218100 1 545 Rx d 8 a0 07 27 e0 94 46 c9 9b 
57.226400 1 3c2 Rx d 8 29 55 00 00 00 00 00 80 
57.227000 1 2c2 Rx d 8 2e 6c b5 6a 01 00 00 cb 
57.227800 1 23e Rx d 8 31 6d 73 c0 05 11 e5 0c 
57.252200 1 545 Rx d 8 01 00 00 00 00 10 d0 2b 
57.256300 1 7a8 Rx d 8 a4 b4 71 63 00 00 82 00 
57.257500 1 3a1 Rx d 8 e8 42 0d 8a 01 08 22 ac 
57.260000 1 3a3 Rx d 8 00 e0 00 00 38 03 fc 01 
57.267100 1 23e Rx d 8 31 6d 73 c0 05 11 f5 1c 
57.267300 1 272 Rx d 8 09 80 63 00 00 00 00 00 
57.267800 1 382 Rx d 5 42 18 27 00 00 
57.276200 1 3c2 Rx d 8 00 55 55 55 08 00 59 45 
57.284100 1 545 Rx d 8 02 00 03 00 00 00 e0 2f 
57.294700 1 2b4 Rx d 6 13 05 a7 0d fd 00 
57.307100 1 23e Rx d 8 31 6d 73 c0 05 11 05 2c 
57.308800 1 3a1 Rx d 8 2b fa 40 15 3e 00 30 a8 
57.310700 1 788 Rx d 8 01 00 00 00 ff a1 88 12 
57.316300 1 2c2 Rx d 8 55 03 a8 46 81 00 1a a5 
57.318400 1 545 Rx d 8 a0 07 22 d0 94 45 f9 b5 
57.326300 1 3c2 Rx d 8 29 55 00 00 00 00 00 80 
57.347500 1 23e Rx d 8 81 a6 72 b7 01 12 15 b8 
57.352200 1 545 Rx d 8 01 00 00 00 00 10 00 5b 
57.356800 1 7a8 Rx d 8 01 00 00 00 ff a1 98 12 
57.357400 1 3a1 Rx d 8 e8 42 0d 8a 01 08 42 cc 
57.358500 1 3a3 Rx d 8 00 e0 00 00 38 03 fc 01 
57.367800 1 272 Rx d 8 06 00 ee 70 07 b0 07 08 
57.376200 1 3c2 Rx d 8 00 55 55 55 08 00 59 45 
57.383100 1 545 Rx d 8 02 00 04 00 00 00 10 60 
57.387000 1 23e Rx d 8 81 a6 72 b7 01 12 25 c8 
57.387800 1 373 Rx d 8 08 a2 ab 00 00 de 06 1f 
57.394500 1 2b4 Rx d 6 16 05 a6 0d 04 01 
57.407100 1 3a1 Rx d 8 2b fa 40 1f 3e 00 50 d2 
57.410700 1 788 Rx d 8 02 40 cf 07 00 00 00 00 
57.416100 1 545 Rx d 8 a0 07 27 10 95 45 29 2b 
57.416300 1 2c2 Rx d 8 2e 6c 75 6f 01 00 00 cb 
57.427000 1 3c2 Rx d 8 29 55 00 00 00 00 00 80 
57.427900 1 23e Rx d 8 81 a6 72 b7 05 12 35 dc 
57.447500 1 3c2 Rx d 8 00 55 55 55 04 00 59 45 
57.449200 1 545 Rx d 8 01 00 00 00 00 10 30 8b 
57.456700 1 7a8 Rx d 8 02 40 cf 07 00 07 00 00 
57.457200 1 3a1 Rx d 8 e8 42 0d 8a 01 08 62 ec 
57.460100 1 3a3 Rx d 8 00 e0 00 00 38 03 fc 01 
57.467100 1 23e Rx d 8 81 a6 72 b7 01 12 45 e8 
57.467800 1 272 Rx d 8 09 80 63 00 00 00 00 00 
57.476200 1 3c2 Rx d 8 00 55 55 55 04 00 59 45 
57.482100 1 545 Rx d 8 02 00 05 00 00 00 40 91 
57.494500 1 2b4 Rx d 6 13 05 a6 0d fc 00 
57.507000 1 23e Rx d 8 81 a6 72 b7 05 12 55 fc 
57.507800 1 3a1 Rx d 8 2b fa 40 09 3e 00 70 dc 
57.510700 1 788 Rx d 8 a4 bc 71 63 00 00 80 00 
57.516000 1 545 Rx d 8 a0 07 27 c0 94 44 59 09 
57.516300 1 2c2 Rx d 8 55 03 a8 46 81 00 1a a5 
57.526300 1 3c2 Rx d 8 29 55 00 00 00 00 00 80 
57.547500 1 23e Rx d 8 81 a4 72 a5 05 12 65 f8 
57.548800 1 545 Rx d 8 01 00 00 00 00 10 60 bb 
57.556800 1 7a8 Rx d 8 a4 b4 71 63 00 00 82 00 
57.558200 1 3a1 Rx d 8 e8 42 0d 8a 01 08 82 0c 
57.560000 1 3a3 Rx d 8 00 e0 00 00 38 03 fc 01 
57.567800 1 272 Rx d 8 06 00 ee 70 07 b0 07 08 
57.576200 1 3c2 Rx d 8 00 55 55 55 04 00 59 45 
57.582300 1 545 Rx d 8 02 00 06 00 00 00 70 c2 
57.587500 1 23e Rx d 8 81 a4 72 a5 05 12 75 08 
57.594300 1 2b4 Rx d 6 13 05 a6 0d fd 00 
57.607500 1 3a1 Rx d 8 2b fa 40 1d 3e 00 90 10 
57.610700 1 788 Rx d 8 01 00 00 00 ff a1 88 12 
57.614800 1 545 Rx d 8 a0 07 22 00 95 44 89 75 
57.616300 1 2c2 Rx d 8 2e 6c 75 74 01 00 00 cb 
57.626300 1 3c2 Rx d 8 29 55 00 00 00 00 00 80 
57.627900 1 23e Rx d 8 81 a4 72 a5 01 12 85 14 
57.647100 1 545 Rx d 8 01 00 00 00 00 10 90 eb 
57.656400 1 7a8 Rx d 8 01 00 00 00 ff a1 98 12 
57.657300 1 3a1 Rx d 8 e8 42 0d 8a 01 08 a2 2c 
57.660100 1 3a3 Rx d 8 00 e0 00 00 38 03 fc 01 
57.667100 1 23e Rx d 8 81 a4 72 a5 05 12 95 28 
57.667300 1 272 Rx d 8 09 80 63 00 00 00 00 00 
57.676300 1 3c2 Rx d 8 00 55 55 55 04 00 59 45 
57.681000 1 545 Rx d 8 02 00 07 00 00 00 a0 f3 
57.694400 1 2b4 Rx d 6 13 05 a6 0d ff 00 
57.698300 1 3c2 Rx d 8 00 55 55 55 00 00 59 45 
57.707000 1 23e Rx d 8 81 a4 72 a5 05 12 a5 38 
57.708900 1 3a1 Rx d 8 2b fa 40 15 3e 00 b0 28 
57.710800 1 788 Rx d 8 02 40 cd 07 00 00 00 00 
57.713200 1 545 Rx d 8 50 07 2c 10 95 45 b9 70 
57.716300 1 2c2 Rx d 8 53 03 a8 46 c1 01 1a a5 
57.726500 1 3c2 Rx d 8 29 55 00 00 00 00 00 80 
57.746100 1 545 Rx d 8 01 00 00 00 00 10 c0 1b 
57.747500 1 23e Rx d 8 81 a4 72 a5 09 12 b5 4c 
57.756400 1 7a8 Rx d 8 02 40 d2 07 00 07 00 00 
57.758300 1 3a1 Rx d 8 e8 42 0d 8a 01 08 c2 4c 
57.760000 1 3a3 Rx d 8 00 e0 00 00 38 03 fc 01 
57.767800 1 272 Rx d 8 06 00 ee 70 07 b0 07 08 
57.775500 1 23a Rx d 8 22 04 70 37 fc e9 69 34 
57.775700 1 3c2 Rx d 8 00 55 55 55 00 00 59 45 
57.779200 1 545 Rx d 8 02 00 07 00 00 00 d0 23 
57.788000 1 23e Rx d 8 81 a4 72 a5 09 12 c5 5c 
57.794300 1 2b4 Rx d 6 13 05 a6 0d f8 00 
57.807100 1 3a1 Rx d 8 2b fa 40 1f 3e 00 d0 52 
57.810800 1 788 Rx d 8 a4 bc 71 63 00 00 80 00 
57.812100 1 545 Rx d 8 a0 07 27 d0 94 41 e9 a6 
57.816300 1 2c2 Rx d 8 2e 6c b6 79 01 00 00 cb 
57.827000 1 3c2 Rx d 8 29 55 00 00 00 00 00 80 
57.827900 1 23e Rx d 8 81 a4 72 a5 05 12 d5 68 
57.845900 1 545 Rx d 8 01 00 00 00 00 10 f0 4b 
57.856400 1 7a8 Rx d 8 a4 b4 71 63 00 00 82 00 
57.857300 1 3a1 Rx d 8 e8 42 0d 8a 01 08 e2 6c 
57.859200 1 3a3 Rx d 8 00 e0 00 00 38 03 fc 01 
57.867100 1 23e Rx d 8 81 a4 72 a5 05 12 e5 78 
57.867300 1 272 Rx d 8 09 80 63 00 00 00 00 00 
57.876300 1 3c2 Rx d 8 00 55 55 55 00 00 59 45 
57.878100 1 545 Rx d 8 02 00 07 00 00 00 00 53 
57.894500 1 2b4 Rx d 6 11 05 a6 0d fa 00 
57.907100 1 23e Rx d 8 81 a4 72 a5 05 12 f5 88 
57.908900 1 3a1 Rx d 8 2b fa 40 1f 3e 00 f0 72 
57.910800 1 788 Rx d 8 01 00 00 00 ff a1 88 12 
57.912300 1 545 Rx d 8 00 07 22 10 95 45 19 76 
57.916300 1 2c2 Rx d 8 53 03 a8 46 c1 01 1a a5 
57.926300 1 3c2 Rx d 8 29 55 00 00 00 00 00 80 
57.944900 1 545 Rx d 8 01 00 00 00 00 10 20 7b 
57.947500 1 23e Rx d 8 81 a4 72 a5 09 12 05 9c 
57.956600 1 7a8 Rx d 8 01 00 00 00 ff a1 98 12 
57.958300 1 3a1 Rx d 8 e8 42 0d 8a 01 08 02 8c 
57.959100 1 3a3 Rx d 8 00 e0 00 00 38 03 fc 01 
57.967800 1 272 Rx d 8 06 00 ee 70 07 b0 07 08 
57.976300 1 3c2 Rx d 8 00 55 55 55 00 00 59 45 
57.977100 1 545 Rx d 8 02 00 07 00 00 00 30 83 
57.988000 1 23e Rx d 8 81 a4 72 a5 09 12 15 ac 
57.994300 1 2b4 Rx d 6 0f 05 a6 0d fb 00 
71.507700 1 23e Rx d 8 fc aa 73 c7 15 4e 35 b8 
71.507900 1 545 Rx d 8 01 00 00 00 00 10 d0 2b 
71.508400 1 3a1 Rx d 8 2b fa 40 81 3e 00 f0 d4 
71.513200 1 788 Rx d 8 02 40 ce 07 00 00 00 00 
71.517500 1 2c2 Rx d 8 53 63 a9 46 01 00 1c a5 
71.527200 1 3c2 Rx d 8 29 55 00 00 00 00 00 80 
71.541000 1 545 Rx d 8 02 00 02 00 00 00 e0 2e 
71.547700 1 23e Rx d 8 fc aa 73 c7 15 4e 45 c8 
71.557800 1 7a8 Rx d 8 02 40 d4 07 00 07 00 00 
71.558100 1 3a1 Rx d 8 e8 42 0d 8a 01 08 02 8c 
71.559900 1 3a3 Rx d 8 00 e0 00 00 38 03 fc 01 
71.568300 1 272 Rx d 8 06 00 ef 78 07 b0 07 08 
71.574900 1 545 Rx d 8 40 01 27 10 95 45 f9 95 
71.576800 1 3c2 Rx d 8 00 55 55 55 00 00 59 45 
71.587800 1 23e Rx d 8 fc aa 73 c7 15 4e 55 d8 
71.595200 1 2b4 Rx d 6 14 05 a6 0d c5 00 
71.607000 1 545 Rx d 8 01 00 00 00 00 10 00 5b 
71.608400 1 3a1 Rx d 8 2b fa 40 81 3e 00 10 f4 
71.613200 1 788 Rx d 8 a8 bc 71 63 00 00 80 00 
71.617500 1 2c2 Rx d 8 20 40 40 20 01 00 00 cb 
71.627100 1 3c2 Rx d 8 29 55 00 00 00 00 00 80 
71.628800 1 23e Rx d 8 f4 01 3a c7 fa fc 6f 9b 
71.639900 1 545 Rx d 8 02 00 02 00 00 00 10 5e 
71.658000 1 7a8 Rx d 8 a8 b4 71 63 00 00 82 00 
71.658300 1 3a1 Rx d 8 e8 42 0d 8a 01 08 22 ac 
71.660600 1 3a3 Rx d 8 00 e0 00 00 38 03 fc 01 
71.668000 1 23e Rx d 8 f4 01 3a c7 fa fc 7f ab 
71.668300 1 272 Rx d 8 09 80 63 00 00 00 00 00 
71.672900 1 545 Rx d 8 f0 00 27 f0 94 47 29 55 
71.677200 1 3c2 Rx d 8 00 55 55 55 00 00 59 45 
71.694500 1 2b4 Rx d 6 15 05 a6 0d cb 00 
71.706200 1 545 Rx d 8 01 00 00 00 00 10 30 8b 
71.707700 1 23e Rx d 8 f4 01 3a c7 fa fc 8f bb 
71.708000 1 3a1 Rx d 8 2b fa 40 87 3e 00 30 1a 
71.713200 1 788 Rx d 8 01 00 00 00 ff a1 a8 12 
71.717500 1 2c2 Rx d 8 53 63 a9 46 01 00 1c a5 
71.727100 1 3c2 Rx d 8 29 55 00 00 00 00 00 80 
71.738900 1 545 Rx d 8 02 00 02 00 00 00 40 8e 
71.747700 1 23e Rx d 8 f4 01 3a c7 fa fc 9f cb 
71.757800 1 7a8 Rx d 8 01 00 00 00 ff a1 98 12 
71.758100 1 3a1 Rx d 8 e8 42 0d 8a 01 08 42 cc 
71.759900 1 3a3 Rx d 8 00 e0 00 00 38 03 fc 01 
71.768900 1 272 Rx d 8 06 00 ef 78 07 b0 07 08 
71.774800 1 545 Rx d 8 f0 00 27 00 95 44 59 93 
71.776200 1 23a Rx d 8 0a 00 00 00 00 00 00 00 
71.776500 1 3c2 Rx d 8 00 55 55 55 00 00 59 45 
71.789000 1 23e Rx d 8 f4 01 3a c7 fa fc af db 
71.794100 1 2b4 Rx d 6 12 05 a6 0d cb 00 
71.805000 1 545 Rx d 8 01 00 00 00 00 10 60 bb 
71.808000 1 3a1 Rx d 8 2b fa 40 7f 3e 00 50 32 
71.813200 1 788 Rx d 8 02 40 cf 07 00 00 00 00 
71.817300 1 2c2 Rx d 8 20 40 40 20 01 00 00 cb 
71.827200 1 3c2 Rx d 8 29 55 00 00 00 00 00 80 
71.828900 1 23e Rx d 8 f4 01 3a c7 fa fc bf eb 
71.838700 1 545 Rx d 8 02 00 02 00 00 00 70 be 
71.858200 1 3a1 Rx d 8 e8 42 0d 8a 01 08 62 ec 
71.858800 1 7a8 Rx d 8 02 40 d1 07 00 07 00 00 
71.860600 1 3a3 Rx d 8 00 e0 00 00 38 03 fc 01 
71.868000 1 23e Rx d 8 f4 01 3a c7 fa fc cf fb 
71.868300 1 272 Rx d 8 09 80 63 00 00 00 00 00 
71.872500 1 545 Rx d 8 f0 00 27 10 95 45 89 d4 
71.877200 1 3c2 Rx d 8 00 55 55 55 00 00 59 45 
71.894500 1 2b4 Rx d 6 11 05 a6 0d c6 00 
71.903900 1 545 Rx d 8 01 00 00 00 00 10 90 eb 
71.907700 1 23e Rx d 8 f4 01 3a c7 fa fc df 0b 
71.908000 1 3a1 Rx d 8 2b fa 40 8b 3e 00 70 5e 
71.913200 1 788 Rx d 8 a8 bc 71 63 00 00 80 00 
71.917500 1 2c2 Rx d 8 53 63 a9 46 01 00 1c a5 
71.927200 1 3c2 Rx d 8 29 55 00 00 00 00 00 80 
71.938800 1 545 Rx d 8 02 00 02 00 00 00 a0 ee 
71.947700 1 23e Rx d 8 f4 01 3a c7 fa fc ef 1b 
71.957500 1 7a8 Rx d 8 a8 b4 71 63 00 00 82 00 
71.958400 1 3a1 Rx d 8 e8 42 0d 8a 01 08 82 0c 
71.960600 1 3a3 Rx d 8 00 e0 00 00 38 03 fc 01 
71.968400 1 272 Rx d 8 06 00 ef 78 07 b0 07 08 
71.970600 1 545 Rx d 8 40 01 27 10 95 45 b9 55 
71.976800 1 3c2 Rx d 8 00 55 55 55 00 00 59 45 
71.989000 1 23e Rx d 8 f4 01 3a c7 fa fc ff 2b 
71.995200 1 2b4 Rx d 6 14 05 a6 0d ca 00 
72.003200 1 545 Rx d 8 01 00 00 00 00 10 c0 1b 
72.008000 1 3a1 Rx d 8 2b fa 40 8b 3e 00 90 7e 
72.013200 1 788 Rx d 8 01 00 00 00 ff a1 a8 12 
72.017500 1 2c2 Rx d 8 20 40 40 20 01 00 00 cb 
72.027600 1 3c2 Rx d 8 29 55 00 00 00 00 00 80 
72.028900 1 23e Rx d 8 f4 01 3a c7 fa fc 0f 3b 
72.036000 1 545 Rx d 8 02 00 02 00 00 00 d0 1e 
72.057300 1 7a8 Rx d 8 01 00 00 00 ff a1 98 12 
72.058300 1 3a1 Rx d 8 e8 42 0d 8a 01 08 a2 2c 
72.059800 1 3a3 Rx d 8 00 e0 00 00 38 03 fc 01 
72.068000 1 23e Rx d 8 f4 01 3a c7 fa fc 1f 4b 
72.068300 1 272 Rx d 8 09 80 63 00 00 00 00 00 
72.070800 1 545 Rx d 8 40 01 27 60 95 49 e9 d9 
72.077200 1 3c2 Rx d 8 00 55 55 55 00 00 59 45 
72.094500 1 2b4 Rx d 6 12 05 a6 0d cc 00 
72.102800 1 545 Rx d 8 01 00 00 00 00 10 f0 4b 
72.107700 1 23e Rx d 8 f4 01 3a c7 fa fc 2f 5b 
72.108400 1 3a1 Rx d 8 2b fa 40 81 3e 00 b0 94 
72.113200 1 788 Rx d 8 02 40 d0 07 00 00 00 00 
72.117500 1 2c2 Rx d 8 53 63 a9 46 01 00 1c a5 
72.127200 1 3c2 Rx d 8 29 55 00 00 00 00 00 80 
72.135000 1 545 Rx d 8 02 00 02 00 00 00 00 4e 
72.147700 1 23e Rx d 8 f4 01 3a c7 fa fc 3f 6b 
72.157800 1 7a8 Rx d 8 02 40 ce 07 00 07 00 00 
72.158200 1 3a1 Rx d 8 e8 42 0d 8a 01 08 c2 4c 
72.160600 1 3a3 Rx d 8 00 e0 00 00 38 03 fc 01 
72.168000 1 545 Rx d 8 40 01 27 30 95 4a 19 da 
72.168200 1 272 Rx d 8 06 00 ef 78 07 b0 07 08 
72.176900 1 3c2 Rx d 8 00 55 55 55 00 00 59 45 
72.189000 1 23e Rx d 8 f4 01 3a c7 fa fc 4f 7b 
72.195200 1 2b4 Rx d 6 11 05 a7 0d ca 00 
72.202800 1 545 Rx d 8 01 00 00 00 00 10 20 7b 
72.208000 1 3a1 Rx d 8 2b fa 40 83 3e 00 d0 b6 
72.213200 1 788 Rx d 8 a8 bc 71 63 00 00 80 00 
72.217500 1 2c2 Rx d 8 20 40 40 20 01 00 00 cb 
72.227300 1 3c2 Rx d 8 29 55 00 00 00 00 00 80 
72.228900 1 23e Rx d 8 f4 01 3a c7 fa fc 5f 8b 
72.234000 1 545 Rx d 8 02 00 02 00 00 00 30 7e 
72.258000 1 7a8 Rx d 8 a8 b4 71 63 00 00 82 00 
72.258100 1 3a1 Rx d 8 e8 42 0d 8a 01 08 e2 6c 
72.260600 1 3a3 Rx d 8 00 e0 00 00 38 03 fc 01 
72.267000 1 545 Rx d 8 40 01 27 00 95 44 49 d4 
72.268000 1 23e Rx d 8 f4 01 3a c7 fa fc 6f 9b 
72.268200 1 272 Rx d 8 09 80 63 00 00 00 00 00 
72.268400 1 382 Rx d 5 42 18 27 00 00 
72.277300 1 3c2 Rx d 8 00 55 55 55 00 00 59 45 
72.294500 1 2b4 Rx d 6 13 05 a7 0d c9 00 
72.300000 1 545 Rx d 8 01 00 00 00 00 10 50 ab 
72.307800 1 23e Rx d 8 f4 01 3a c7 fa fc 7f ab 
72.308000 1 3a1 Rx d 8 2b fa 40 89 3e 00 f0 dc 
72.313200 1 788 Rx d 8 01 00 00 00 ff a1 a8 12 
72.317500 1 2c2 Rx d 8 55 63 a9 46 01 00 1c a5 
72.327200 1 3c2 Rx d 8 29 55 00 00 00 00 00 80 
72.332900 1 545 Rx d 8 02 00 01 00 00 00 60 ad 
72.347700 1 23e Rx d 8 f4 01 3a c7 fa fc 8f bb 
72.357500 1 7a8 Rx d 8 01 00 00 00 ff a1 98 12 
72.358400 1 3a1 Rx d 8 e8 42 0d 8a 01 08 02 8c 
72.359500 1 3a3 Rx d 8 00 e0 00 00 38 03 fc 01 
72.366800 1 545 Rx d 8 f0 00 27 10 95 45 79 c4 
72.368400 1 272 Rx d 8 06 00 ef 78 07 b0 07 08 
72.376900 1 3c2 Rx d 8 00 55 55 55 00 00 59 45 
72.381500 1 373 Rx d 8 09 a2 ab 00 00 de 06 1f 
72.389000 1 23e Rx d 8 f4 01 3a c7 fa fc 9f cb 
72.395200 1 2b4 Rx d 6 12 05 a7 0d ce 00 
72.399000 1 545 Rx d 8 01 00 00 00 00 10 80 db 
72.408000 1 3a1 Rx d 8 2b fa 40 8b 3e 00 10 fe 
72.413300 1 788 Rx d 8 02 40 cd 07 00 00 00 00 
72.417600 1 2c2 Rx d 8 20 40 40 20 01 00 00 cb 
72.427500 1 3c2 Rx d 8 29 55 00 00 00 00 00 80 
72.428900 1 23e Rx d 8 f4 01 3a c7 fa fc af db 
72.432100 1 545 Rx d 8 02 00 01 00 00 00 90 dd 
72.458000 1 7a8 Rx d 8 02 40 d2 07 00 07 00 00 
72.458100 1 3a1 Rx d 8 e8 42 0d 8a 01 08 22 ac 
72.460600 1 3a3 Rx d 8 00 d0 00 00 38 03 fc 01 
72.465200 1 545 Rx d 8 40 01 27 60 95 45 a9 95 
72.468000 1 23e Rx d 8 f4 01 3a c7 fa fc bf eb 
72.468400 1 272 Rx d 8 09 80 63 00 00 00 00 00 
72.477300 1 3c2 Rx d 8 00 55 55 55 00 00 59 45 
72.494500 1 2b4 Rx d 6 12 05 a6 0d cc 00 
72.498000 1 545 Rx d 8 01 00 00 00 00 10 b0 0b 
72.507800 1 23e Rx d 8 f4 01 3a c7 fa fc cf fb 
72.508000 1 3a1 Rx d 8 2b fa 40 81 3e 00 30 14 
72.513300 1 788 Rx d 8 a8 bc 71 63 00 00 80 00 
72.517500 1 2c2 Rx d 8 55 63 a9 46 01 00 1c a5 
72.527200 1 3c2 Rx d 8 29 55 00 00 00 00 00 80 
72.532500 1 545 Rx d 8 02 00 01 00 00 00 c0 0d 
72.547800 1 23e Rx d 8 f4 01 3a c7 fa fc df 0b 
72.557300 1 7a8 Rx d 8 a8 b4 71 63 00 00 82 00 
72.558700 1 3a1 Rx d 8 e8 42 0d 8a 01 08 42 cc 
72.560600 1 3a3 Rx d 8 00 e0 00 00 38 03 fc 01 
72.565800 1 545 Rx d 8 f0 00 22 00 95 44 d9 0e 
72.568300 1 272 Rx d 8 06 00 ef 78 07 b0 07 08 
72.576900 1 3c2 Rx d 8 00 55 55 55 00 00 59 45 
72.587800 1 23e Rx d 8 f4 01 3a c7 fa fc ef 1b 
72.594600 1 2b4 Rx d 6 12 05 a6 0d ca 00 
72.597000 1 545 Rx d 8 01 00 00 00 00 10 e0 3b 
72.608400 1 3a1 Rx d 8 2b fa 40 7f 3e 00 50 32 
72.613300 1 788 Rx d 8 01 00 00 00 ff a1 a8 12 
72.617600 1 2c2 Rx d 8 20 40 40 20 01 00 00 cb 
72.627200 1 3c2 Rx d 8 29 55 00 00 00 00 00 80 
72.628900 1 23e Rx d 8 f4 01 3a c7 fa fc ff 2b 
72.632900 1 545 Rx d 8 02 00 01 00 00 00 f0 3d 
72.658000 1 7a8 Rx d 8 01 00 00 00 ff a1 98 12 
72.658100 1 3a1 Rx d 8 e8 42 0d 8a 01 08 62 ec 
72.660600 1 3a3 Rx d 8 00 e0 00 00 38 03 fc 01 
72.666100 1 545 Rx d 8 f0 00 27 10 95 45 09 54 
72.668000 1 23e Rx d 8 f4 01 3a c7 fa fc 0f 3b 
72.668300 1 272 Rx d 8 09 80 63 00 00 00 00 00 
72.677300 1 3c2 Rx d 8 00 55 55 55 00 00 59 45 
72.694600 1 2b4 Rx d 6 12 05 a7 0d cd 00 
72.696100 1 545 Rx d 8 01 00 00 00 00 10 10 6b 
72.707800 1 23e Rx d 8 f4 01 3a c7 fa fc 1f 4b 
72.708000 1 3a1 Rx d 8 2b fa 40 8b 3e 00 70 5e 
72.713300 1 788 Rx d 8 02 40 ce 07 00 00 00 00 
72.717600 1 2c2 Rx d 8 55 63 a9 46 01 00 1c a5 
72.727100 1 3c2 Rx d 8 29 55 00 00 00 00 00 80 
72.729000 1 545 Rx d 8 02 00 01 00 00 00 20 6d 
72.747800 1 23e Rx d 8 f4 01 3a c7 fa fc 2f 5b 
72.748500 1 2c2 Rx d 8 2c 50 40 20 01 00 00 cb 
72.749000 1 3c2 Rx d 8 00 55 55 55 02 00 59 45 
72.757900 1 2c2 Rx d 8 55 03 a8 46 81 00 1c a5 
72.758300 1 3a1 Rx d 8 e8 42 0d 8a 01 04 82 08 
72.758400 1 7a8 Rx d 8 02 40 d1 07 00 07 00 00 
72.760600 1 3a3 Rx d 8 00 e0 00 00 38 03 fc 01 
72.762100 1 545 Rx d 8 20 0d 27 50 94 3c 39 f7 
72.769000 1 272 Rx d 8 06 00 ee 70 07 b0 07 08 
72.776500 1 23a Rx d 8 0b ff 03 00 00 00 00 00 
72.776700 1 3c2 Rx d 8 00 55 55 55 02 00 59 45 
72.789000 1 23e Rx d 8 f4 01 3a c7 fa fc 3f 6b 
72.794800 1 2b4 Rx d 6 15 05 a6 0d f2 00 
72.795100 1 545 Rx d 8 01 00 00 00 00 10 40 9b 
72.808000 1 3a1 Rx d 8 2b fa 40 33 3e 00 90 26 
72.813300 1 788 Rx d 8 a4 bc 71 63 00 00 80 00 
72.817400 1 2c2 Rx d 8 2c 53 c7 1e 01 00 00 cb 
72.827300 1 3c2 Rx d 8 29 55 00 00 00 00 00 80 
72.827800 1 23e Rx d 8 f4 01 3a c7 fa fc 4f 7b 
72.828000 1 545 Rx d 8 02 00 01 00 00 00 50 9d 
72.858000 1 7a8 Rx d 8 a4 b4 71 63 00 00 82 00 
72.858200 1 3a1 Rx d 8 e8 42 0d 8a 01 08 a2 2c 
72.860600 1 3a3 Rx d 8 00 e0 00 00 38 03 fc 01 
72.861300 1 545 Rx d 8 20 09 22 e0 94 46 69 b8 
72.868000 1 23e Rx d 8 f4 01 3a c7 fa fc 5f 8b 
72.868300 1 272 Rx d 8 09 80 63 00 00 00 00 00 
72.877300 1 3c2 Rx d 8 00 55 55 55 02 00 59 45 
72.894600 1 2b4 Rx d 6 11 05 a6 0d 0a 01 
72.895300 1 545 Rx d 8 01 00 00 00 00 10 70 cb 
72.907800 1 23e Rx d 8 f4 01 3a c7 fa fc 6f 9b 
72.908000 1 3a1 Rx d 8 2b fa 40 fb 3d 00 b0 0d 
72.913300 1 788 Rx d 8 01 00 00 00 ff a1 88 12 
72.917600 1 2c2 Rx d 8 53 03 a8 46 81 00 1c a5 
72.927200 1 3c2 Rx d 8 29 55 00 00 00 00 00 80 
72.927700 1 545 Rx d 8 02 00 01 00 00 00 80 cd 
72.947800 1 23e Rx d 8 f4 01 3a c7 fa fc 7f ab 
72.957300 1 7a8 Rx d 8 01 00 00 00 ff a1 98 12 
72.958500 1 3a1 Rx d 8 e8 42 0d 8a 01 08 c2 4c 
72.959800 1 3a3 Rx d 8 00 e0 00 00 38 03 fc 01 
72.960100 1 545 Rx d 8 c0 09 27 90 94 41 99 38 
72.968300 1 272 Rx d 8 06 00 ee 70 07 b0 07 08 
72.976900 1 3c2 Rx d 8 00 55 55 55 02 00 59 45 
72.989000 1 23e Rx d 8 f4 01 3a c7 fa fc 8f bb 
72.993100 1 545 Rx d 8 01 00 00 00 00 10 a0 fb 
72.994400 1 2b4 Rx d 6 13 05 a6 0d 10 01 
86.508000 1 23e Rx d 8 f4 01 3a a6 fa fc af ba 
86.508900 1 3a1 Rx d 8 2b fa 40 83 3e 00 b0 96 
86.514200 1 788 Rx d 8 02 40 d1 07 00 00 00 00 
86.518600 1 2c2 Rx d 8 20 40 c0 4b 01 00 00 cb 
86.523900 1 545 Rx d 8 f0 00 22 30 95 46 49 b0 
86.528300 1 3c2 Rx d 8 29 55 00 00 00 00 00 80 
86.548100 1 23e Rx d 8 f4 01 3a a6 fa fc bf ca 
86.557000 1 545 Rx d 8 01 00 00 00 00 10 50 ab 
86.559100 1 3a1 Rx d 8 e8 42 0d 8a 01 08 c2 4c 
86.559200 1 7a8 Rx d 8 02 40 d4 07 00 07 00 00 
86.561000 1 3a3 Rx d 8 00 e0 00 00 38 03 fc 01 
86.569600 1 272 Rx d 8 06 00 ef 78 07 b0 07 08 
86.577400 1 3c2 Rx d 8 00 55 55 55 00 00 59 45 
86.587900 1 23e Rx d 8 f4 01 3a a6 fa fc cf da 
86.590000 1 545 Rx d 8 02 00 05 00 00 00 60 b1 
86.594200 1 2b4 Rx d 6 14 05 a6 0d c7 00 
86.608900 1 3a1 Rx d 8 2b fa 40 8d 3e 00 d0 c0 
86.614200 1 788 Rx d 8 a8 bc 71 63 00 00 80 00 
86.616900 1 622 Rx d 8 02 10 03 55 55 55 55 55 
86.618600 1 2c2 Rx d 8 4d 5b a9 46 01 00 12 a5 
86.623500 1 545 Rx d 8 f0 00 27 30 95 46 79 e5 
86.623700 1 622 Rx d 8 02 27 05 55 55 55 55 55 
86.628100 1 23e Rx d 8 f4 01 3a a6 fa fc df ea 
86.628300 1 3c2 Rx d 8 29 55 00 00 00 00 00 80 
86.633700 1 622 Rx d 8 30 00 0a 55 55 55 55 55 
86.656000 1 545 Rx d 8 01 00 00 00 00 10 80 db 
86.658900 1 3a1 Rx d 8 e8 42 0d 8a 01 08 e2 6c 
86.659000 1 7a8 Rx d 8 a8 b4 71 63 00 00 82 00 
86.661000 1 3a3 Rx d 8 00 e0 00 00 38 03 fc 01 
86.668700 1 23e Rx d 8 f4 01 3a a6 fa fc ef fa 
86.669700 1 272 Rx d 8 09 80 63 00 00 00 00 00 
86.670800 1 622 Rx d 8 10 12 27 06 35 34 37 36 
86.677100 1 622 Rx d 8 21 31 30 33 32 3d 3c 3f 
86.677300 1 3c2 Rx d 8 00 55 55 55 00 00 59 45 
86.680700 1 622 Rx d 8 22 3e 39 38 3b 3a 55 55 
86.686600 1 622 Rx d 8 10 0b 35 00 44 02 00 00 
86.688800 1 545 Rx d 8 02 00 06 00 00 00 90 e2 
86.693700 1 2b4 Rx d 6 13 05 a6 0d cb 00 
86.694200 1 622 Rx d 8 21 00 00 00 c4 00 55 55 
86.708200 1 23e Rx d 8 f4 01 3a a6 fa fc ff 0a 
86.708900 1 3a1 Rx d 8 2b fa 40 89 3e 00 f0 dc 
86.714200 1 788 Rx d 8 01 00 00 00 ff a1 98 12 
86.718600 1 2c2 Rx d 8 20 40 c0 4b 01 00 00 cb 
86.722000 1 545 Rx d 8 40 01 27 a0 95 4e a9 de 
86.728000 1 3c2 Rx d 8 29 55 00 00 00 00 00 80 
86.748100 1 23e Rx d 8 f4 01 3a a6 fa fc 0f 1a 
86.755000 1 545 Rx d 8 01 00 00 00 00 10 b0 0b 
86.759100 1 3a1 Rx d 8 e8 42 0d 8a 01 08 02 8c 
86.759300 1 7a8 Rx d 8 01 00 00 00 ff a1 98 12 
86.760500 1 3a3 Rx d 8 00 e0 00 00 38 03 fc 01 
86.770000 1 272 Rx d 8 06 00 ef 78 07 b0 07 08 
86.777100 1 23a Rx d 8 19 00 00 00 00 00 00 00 
86.777300 1 3c2 Rx d 8 00 55 55 55 00 00 59 45 
86.787900 1 545 Rx d 8 02 00 06 00 00 00 c0 12 
86.788300 1 23e Rx d 8 f4 01 3a a6 fa fc 1f 2a 
86.793200 1 2b4 Rx d 6 12 05 a7 0d c5 00 
86.808900 1 3a1 Rx d 8 2b fa 40 77 3e 00 10 ea 
86.814200 1 788 Rx d 8 02 40 d1 07 00 00 00 00 
86.818700 1 2c2 Rx d 8 4d 5b a9 46 01 00 12 a5 
86.821000 1 545 Rx d 8 40 01 2c 10 95 49 d9 7e 
86.828100 1 23e Rx d 8 f4 01 3a a6 fa fc 2f 3a 
86.829900 1 3c2 Rx d 8 29 55 00 00 00 00 00 80 
86.854000 1 545 Rx d 8 01 00 00 00 00 10 e0 3b 
86.858900 1 3a1 Rx d 8 e8 42 0d 8a 01 08 22 ac 
86.859500 1 7a8 Rx d 8 02 40 cf 07 00 07 00 00 
86.861000 1 3a3 Rx d 8 00 e0 00 00 38 03 fc 01 
86.868600 1 23e Rx d 8 f4 01 3a a6 fa fc 3f 4a 
86.869200 1 272 Rx d 8 09 80 63 00 00 00 00 00 
86.873900 1 622 Rx d 8 02 36 01 55 55 55 55 55 
86.877500 1 3c2 Rx d 8 00 55 55 55 00 00 59 45 
86.886700 1 622 Rx d 8 30 00 0a 55 55 55 55 55 
86.887900 1 545 Rx d 8 02 00 06 00 00 00 f0 42 
86.893700 1 2b4 Rx d 6 14 05 a7 0d c9 00 
86.908200 1 23e Rx d 8 f4 01 3a a6 fa fc 4f 5a 
86.908900 1 3a1 Rx d 8 2b fa 40 81 3e 00 30 14 
86.914200 1 788 Rx d 8 a8 bc 71 63 00 00 80 00 
86.918700 1 2c2 Rx d 8 20 40 c0 4b 01 00 00 cb 
86.919900 1 545 Rx d 8 f0 00 27 10 95 45 09 54 
86.928100 1 3c2 Rx d 8 29 55 00 00 00 00 00 80 
86.948100 1 23e Rx d 8 f4 01 3a a6 fa fc 5f 6a 
86.953000 1 545 Rx d 8 01 00 00 00 00 10 10 6b 
86.959400 1 3a1 Rx d 8 e8 42 0d 8a 01 08 42 cc 
86.959700 1 7a8 Rx d 8 a8 b4 71 63 00 00 82 00 
86.961000 1 3a3 Rx d 8 00 e0 00 00 38 03 fc 01 
86.969600 1 272 Rx d 8 06 00 ef 78 07 b0 07 08 
86.977400 1 3c2 Rx d 8 00 55 55 55 00 00 59 45 
86.986000 1 545 Rx d 8 02 00 06 00 00 00 20 72 
86.987900 1 23e Rx d 8 f4 01 3a a6 fa fc 6f 7a 
86.993300 1 2b4 Rx d 6 11 05 a6 0d cd 00 
87.008900 1 3a1 Rx d 8 2b fa 40 81 3e 00 50 34 
87.014300 1 788 Rx d 8 01 00 00 00 ff a1 a8 12 
87.018600 1 2c2 Rx d 8 4d 5b a9 46 01 00 12 a5 
87.018900 1 545 Rx d 8 40 01 27 10 95 49 39 d9 
87.028000 1 23e Rx d 8 f4 01 3a a6 fa fc 7f 8a 
87.029900 1 3c2 Rx d 8 29 55 00 00 00 00 00 80 
87.053000 1 545 Rx d 8 01 00 00 00 00 10 40 9b 
87.058900 1 3a1 Rx d 8 e8 42 0d 8a 01 08 62 ec 
87.059000 1 7a8 Rx d 8 01 00 00 00 ff a1 98 12 
87.060900 1 3a3 Rx d 8 00 e0 00 00 38 03 fc 01 
87.068600 1 23e Rx d 8 f4 01 3a a6 fa fc 8f 9a 
87.069600 1 272 Rx d 8 09 80 63 00 00 00 00 00 
87.077500 1 3c2 Rx d 8 00 55 55 55 00 00 59 45 
87.085000 1 545 Rx d 8 02 00 07 00 00 00 50 a3 
87.093200 1 2b4 Rx d 6 13 05 a6 0d c7 00 
87.108200 1 23e Rx d 8 f4 01 3a a6 fa fc 9f aa 
87.108900 1 3a1 Rx d 8 2b fa 40 7f 3e 00 70 52 
87.114300 1 788 Rx d 8 02 40 d0 07 00 00 00 00 
87.118000 1 545 Rx d 8 40 01 27 50 95 48 69 48 
87.118300 1 2c2 Rx d 8 20 40 c0 4b 01 00 00 cb 
87.127800 1 3c2 Rx d 8 29 55 00 00 00 00 00 80 
87.148100 1 23e Rx d 8 f4 01 3a a6 fa fc af ba 
87.151000 1 545 Rx d 8 01 00 00 00 00 10 70 cb 
87.158700 1 7a8 Rx d 8 02 40 d0 07 00 07 00 00 
87.159100 1 3a1 Rx d 8 e8 42 0d 8a 01 08 82 0c 
87.161000 1 3a3 Rx d 8 00 e0 00 00 38 03 fc 01 
87.169600 1 272 Rx d 8 06 00 ef 78 07 b0 07 08 
87.177700 1 3c2 Rx d 8 00 55 55 55 00 00 59 45 
87.184000 1 545 Rx d 8 02 00 07 00 00 00 80 d3 
87.188000 1 23e Rx d 8 f4 01 3a a6 fa fc bf ca 
87.193500 1 2b4 Rx d 6 13 05 a6 0d ca 00 
87.208900 1 3a1 Rx d 8 2b fa 40 89 3e 00 90 7c 
87.214300 1 788 Rx d 8 a8 bc 71 63 00 00 80 00 
87.216900 1 545 Rx d 8 40 01 2c 00 95 48 99 2d 
87.218700 1 2c2 Rx d 8 4d 5b a9 46 01 00 12 a5 
87.228000 1 23e Rx d 8 f4 01 3a a6 fa fc cf da 
87.229900 1 3c2 Rx d 8 29 55 00 00 00 00 00 80 
87.250000 1 545 Rx d 8 01 00 00 00 00 10 a0 fb 
87.258400 1 7a8 Rx d 8 a8 b4 71 63 00 00 82 00 
87.259300 1 3a1 Rx d 8 e8 42 0d 8a 01 08 a2 2c 
87.261000 1 3a3 Rx d 8 00 e0 00 00 38 03 fc 01 
87.268600 1 23e Rx d 8 f4 01 3a a6 fa fc df ea 
87.269600 1 272 Rx d 8 09 80 63 00 00 00 00 00 
87.270100 1 382 Rx d 5 42 18 27 00 00 
87.277600 1 3c2 Rx d 8 00 55 55 55 00 00 59 45 
87.282900 1 545 Rx d 8 02 00 07 00 00 00 b0 03 
87.293300 1 2b4 Rx d 6 12 05 a7 0d c9 00 
87.308200 1 23e Rx d 8 f4 01 3a a6 fa fc ef fa 
87.308900 1 3a1 Rx d 8 2b fa 40 81 3e 00 b0 94 
87.314300 1 788 Rx d 8 01 00 00 00 ff a1 a8 12 
87.315900 1 545 Rx d 8 f0 00 27 60 95 49 c9 68 
87.318700 1 2c2 Rx d 8 20 40 c0 4b 01 00 00 cb 
87.328100 1 3c2 Rx d 8 29 55 00 00 00 00 00 80 
87.348100 1 23e Rx d 8 f4 01 3a a6 fa fc ff 0a 
87.349300 1 545 Rx d 8 01 00 00 00 00 10 d0 2b 
87.359200 1 3a1 Rx d 8 e8 42 0d 8a 01 08 c2 4c 
87.360100 1 7a8 Rx d 8 01 00 00 00 ff a1 98 12 
87.360400 1 3a3 Rx d 8 00 e0 00 00 38 03 fc 01 
87.369600 1 272 Rx d 8 06 00 ef 78 07 b0 07 08 
87.375700 1 373 Rx d 8 09 a2 ab 00 00 de 06 1f 
87.377700 1 3c2 Rx d 8 00 55 55 55 00 00 59 45 
87.382200 1 545 Rx d 8 02 00 07 00 00 00 e0 33 
87.387900 1 23e Rx d 8 f4 01 3a a6 fa fc 0f 1a 
87.393500 1 2b4 Rx d 6 14 05 a6 0d cb 00 
87.408900 1 3a1 Rx d 8 2b fa 40 75 3e 00 d0 a8 
87.414300 1 788 Rx d 8 02 40 ce 07 00 00 00 00 
87.415900 1 545 Rx d 8 f0 00 27 00 95 48 f9 37 
87.418700 1 2c2 Rx d 8 4d 5b a9 46 01 00 12 a5 
87.428100 1 23e Rx d 8 f4 01 3a a6 fa fc 1f 2a 
87.429900 1 3c2 Rx d 8 29 55 00 00 00 00 00 80 
87.450200 1 545 Rx d 8 01 00 00 00 00 10 00 5b 
87.459000 1 3a1 Rx d 8 e8 42 0d 8a 01 08 e2 6c 
87.459100 1 7a8 Rx d 8 02 40 d3 07 00 07 00 00 
87.461000 1 3a3 Rx d 8 00 e0 00 00 38 03 fc 01 
87.468700 1 23e Rx d 8 f4 01 3a a6 fa fc 2f 3a 
87.469700 1 272 Rx d 8 09 80 63 00 00 00 00 00 
87.477600 1 3c2 Rx d 8 00 55 55 55 00 00 59 45 
87.480800 1 545 Rx d 8 02 00 08 00 00 00 10 64 
87.493700 1 2b4 Rx d 6 13 05 a7 0d ca 00 
87.508000 1 23e Rx d 8 f4 01 3a a6 fa fc 3f 4a 
87.508900 1 3a1 Rx d 8 2b fa 40 81 3e 00 f0 d4 
87.513600 1 788 Rx d 8 a8 bc 71 63 00 00 80 00 
87.514000 1 545 Rx d 8 f0 00 27 10 95 45 29 74 
87.518700 1 2c2 Rx d 8 20 40 c0 4b 01 00 00 cb 
87.528100 1 3c2 Rx d 8 29 55 00 00 00 00 00 80 
87.547200 1 545 Rx d 8 01 00 00 00 00 10 30 8b 
87.548100 1 23e Rx d 8 f4 01 3a a6 fa fc 4f 5a 
87.558700 1 2c2 Rx d 8 20 40 c0 4b 05 32 00 cb 
87.559200 1 3a1 Rx d 8 e8 42 0d 8a 01 08 02 8c 
87.559400 1 3c2 Rx d 8 00 55 55 55 40 00 59 45 
87.560000 1 7a8 Rx d 8 a8 b4 71 63 00 00 82 00 
87.561000 1 3a3 Rx d 8 00 e0 00 00 38 03 fc 01 
87.568700 1 2c2 Rx d 8 4d 5b a9 06 00 40 12 a5 
87.569500 1 272 Rx d 8 06 00 ee 70 07 b0 07 08 
87.577500 1 3c2 Rx d 8 00 55 55 55 40 00 59 45 
87.580000 1 545 Rx d 8 02 00 08 00 00 00 40 94 
87.588000 1 23e Rx d 8 f4 01 3a a6 fa fc 5f 6a 
87.593200 1 2b4 Rx d 6 14 05 a7 0d ef 00 
87.608900 1 3a1 Rx d 8 2b fa 40 4f 3e 00 10 c2 
87.612900 1 545 Rx d 8 f0 03 27 10 95 45 59 a7 
87.613100 1 788 Rx d 8 01 00 00 00 ff a1 98 12 
87.618700 1 2c2 Rx d 8 20 40 c0 4b 05 30 3a cc 
87.628100 1 23e Rx d 8 f4 01 3a a6 fa fc 6f 7a 
87.628300 1 3c2 Rx d 8 29 55 00 00 40 00 00 80 
87.646000 1 545 Rx d 8 01 00 00 00 00 10 60 bb 
87.658400 1 7a8 Rx d 8 01 00 00 00 ff a1 98 12 
87.659100 1 3a1 Rx d 8 e8 42 0d 8a 01 08 22 ac 
87.661000 1 3a3 Rx d 8 00 e0 00 00 38 03 fc 01 
87.668700 1 23e Rx d 8 f4 01 3a a6 fa fc 7f 8a 
87.669700 1 272 Rx d 8 09 80 63 00 00 00 00 00 
87.677600 1 3c2 Rx d 8 00 55 55 55 00 00 59 45 
87.678900 1 3c2 Rx d 8 00 55 55 55 00 00 59 45 
87.679800 1 545 Rx d 8 02 00 09 00 00 00 70 c5 
87.692900 1 2b4 Rx d 6 14 05 a6 0d f2 00 
87.708300 1 23e Rx d 8 f4 01 3a a6 fa fc 8f 9a 
87.709000 1 3a1 Rx d 8 2b fa 40 33 3e 00 30 c6 
87.712100 1 545 Rx d 8 d0 05 2c 10 95 45 89 be 
87.714300 1 788 Rx d 8 02 40 cc 07 00 00 00 00 
87.718700 1 2c2 Rx d 8 4d 5b a9 06 00 e0 12 a5 
87.728100 1 3c2 Rx d 8 29 55 00 00 00 00 00 80 
87.745100 1 545 Rx d 8 01 00 00 00 00 10 90 eb 
87.748100 1 23e Rx d 8 f4 01 3a a6 fa fc 9f aa 
87.758500 1 7a8 Rx d 8 02 40 d4 07 00 07 00 00 
87.758800 1 2c2 Rx d 8 20 40 c0 4b 01 00 39 d0 
87.759100 1 3a1 Rx d 8 e8 42 0d 8a 01 08 42 cc 
87.761000 1 3a3 Rx d 8 00 e0 00 00 38 03 fc 01 
87.769000 1 2c2 Rx d 8 4d 5b a9 46 01 00 12 a5 
87.770100 1 272 Rx d 8 06 00 ef 78 07 b0 07 08 
87.777200 1 23a Rx d 8 1a 00 00 00 00 00 00 00 
87.777400 1 3c2 Rx d 8 00 55 55 55 00 00 59 45 
87.778300 1 545 Rx d 8 02 00 0a 00 00 00 a0 f6 
87.788000 1 23e Rx d 8 f4 01 3a a6 fa fc af ba 
87.793200 1 2b4 Rx d 6 13 05 a6 0d c9 00 
87.809000 1 3a1 Rx d 8 2b fa 40 77 3e 00 50 2a 
87.811000 1 545 Rx d 8 40 01 27 60 95 49 b9 a9 
87.814300 1 788 Rx d 8 a8 bc 71 63 00 00 80 00 
87.818700 1 2c2 Rx d 8 20 40 c0 4b 01 00 80 d0 
87.828100 1 23e Rx d 8 f4 01 3a a6 fa fc bf ca 
87.830000 1 3c2 Rx d 8 29 55 00 00 00 00 00 80 
87.843900 1 545 Rx d 8 01 00 00 00 00 10 c0 1b 
87.858400 1 7a8 Rx d 8 a8 b4 71 63 00 00 82 00 
87.859600 1 3a1 Rx d 8 e8 42 0d 8a 01 08 62 ec 
87.860700 1 3a3 Rx d 8 00 e0 00 00 38 03 fc 01 
87.868700 1 23e Rx d 8 f4 01 3a a6 fa fc cf da 
87.869600 1 272 Rx d 8 09 80 63 00 00 00 00 00 
87.877200 1 545 Rx d 8 02 00 0a 00 00 00 d0 26 
87.877600 1 3c2 Rx d 8 00 55 55 55 00 00 59 45 
87.892900 1 2b4 Rx d 6 12 05 a7 0d ca 00 
87.908300 1 23e Rx d 8 f4 01 3a a6 fa fc df ea 
87.909000 1 3a1 Rx d 8 2b fa 40 7f 3e 00 70 52 
87.910100 1 545 Rx d 8 f0 00 22 00 95 44 e9 1e 
87.914300 1 788 Rx d 8 01 00 00 00 ff a1 98 12 
87.918700 1 2c2 Rx d 8 4f 5b a9 46 01 00 12 a5 
87.928100 1 3c2 Rx d 8 29 55 00 00 00 00 00 80 
87.944000 1 545 Rx d 8 01 00 00 00 00 10 f0 4b 
87.948100 1 23e Rx d 8 f4 01 3a a6 fa fc ef fa 
87.959200 1 3a1 Rx d 8 e8 42 0d 8a 01 08 82 0c 
87.959400 1 7a8 Rx d 8 01 00 00 00 ff a1 98 12 
87.961000 1 3a3 Rx d 8 00 e0 00 00 38 03 fc 01 
87.969600 1 272 Rx d 8 06 00 ef 78 07 b0 07 08 
87.975900 1 545 Rx d 8 02 00 09 00 00 00 00 55 
87.977700 1 3c2 Rx d 8 00 55 55 55 00 00 59 45 
87.988000 1 23e Rx d 8 f4 01 3a a6 fa fc ff 0a 
87.994300 1 2b4 Rx d 6 14 05 a7 0d cc 00 
88.504200 1 545 Rx d 8 f0 00 22 00 95 48 09 42 
88.508100 1 23e Rx d 8 f4 01 3a a6 fa fc cf da 
88.509000 1 3a1 Rx d 8 2b fa 40 89 3e 00 30 1c 
88.514400 1 788 Rx d 8 01 00 00 00 ff a1 a8 12 
88.518700 1 2c2 Rx d 8 4f 5b a9 46 01 00 12 a5 
88.528200 1 3c2 Rx d 8 29 55 00 00 00 00 00 80 
88.537000 1 545 Rx d 8 01 00 00 00 00 10 10 6b 
88.548100 1 23e Rx d 8 f4 01 3a a6 fa fc df ea 
88.559300 1 3a1 Rx d 8 e8 42 0d 8a 01 08 42 cc 
88.559400 1 7a8 Rx d 8 01 00 00 00 ff a1 98 12 
88.560800 1 3a3 Rx d 8 00 e0 00 00 38 03 fc 01 
88.569600 1 272 Rx d 8 06 00 ef 78 07 b0 07 08 
88.570200 1 545 Rx d 8 02 00 05 00 00 00 20 71 
88.577500 1 3c2 Rx d 8 00 55 55 55 00 00 59 45 
88.588000 1 23e Rx d 8 f4 01 3a a6 fa fc ef fa 
88.593600 1 2b4 Rx d 6 12 05 a6 0d cb 00 
88.603100 1 545 Rx d 8 f0 00 27 30 95 4a 39 a9 
88.609000 1 3a1 Rx d 8 2b fa 40 79 3e 00 50 2c 
88.614400 1 788 Rx d 8 02 40 ce 07 00 00 00 00 
88.618800 1 2c2 Rx d 8 20 40 c0 4b 01 00 80 d0 
88.628200 1 23e Rx d 8 f4 01 3a a6 fa fc ff 0a 
88.628400 1 3c2 Rx d 8 29 55 00 00 00 00 00 80 
88.635900 1 545 Rx d 8 01 00 00 00 00 10 40 9b 
88.659000 1 3a1 Rx d 8 e8 42 0d 8a 01 08 62 ec 
88.659400 1 7a8 Rx d 8 02 40 d3 07 00 07 00 00 
88.661000 1 3a3 Rx d 8 00 e0 00 00 38 03 fc 01 
88.668700 1 23e Rx d 8 f4 01 3a a6 fa fc 0f 1a 
88.669600 1 272 Rx d 8 09 80 63 00 00 00 00 00 
88.670500 1 545 Rx d 8 02 00 04 00 00 00 50 a0 
88.677600 1 3c2 Rx d 8 00 55 55 55 00 00 59 45 
88.680400 1 622 Rx d 8 02 36 02 55 55 55 55 55 
88.684400 1 622 Rx d 8 30 00 0a 55 55 55 55 55 
88.692800 1 2b4 Rx d 6 11 05 a7 0d ca 00 
88.703800 1 545 Rx d 8 40 01 27 80 95 4b 69 7b 
88.708300 1 23e Rx d 8 f4 01 3a a6 fa fc 1f 2a 
88.709000 1 3a1 Rx d 8 2b fa 40 85 3e 00 70 58 
88.714400 1 788 Rx d 8 a8 bc 71 63 00 00 80 00 
88.718700 1 2c2 Rx d 8 4f 5b a9 46 01 00 12 a5 
88.728100 1 3c2 Rx d 8 29 55 00 00 00 00 00 80 
88.735600 1 545 Rx d 8 01 00 00 00 00 10 70 cb 
88.748300 1 23e Rx d 8 f4 01 3a a6 fa fc 2f 3a 
88.759500 1 3a1 Rx d 8 e8 42 0d 8a 01 08 82 0c 
88.759900 1 7a8 Rx d 8 a8 b4 71 63 00 00 82 00 
88.761000 1 3a3 Rx d 8 00 e0 00 00 38 03 fc 01 
88.768100 1 545 Rx d 8 02 00 04 00 00 00 80 d0 
88.770200 1 272 Rx d 8 06 00 ef 78 07 b0 07 08 
88.777300 1 23a Rx d 8 1b 00 00 00 00 00 00 00 
88.777700 1 3c2 Rx d 8 00 55 55 55 00 00 59 45 
88.788000 1 23e Rx d 8 f4 01 3a a6 fa fc 3f 4a 
88.793300 1 2b4 Rx d 6 11 05 a7 0d c8 00 
88.801000 1 545 Rx d 8 f0 00 27 60 95 49 99 38 
88.809000 1 3a1 Rx d 8 2b fa 40 81 3e 00 90 74 
88.814400 1 788 Rx d 8 01 00 00 00 ff a1 a8 12 
88.818800 1 2c2 Rx d 8 20 40 c0 4b 01 00 80 d0 
88.828200 1 23e Rx d 8 f4 01 3a a6 fa fc 4f 5a 
88.830000 1 3c2 Rx d 8 29 55 00 00 00 00 00 80 
88.834100 1 545 Rx d 8 01 00 00 00 00 10 a0 fb 
88.858500 1 7a8 Rx d 8 01 00 00 00 ff a1 98 12 
88.859400 1 3a1 Rx d 8 e8 42 0d 8a 01 08 a2 2c 
88.860800 1 3a3 Rx d 8 00 e0 00 00 38 03 fc 01 
88.868000 1 545 Rx d 8 02 00 03 00 00 00 b0 ff 
88.868200 1 23e Rx d 8 f4 01 3a a6 fa fc 5f 6a 
88.869600 1 272 Rx d 8 09 80 63 00 00 00 00 00 
88.877600 1 3c2 Rx d 8 00 55 55 55 00 00 59 45 
88.892800 1 2b4 Rx d 6 14 05 a7 0d cc 00 
88.900100 1 545 Rx d 8 f0 00 27 30 95 4a c9 39 
88.908400 1 23e Rx d 8 f4 01 3a a6 fa fc 6f 7a 
88.909000 1 3a1 Rx d 8 2b fa 40 83 3e 00 b0 96 
88.914400 1 788 Rx d 8 02 40 ce 07 00 00 00 00 
88.918800 1 2c2 Rx d 8 4f 5b a9 46 01 00 12 a5 
88.928200 1 3c2 Rx d 8 29 55 00 00 00 00 00 80 
88.933100 1 545 Rx d 8 01 00 00 00 00 10 d0 2b 
88.948100 1 23e Rx d 8 f4 01 3a a6 fa fc 7f 8a 
88.959300 1 3a1 Rx d 8 e8 42 0d 8a 01 08 c2 4c 
88.959400 1 7a8 Rx d 8 02 40 d3 07 00 07 00 00 
88.961000 1 3a3 Rx d 8 00 e0 00 00 38 03 fc 01 
88.966300 1 545 Rx d 8 02 00 03 00 00 00 e0 2f 
88.969600 1 272 Rx d 8 06 00 ef 78 07 b0 07 08 
88.977700 1 3c2 Rx d 8 00 55 55 55 00 00 59 45 
88.988000 1 23e Rx d 8 f4 01 3a a6 fa fc 8f 9a 
88.992800 1 2b4 Rx d 6 12 05 a6 0d cb 00 
88.999200 1 545 Rx d 8 f0 00 22 60 95 49 f9 93 
89.009100 1 3a1 Rx d 8 2b fa 40 77 3e 00 d0 aa 
89.014400 1 788 Rx d 8 a8 bc 71 63 00 00 80 00 
89.018800 1 2c2 Rx d 8 20 40 c0 4b 01 00 80 d0 
89.028200 1 23e Rx d 8 f4 01 3a a6 fa fc 9f aa 
89.030100 1 3c2 Rx d 8 29 55 00 00 00 00 00 80 
89.033600 1 545 Rx d 8 01 00 00 00 00 10 00 5b 
89.058500 1 7a8 Rx d 8 a8 b4 71 63 00 00 82 00 
89.059400 1 3a1 Rx d 8 e8 42 0d 8a 01 08 e2 6c 
89.061000 1 3a3 Rx d 8 00 e0 00 00 38 03 fc 01 
89.066400 1 545 Rx d 8 02 00 03 00 00 00 10 5f 
89.068600 1 23e Rx d 8 f4 01 3a a6 fa fc af ba 
89.069600 1 272 Rx d 8 09 80 63 00 00 00 00 00 
89.077800 1 3c2 Rx d 8 00 55 55 55 00 00 59 45 
89.093000 1 2b4 Rx d 6 13 05 a6 0d c8 00 
89.098200 1 545 Rx d 8 f0 00 27 30 95 4a 29 99 
89.108400 1 23e Rx d 8 f4 01 3a a6 fa fc bf ca 
89.109000 1 3a1 Rx d 8 2b fa 40 8d 3e 00 f0 e0 
89.114400 1 788 Rx d 8 01 00 00 00 ff a1 a8 12 
89.118700 1 2c2 Rx d 8 4f 5b a9 46 01 00 12 a5 
89.128000 1 3c2 Rx d 8 29 55 00 00 00 00 00 80 
89.131100 1 545 Rx d 8 01 00 00 00 00 10 30 8b 
89.148100 1 23e Rx d 8 f4 01 3a a6 fa fc cf da 
89.159300 1 3a1 Rx d 8 e8 42 0d 8a 01 08 02 8c 
89.159400 1 7a8 Rx d 8 01 00 00 00 ff a1 98 12 
89.161100 1 3a3 Rx d 8 00 e0 00 00 38 03 fc 01 
89.164000 1 545 Rx d 8 02 00 02 00 00 00 40 8e 
89.169600 1 272 Rx d 8 06 00 ef 78 07 b0 07 08 
89.177700 1 3c2 Rx d 8 00 55 55 55 00 00 59 45 
89.188000 1 23e Rx d 8 f4 01 3a a6 fa fc df ea 
89.192900 1 2b4 Rx d 6 12 05 a7 0d ca 00 
89.197200 1 545 Rx d 8 40 01 27 70 95 4a 59 5a 
89.209000 1 3a1 Rx d 8 2b fa 40 83 3e 00 10 f6 
89.214400 1 788 Rx d 8 02 40 d2 07 00 00 00 00 
89.218900 1 2c2 Rx d 8 20 40 c0 4b 01 00 80 d0 
89.228200 1 23e Rx d 8 f4 01 3a a6 fa fc ef fa 
89.229800 1 3c2 Rx d 8 29 55 00 00 00 00 00 80 
89.230100 1 545 Rx d 8 01 00 00 00 00 10 60 bb 
89.258500 1 7a8 Rx d 8 02 40 d5 07 00 07 00 00 
89.259200 1 3a1 Rx d 8 e8 42 0d 8a 01 08 22 ac 
89.260700 1 3a3 Rx d 8 00 e0 00 00 38 03 fc 01 
89.263600 1 545 Rx d 8 02 00 02 00 00 00 70 be 
89.268600 1 23e Rx d 8 f4 01 3a a6 fa fc ff 0a 
89.269600 1 272 Rx d 8 09 80 63 00 00 00 00 00 
89.270100 1 382 Rx d 5 42 18 27 00 00 
89.277600 1 3c2 Rx d 8 00 55 55 55 00 00 59 45 
89.293000 1 2b4 Rx d 6 12 05 a6 0d cb 00 
89.296200 1 545 Rx d 8 f0 00 22 30 95 46 89 f0 
89.308400 1 23e Rx d 8 f4 01 3a a6 fa fc 0f 1a 
89.309100 1 3a1 Rx d 8 2b fa 40 83 3e 00 30 16 
89.314400 1 788 Rx d 8 a8 bc 71 63 00 00 80 00 
89.318800 1 2c2 Rx d 8 4f 5b a9 46 01 00 12 a5 
89.328200 1 3c2 Rx d 8 29 55 00 00 00 00 00 80 
89.329200 1 545 Rx d 8 01 00 00 00 00 10 90 eb 
89.348100 1 23e Rx d 8 f4 01 3a a6 fa fc 1f 2a 
89.359300 1 3a1 Rx d 8 e8 42 0d 8a 01 08 42 cc 
89.360000 1 7a8 Rx d 8 a8 b4 71 63 00 00 82 00 
89.360800 1 3a3 Rx d 8 00 e0 00 00 38 03 fc 01 
89.362300 1 545 Rx d 8 02 00 02 00 00 00 a0 ee 
89.369500 1 272 Rx d 8 06 00 ef 78 07 b0 07 08 
89.375300 1 373 Rx d 8 0d a2 ab 00 00 de 06 1f 
89.377700 1 3c2 Rx d 8 00 55 55 55 00 00 59 45 
89.388100 1 23e Rx d 8 f4 01 3a a6 fa fc 2f 3a 
89.393400 1 2b4 Rx d 6 12 05 a6 0d c8 00 
89.395000 1 545 Rx d 8 f0 00 27 60 95 49 b9 58 
89.409100 1 3a1 Rx d 8 2b fa 40 81 3e 00 50 34 
89.414400 1 788 Rx d 8 01 00 00 00 ff a1 98 12 
89.418900 1 2c2 Rx d 8 20 40 c0 4b 01 00 80 d0 
89.428000 1 3c2 Rx d 8 29 55 00 00 00 00 00 80 
89.428200 1 545 Rx d 8 01 00 00 00 00 10 c0 1b 
89.428500 1 23e Rx d 8 f4 01 3a a6 fa fc 3f 4a 
89.458900 1 7a8 Rx d 8 01 00 00 00 ff a1 98 12 
89.459000 1 3a1 Rx d 8 e8 42 0d 8a 01 08 62 ec 
89.460800 1 3a3 Rx d 8 00 e0 00 00 38 03 fc 01 
89.461100 1 545 Rx d 8 02 00 02 00 00 00 d0 1e 
89.468200 1 23e Rx d 8 f4 01 3a a6 fa fc 4f 5a 
89.469700 1 272 Rx d 8 09 80 63 00 00 00 00 00 
89.477600 1 3c2 Rx d 8 00 55 55 55 00 00 59 45 
89.492800 1 2b4 Rx d 6 13 05 a6 0d cb 00 
89.494400 1 545 Rx d 8 f0 00 27 00 95 48 e9 27 
89.508100 1 23e Rx d 8 f4 01 3a a6 fa fc 5f 6a 
89.509100 1 3a1 Rx d 8 2b fa 40 89 3e 00 70 5c 
89.514400 1 788 Rx d 8 02 40 d0 07 00 00 00 00 
89.518800 1 2c2 Rx d 8 4f 5b a9 46 01 00 12 a5 
89.528500 1 3c2 Rx d 8 29 55 00 00 00 00 00 80 
89.528700 1 545 Rx d 8 01 00 00 00 00 10 f0 4b 
89.548100 1 23e Rx d 8 f4 01 3a a6 fa fc 6f 7a 
89.559400 1 3a1 Rx d 8 e8 42 0d 8a 01 08 82 0c 
89.559800 1 7a8 Rx d 8 02 40 d0 07 00 07 00 00 
89.560000 1 545 Rx d 8 02 00 02 00 00 00 00 4e 
89.561100 1 3a3 Rx d 8 00 e0 00 00 38 03 fc 01 
89.569600 1 272 Rx d 8 06 00 ef 78 07 b0 07 08 
89.577800 1 3c2 Rx d 8 00 55 55 55 00 00 59 45 
89.588100 1 23e Rx d 8 f4 01 3a a6 fa fc 7f 8a 
89.592900 1 2b4 Rx d 6 15 05 a7 0d cd 00 
89.594500 1 545 Rx d 8 40 01 22 10 95 49 19 b4 
89.609000 1 3a1 Rx d 8 2b fa 40 81 3e 00 90 74 
89.614400 1 788 Rx d 8 a8 bc 71 63 00 00 80 00 
89.618900 1 2c2 Rx d 8 20 40 c0 4b 01 00 80 d0 
89.626400 1 545 Rx d 8 01 00 00 00 00 10 20 7b 
89.628300 1 23e Rx d 8 f4 01 3a a6 fa fc 8f 9a 
89.628500 1 3c2 Rx d 8 29 55 00 00 00 00 00 80 
89.658600 1 7a8 Rx d 8 a8 b4 71 63 00 00 82 00 
89.659700 1 3a1 Rx d 8 e8 42 0d 8a 01 08 a2 2c 
89.660500 1 545 Rx d 8 02 00 02 00 00 00 30 7e 
89.661100 1 3a3 Rx d 8 00 e0 00 00 38 03 fc 01 
89.668700 1 23e Rx d 8 f4 01 3a a6 fa fc 9f aa 
89.669600 1 272 Rx d 8 09 80 63 00 00 00 00 00 
89.677600 1 3c2 Rx d 8 00 55 55 55 00 00 59 45 
89.692900 1 2b4 Rx d 6 14 05 a6 0d c8 00 
89.694500 1 545 Rx d 8 f0 00 27 10 95 45 49 94 
89.708400 1 23e Rx d 8 f4 01 3a a6 fa fc af ba 
89.709100 1 3a1 Rx d 8 2b fa 40 81 3e 00 b0 94 
89.714400 1 788 Rx d 8 01 00 00 00 ff a1 a8 12 
89.718800 1 2c2 Rx d 8 4f 5b a9 46 01 00 12 a5 
89.726800 1 545 Rx d 8 01 00 00 00 00 10 50 ab 
89.728200 1 3c2 Rx d 8 29 55 00 00 00 00 00 80 
89.748100 1 23e Rx d 8 f4 01 3a a6 fa fc bf ca 
89.758100 1 545 Rx d 8 02 00 02 00 00 00 60 ae 
89.758900 1 2c2 Rx d 8 24 72 c0 4b 01 00 80 d0 
89.759600 1 3a1 Rx d 8 e8 42 0d 8a 01 08 c2 4c 
89.759800 1 3c2 Rx d 8 00 55 55 55 04 00 59 45 
89.760200 1 7a8 Rx d 8 01 00 00 00 ff a1 98 12 
89.761100 1 3a3 Rx d 8 00 e0 00 00 38 03 fc 01 
89.769200 1 2c2 Rx d 8 4f 03 a8 46 81 00 12 a5 
89.770300 1 272 Rx d 8 06 00 ee 70 07 b0 07 08 
89.777300 1 23a Rx d 8 1c 00 00 00 00 00 00 00 
89.777500 1 3c2 Rx d 8 00 55 55 55 04 00 59 45 
89.788100 1 23e Rx d 8 f4 01 3a a6 fa fc cf da 
89.792900 1 2b4 Rx d 6 16 05 a6 0d f1 00 
89.794500 1 545 Rx d 8 d0 05 27 10 95 45 79 a9 
89.809100 1 3a1 Rx d 8 2b fa 40 4f 3e 00 d0 82 
89.814500 1 788 Rx d 8 02 40 d0 07 00 00 00 00 
89.818900 1 2c2 Rx d 8 24 70 f9 4c 01 00 80 d0 
89.824200 1 545 Rx d 8 01 00 00 00 00 10 80 db 
89.828300 1 3c2 Rx d 8 29 55 00 00 00 00 00 80 
89.830100 1 23e Rx d 8 f4 01 3a a6 fa fc df ea 
89.857200 1 545 Rx d 8 02 00 01 00 00 00 90 dd 
89.859100 1 3a1 Rx d 8 e8 42 0d 8a 01 08 e2 6c 
89.860200 1 7a8 Rx d 8 02 40 d1 07 00 07 00 00 
89.861100 1 3a3 Rx d 8 00 e0 00 00 38 03 fc 01 
89.868700 1 23e Rx d 8 f4 01 3a a6 fa fc ef fa 
89.869700 1 272 Rx d 8 09 80 63 00 00 00 00 00 
89.877600 1 3c2 Rx d 8 00 55 55 55 04 00 59 45 
89.890200 1 545 Rx d 8 a0 07 27 d0 94 45 a9 6a 
89.892900 1 2b4 Rx d 6 15 05 a6 0d 00 01 
89.908400 1 23e Rx d 8 f4 01 3a a6 fa fc ff 0a 
89.909100 1 3a1 Rx d 8 2b fa 40 0b 3e 00 f0 5e 
89.914500 1 788 Rx d 8 a4 bc 71 63 00 00 80 00 
89.918800 1 2c2 Rx d 8 4f 03 a8 46 81 00 12 a5 
89.923200 1 545 Rx d 8 01 00 00 00 00 10 b0 0b 
89.928200 1 3c2 Rx d 8 29 55 00 00 00 00 00 80 
89.948300 1 23e Rx d 8 f4 01 3a a6 fa fc 0f 1a 
89.956200 1 545 Rx d 8 02 00 01 00 00 00 c0 0d 
89.959400 1 3a1 Rx d 8 e8 42 0d 8a 01 08 02 8c 
89.959700 1 7a8 Rx d 8 a4 b4 71 63 00 00 82 00 
89.961100 1 3a3 Rx d 8 00 e0 00 00 38 03 fc 01 
89.969600 1 272 Rx d 8 06 00 ee 70 07 b0 07 08 
89.970400 1 3c2 Rx d 8 00 55 55 55 00 00 59 45 
89.977800 1 3c2 Rx d 8 00 55 55 55 00 00 59 45 
89.988100 1 23e Rx d 8 f4 01 3a a6 fa fc 1f 2a 
89.989200 1 545 Rx d 8 a0 07 27 10 95 45 d9 db 
89.992900 1 2b4 Rx d 6 12 05 a6 0d fa 00 
103.508400 1 23e Rx d 8 f4 01 3a a5 fa fc 3f 49 
103.509900 1 3a1 Rx d 8 2b fa 40 81 3e 00 f0 d4 
103.515400 1 788 Rx d 8 01 00 00 00 ff a1 a8 12 
103.519600 1 2c2 Rx d 8 20 40 c0 52 01 00 80 d0 
103.521100 1 545 Rx d 8 02 00 05 00 00 00 70 c1 
103.529100 1 3c2 Rx d 8 29 55 00 00 00 00 00 80 
103.548600 1 23e Rx d 8 f4 01 3a a5 fa fc 4f 59 
103.553100 1 545 Rx d 8 f0 00 27 50 95 48 89 17 
103.560100 1 3a1 Rx d 8 e8 42 0d 8a 01 08 02 8c 
103.560400 1 7a8 Rx d 8 01 00 00 00 ff a1 98 12 
103.561600 1 3a3 Rx d 8 00 e0 00 00 38 03 fc 01 
103.570300 1 272 Rx d 8 06 00 ef 78 07 b0 07 08 
103.579400 1 3c2 Rx d 8 00 55 55 55 00 00 59 45 
103.586100 1 545 Rx d 8 01 00 00 00 00 10 90 eb 
103.589000 1 23e Rx d 8 f4 01 3a a5 fa fc 5f 69 
103.592300 1 2b4 Rx d 6 12 05 a6 0d c7 00 
103.610100 1 3a1 Rx d 8 2b fa 40 75 3e 00 10 e8 
103.615400 1 788 Rx d 8 02 40 cf 07 00 00 00 00 
103.619100 1 545 Rx d 8 02 00 05 00 00 00 a0 f1 
103.619400 1 2c2 Rx d 8 53 a3 a8 46 01 00 12 a5 
103.628600 1 23e Rx d 8 f4 01 3a a5 fa fc 6f 79 
103.629500 1 3c2 Rx d 8 29 55 00 00 00 00 00 80 
103.651900 1 545 Rx d 8 f0 00 27 30 95 4a b9 29 
103.659500 1 7a8 Rx d 8 02 40 d4 07 00 07 00 00 
103.660000 1 3a1 Rx d 8 e8 42 0d 8a 01 08 22 ac 
103.661600 1 3a3 Rx d 8 00 e0 00 00 38 03 fc 01 
103.668700 1 23e Rx d 8 f4 01 3a a5 fa fc 7f 89 
103.670500 1 272 Rx d 8 09 80 63 00 00 00 00 00 
103.679400 1 3c2 Rx d 8 00 55 55 55 00 00 59 45 
103.685100 1 545 Rx d 8 01 00 00 00 00 10 c0 1b 
103.692400 1 2b4 Rx d 6 14 05 a6 0d cd 00 
103.709400 1 23e Rx d 8 f4 01 3a a5 fa fc 8f 99 
103.710100 1 3a1 Rx d 8 2b fa 40 83 3e 00 30 16 
103.715400 1 788 Rx d 8 a8 bc 71 63 00 00 80 00 
103.718000 1 545 Rx d 8 02 00 04 00 00 00 d0 20 
103.719700 1 2c2 Rx d 8 20 40 c0 52 01 00 80 d0 
103.729000 1 3c2 Rx d 8 29 55 00 00 00 00 00 80 
103.748600 1 23e Rx d 8 f4 01 3a a5 fa fc 9f a9 
103.751100 1 545 Rx d 8 40 01 27 00 95 48 e9 78 
103.759700 1 7a8 Rx d 8 a8 b4 71 63 00 00 82 00 
103.760000 1 3a1 Rx d 8 e8 42 0d 8a 01 08 42 cc 
103.761600 1 3a3 Rx d 8 00 e0 00 00 38 03 fc 01 
103.770400 1 272 Rx d 8 06 00 ef 78 07 b0 07 08 
103.778300 1 23a Rx d 8 04 00 00 00 00 00 00 00 
103.778700 1 3c2 Rx d 8 00 55 55 55 00 00 59 45 
103.784100 1 545 Rx d 8 01 00 00 00 00 10 f0 4b 
103.789000 1 23e Rx d 8 f4 01 3a a5 fa fc af b9 
103.792600 1 2b4 Rx d 6 14 05 a6 0d ce 00 
103.810100 1 3a1 Rx d 8 2b fa 40 7f 3e 00 50 32 
103.815400 1 788 Rx d 8 01 00 00 00 ff a1 a8 12 
103.817000 1 545 Rx d 8 02 00 04 00 00 00 00 50 
103.820000 1 2c2 Rx d 8 53 a3 a8 46 01 00 12 a5 
103.828600 1 23e Rx d 8 f4 01 3a a5 fa fc bf c9 
103.831100 1 3c2 Rx d 8 29 55 00 00 00 00 00 80 
103.850100 1 545 Rx d 8 f0 00 27 50 95 48 19 a7 
103.860100 1 3a1 Rx d 8 e8 42 0d 8a 01 08 62 ec 
103.861100 1 7a8 Rx d 8 01 00 00 00 ff a1 98 12 
103.862300 1 3a3 Rx d 8 00 e0 00 00 38 03 fc 01 
103.868500 1 23e Rx d 8 f4 01 3a a5 fa fc cf d9 
103.870400 1 272 Rx d 8 09 80 63 00 00 00 00 00 
103.879400 1 3c2 Rx d 8 00 55 55 55 00 00 59 45 
103.883200 1 545 Rx d 8 01 00 00 00 00 10 20 7b 
103.892400 1 2b4 Rx d 6 13 05 a6 0d c4 00 
103.909400 1 23e Rx d 8 f4 01 3a a5 fa fc df e9 
103.910100 1 3a1 Rx d 8 2b fa 40 75 3e 00 70 48 
103.915400 1 788 Rx d 8 02 40 d1 07 00 00 00 00 
103.917000 1 545 Rx d 8 02 00 03 00 00 00 30 7f 
103.919400 1 2c2 Rx d 8 20 40 c0 52 01 00 80 d0 
103.929100 1 3c2 Rx d 8 29 55 00 00 00 00 00 80 
103.948800 1 23e Rx d 8 f4 01 3a a5 fa fc ef f9 
103.949200 1 545 Rx d 8 f0 00 27 10 95 49 49 98 
103.959700 1 7a8 Rx d 8 02 40 d5 07 00 07 00 00 
103.960100 1 3a1 Rx d 8 e8 42 0d 8a 01 08 82 0c 
103.961700 1 3a3 Rx d 8 00 e0 00 00 38 03 fc 01 
103.970500 1 272 Rx d 8 06 00 ef 78 07 b0 07 08 
103.978700 1 3c2 Rx d 8 00 55 55 55 00 00 59 45 
103.981900 1 545 Rx d 8 01 00 00 00 00 10 50 ab 
103.989100 1 23e Rx d 8 f4 01 3a a5 fa fc ff 09 
103.992400 1 2b4 Rx d 6 14 05 a6 0d cb 00 
104.010100 1 3a1 Rx d 8 2b fa 40 81 3e 00 90 74 
104.014700 1 788 Rx d 8 a8 bc 71 63 00 00 80 00 
104.015100 1 545 Rx d 8 02 00 03 00 00 00 60 af 
104.020000 1 2c2 Rx d 8 53 a3 a8 46 01 00 12 a5 
104.028500 1 23e Rx d 8 f4 01 3a a5 fa fc 0f 19 
104.031100 1 3c2 Rx d 8 29 55 00 00 00 00 00 80 
104.049300 1 545 Rx d 8 f0 00 27 30 95 4a 79 e9 
104.060100 1 3a1 Rx d 8 e8 42 0d 8a 01 08 a2 2c 
104.060700 1 7a8 Rx d 8 a8 b4 71 63 00 00 82 00 
104.061700 1 3a3 Rx d 8 00 e0 00 00 38 03 fc 01 
104.069000 1 23e Rx d 8 f4 01 3a a5 fa fc 1f 29 
104.070600 1 272 Rx d 8 09 80 63 00 00 00 00 00 
104.079400 1 3c2 Rx d 8 00 55 55 55 00 00 59 45 
104.081100 1 545 Rx d 8 01 00 00 00 00 10 80 db 
104.092300 1 2b4 Rx d 6 14 05 a7 0d d0 00 
104.109400 1 23e Rx d 8 f4 01 3a a5 fa fc 2f 39 
104.110100 1 3a1 Rx d 8 2b fa 40 79 3e 00 b0 8c 
104.114100 1 545 Rx d 8 02 00 03 00 00 00 90 df 
104.114300 1 788 Rx d 8 01 00 00 00 ff a1 a8 12 
104.119700 1 2c2 Rx d 8 20 40 c0 52 01 00 80 d0 
104.128800 1 3c2 Rx d 8 29 55 00 00 00 00 00 80 
104.147200 1 545 Rx d 8 f0 00 27 00 95 44 a9 e3 
104.148600 1 23e Rx d 8 f4 01 3a a5 fa fc 3f 49 
104.159700 1 7a8 Rx d 8 01 00 00 00 ff a1 98 12 
104.160100 1 3a1 Rx d 8 e8 42 0d 8a 01 08 c2 4c 
104.162000 1 3a3 Rx d 8 00 e0 00 00 38 03 fc 01 
104.170500 1 272 Rx d 8 06 00 ef 78 07 b0 07 08 
104.179400 1 3c2 Rx d 8 00 55 55 55 00 00 59 45 
104.180200 1 545 Rx d 8 01 00 00 00 00 10 b0 0b 
104.189100 1 23e Rx d 8 f4 01 3a a5 fa fc 4f 59 
104.192600 1 2b4 Rx d 6 12 05 a7 0d c8 00 
104.210100 1 3a1 Rx d 8 2b fa 40 6b 3e 00 d0 9e 
104.213200 1 545 Rx d 8 02 00 03 00 00 00 c0 0f 
104.215400 1 788 Rx d 8 02 40 d1 07 00 00 00 00 
104.220000 1 2c2 Rx d 8 53 a3 a8 46 01 00 12 a5 
104.228600 1 23e Rx d 8 f4 01 3a a5 fa fc 5f 69 
104.231100 1 3c2 Rx d 8 29 55 00 00 00 00 00 80 
104.246200 1 545 Rx d 8 f0 00 2c 10 95 49 d9 2d 
104.260200 1 3a1 Rx d 8 e8 42 0d 8a 01 08 e2 6c 
104.260300 1 7a8 Rx d 8 02 40 d3 07 00 07 00 00 
104.261700 1 3a3 Rx d 8 00 e0 00 00 38 03 fc 01 
104.268900 1 23e Rx d 8 f4 01 3a a5 fa fc 6f 79 
104.270600 1 272 Rx d 8 09 80 63 00 00 00 00 00 
104.271400 1 382 Rx d 5 42 19 27 00 00 
104.278800 1 3c2 Rx d 8 00 55 55 55 00 00 59 45 
104.278900 1 545 Rx d 8 01 00 00 00 00 10 e0 3b 
104.292300 1 2b4 Rx d 6 13 05 a6 0d cd 00 
104.309400 1 23e Rx d 8 f4 01 3a a5 fa fc 7f 89 
104.310100 1 3a1 Rx d 8 2b fa 40 81 3e 00 f0 d4 
104.314100 1 545 Rx d 8 02 00 03 00 00 00 f0 3f 
104.315400 1 788 Rx d 8 a8 bc 71 63 00 00 80 00 
104.319700 1 2c2 Rx d 8 20 40 c0 52 01 00 80 d0 
104.329100 1 3c2 Rx d 8 29 55 00 00 00 00 00 80 
104.345100 1 545 Rx d 8 40 01 27 60 95 49 09 f9 
104.348900 1 23e Rx d 8 f4 01 3a a5 fa fc 8f 99 
104.359700 1 7a8 Rx d 8 a8 b4 71 63 00 00 82 00 
104.360000 1 3a1 Rx d 8 e8 42 0d 8a 01 08 02 8c 
104.362000 1 3a3 Rx d 8 00 e0 00 00 38 03 fc 01 
104.368500 1 373 Rx d 8 0a a2 ab 00 00 de 06 1f 
104.370500 1 272 Rx d 8 06 00 ef 78 07 b0 07 08 
104.379000 1 3c2 Rx d 8 00 55 55 55 00 00 59 45 
104.379500 1 545 Rx d 8 01 00 00 00 00 10 10 6b 
104.389100 1 23e Rx d 8 f4 01 3a a5 fa fc 9f a9 
104.392600 1 2b4 Rx d 6 12 05 a6 0d ce 00 
104.409900 1 3a1 Rx d 8 2b fa 40 81 3e 00 10 f4 
104.411200 1 545 Rx d 8 02 00 03 00 00 00 20 6f 
104.415400 1 788 Rx d 8 01 00 00 00 ff a1 a8 12 
104.419700 1 2c2 Rx d 8 53 a3 a8 46 01 00 12 a5 
104.428600 1 23e Rx d 8 f4 01 3a a5 fa fc af b9 
104.431100 1 3c2 Rx d 8 29 55 00 00 00 00 00 80 
104.444300 1 545 Rx d 8 40 01 27 10 95 45 39 d5 
104.459900 1 2c2 Rx d 8 22 50 c0 52 01 00 80 d0 
