date Mon Aug 24 05:50:40 PM 2026
base hex timestamps absolute
// version 7.0.0
19.500400 1 132 Rx d 6 62 88 f7 ff 28 40 
19.506000 1 3a1 Rx d 8 2b fa 40 6b 3e 00 f0 be 
19.507500 1 788 Rx d 8 01 00 00 00 ff a1 98 12 
19.510300 1 132 Rx d 6 58 88 f7 ff 28 40 
19.510500 1 372 Rx d 8 0d 32 00 00 00 40 79 88 
19.514600 1 2c2 Rx d 8 55 63 a8 46 01 00 1a a5 
19.520200 1 45a Rx d 8 fd 07 f8 ff 03 00 00 50 
19.520600 1 132 Rx d 6 65 88 f7 ff 25 40 
19.523700 1 301 Rx d 8 1f 00 00 00 f6 71 80 49 
19.523900 1 3c2 Rx d 8 29 55 00 00 00 00 00 80 
19.529800 1 3a2 Rx d 8 01 10 20 00 07 f0 ff 00 
19.530300 1 132 Rx d 6 51 88 f7 ff 27 40 
19.530800 1 545 Rx d 8 01 00 00 00 00 10 60 bb 
19.537600 1 400 Rx d 7 b2 c0 6b bf ef fb 00 
19.540900 1 132 Rx d 6 6b 88 f8 ff 28 40 
19.543500 1 234 Rx d 8 24 e1 03 80 43 00 94 fa 
19.549100 1 302 Rx d 8 1f 00 00 00 fa 1c 67 6c 
19.550500 1 132 Rx d 6 68 88 f8 ff 28 40 
19.553700 1 7a8 Rx d 8 01 00 00 00 ff a1 98 12 
19.555600 1 3a1 Rx d 8 e8 42 0d 8a 01 08 02 8c 
19.560400 1 132 Rx d 6 5e 88 f8 ff 25 40 
19.563600 1 3a2 Rx d 8 82 2a 00 00 20 00 00 00 
19.564500 1 545 Rx d 8 02 00 02 00 00 00 70 be 
19.564800 1 272 Rx d 8 06 00 ef 78 07 b0 07 08 
19.570300 1 45a Rx d 8 20 4b 4b cb 3f 49 00 6b 
19.570600 1 132 Rx d 6 5e 88 f8 ff 28 40 
19.570800 1 372 Rx d 8 0e 00 00 0c 06 7d 00 00 
19.573700 1 3c2 Rx d 8 00 55 55 55 00 00 59 45 
19.582600 1 132 Rx d 6 65 88 f8 ff 29 40 
19.590200 1 132 Rx d 6 63 88 f7 ff 24 40 
19.594600 1 234 Rx d 8 1b b0 01 24 91 04 a0 c0 
19.595200 1 2c4 Rx d 8 55 00 01 08 20 00 ff 00 
19.595900 1 3a2 Rx d 8 60 85 f2 aa 04 80 c0 73 
19.596600 1 2b4 Rx d 6 13 05 a6 0d cc 00 
19.597200 1 545 Rx d 8 40 01 27 30 95 4a 89 4a 
19.600300 1 132 Rx d 6 5c 88 f7 ff 24 40 
19.604900 1 3a1 Rx d 8 2b fa 40 79 3e 00 10 ec 
19.609100 1 788 Rx d 8 02 40 d0 07 00 00 00 00 
19.610500 1 132 Rx d 6 5a 88 f8 ff 25 40 
19.615400 1 2c2 Rx d 8 20 40 40 6a 01 00 00 cb 
19.618200 1 303 Rx d 8 1f 00 00 00 ff ff ff ff 
19.620400 1 132 Rx d 6 55 88 f8 ff 2a 40 
19.620600 1 45a Rx d 8 fd 07 f8 ff 03 00 00 50 
19.623700 1 3c2 Rx d 8 29 55 00 00 00 00 00 80 
19.628700 1 3a2 Rx d 8 01 10 20 00 0b f0 ff 00 
19.629100 1 545 Rx d 8 01 00 00 00 00 10 90 eb 
19.631200 1 132 Rx d 6 63 88 f7 ff 28 40 
19.637600 1 400 Rx d 7 b2 e0 6b bf ef fb 00 
19.640900 1 132 Rx d 6 62 88 f7 ff 28 40 
19.643100 1 234 Rx d 8 24 e1 03 80 43 00 b4 1a 
19.650500 1 132 Rx d 6 5f 88 f7 ff 28 40 
19.653900 1 7a8 Rx d 8 02 40 d0 07 00 07 00 00 
19.655400 1 3a1 Rx d 8 e8 42 0d 8a 01 08 22 ac 
19.660200 1 132 Rx d 6 5e 88 f7 ff 27 40 
19.662300 1 3a2 Rx d 8 82 2a 00 00 20 00 00 00 
19.663700 1 545 Rx d 8 02 00 02 00 00 00 a0 ee 
19.664900 1 272 Rx d 8 09 80 63 00 00 00 00 00 
19.670300 1 45a Rx d 8 20 4b 4b cb 3f 49 00 6b 
19.670600 1 132 Rx d 6 60 88 f8 ff 27 40 
19.673600 1 3c2 Rx d 8 00 55 55 55 00 00 59 45 
19.680300 1 132 Rx d 6 60 88 f7 ff 28 40 
19.690200 1 132 Rx d 6 69 88 f7 ff 25 40 
19.694500 1 234 Rx d 8 1b b0 01 25 95 04 c0 e5 
19.694700 1 3a2 Rx d 8 60 85 f2 aa 04 80 c0 73 
19.695000 1 545 Rx d 8 40 01 27 10 95 49 b9 59 
19.695300 1 2c4 Rx d 8 16 c0 b4 02 00 00 00 01 
19.697200 1 2b4 Rx d 6 15 05 a7 0d cf 00 
19.700300 1 132 Rx d 6 62 88 f7 ff 27 40 
19.705700 1 3a1 Rx d 8 2b fa 40 77 3e 00 30 0a 
19.707500 1 788 Rx d 8 a8 bc 71 63 00 00 80 00 
19.710500 1 132 Rx d 6 58 88 f7 ff 27 40 
19.714600 1 2c2 Rx d 8 55 63 a8 46 01 00 1a a5 
19.720200 1 45a Rx d 8 fd 07 f8 ff 03 00 00 50 
19.720600 1 132 Rx d 6 5f 88 f8 ff 28 40 
19.721600 1 300 Rx d 8 0a 01 6d 10 04 00 88 00 
19.722300 1 3f2 Rx d 8 06 73 79 38 a0 1c ad 03 
19.723900 1 3c2 Rx d 8 29 55 00 00 00 00 00 80 
19.727700 1 3a2 Rx d 8 01 10 20 00 09 f0 ff 00 
19.729100 1 545 Rx d 8 01 00 00 00 00 10 c0 1b 
19.730200 1 132 Rx d 6 6d 88 f7 ff 25 40 
19.731100 1 709 Rx d 8 1c d8 05 c6 01 24 2a 00 
19.731300 1 372 Rx d 8 00 08 80 94 92 11 28 25 
19.737700 1 400 Rx d 7 b2 e0 6b bf ef fb 00 
19.740900 1 132 Rx d 6 61 88 f8 ff 27 40 
19.743500 1 234 Rx d 8 25 e1 03 80 43 00 d4 3b 
19.750300 1 132 Rx d 6 65 88 f8 ff 28 40 
19.753400 1 7a8 Rx d 8 a8 b4 71 63 00 00 82 00 
19.755600 1 3a1 Rx d 8 e8 42 0d 8a 01 08 42 cc 
19.760200 1 132 Rx d 6 5a 88 f8 ff 28 40 
19.760700 1 3a2 Rx d 8 92 2a 00 00 20 00 00 00 
19.761000 1 545 Rx d 8 02 00 02 00 00 00 d0 1e 
19.764900 1 272 Rx d 8 06 00 ef 78 07 b0 07 08 
19.770400 1 132 Rx d 6 65 88 f7 ff 28 40 
19.772500 1 23a Rx d 8 22 04 70 37 fc e9 69 34 
19.773200 1 3c2 Rx d 8 00 55 55 55 00 00 59 45 
19.774100 1 45a Rx d 8 20 4b 4b cb 3f 49 00 6b 
19.782600 1 132 Rx d 6 61 88 f8 ff 29 40 
19.785400 1 727 Rx d 2 0a 00 
19.790200 1 132 Rx d 6 59 88 f7 ff 25 40 
19.790500 1 372 Rx d 8 01 21 16 04 40 00 2c 01 
19.793500 1 234 Rx d 8 1c b0 01 24 91 04 e0 01 
19.793700 1 3a2 Rx d 8 60 85 f2 aa 04 80 c0 73 
19.794600 1 545 Rx d 8 f0 00 22 10 95 45 e9 2f 
19.795300 1 2c4 Rx d 8 17 80 01 00 04 00 20 00 
19.797100 1 2b4 Rx d 6 14 05 a7 0d d3 00 
19.800400 1 132 Rx d 6 58 88 f7 ff 28 40 
19.806400 1 3a1 Rx d 8 2b fa 40 77 3e 00 50 2a 
19.807500 1 788 Rx d 8 01 00 00 00 ff a1 98 12 
19.810300 1 132 Rx d 6 5a 88 f7 ff 24 40 
19.814600 1 2c2 Rx d 8 20 40 40 6a 01 00 00 cb 
19.820200 1 45a Rx d 8 fd 07 f8 ff 03 00 00 50 
19.820600 1 132 Rx d 6 61 88 f7 ff 25 40 
19.825200 1 3c2 Rx d 8 29 55 00 00 00 00 00 80 
19.826700 1 3a2 Rx d 8 01 10 20 00 09 f0 ff 00 
19.829100 1 545 Rx d 8 01 00 00 00 00 10 f0 4b 
19.830200 1 132 Rx d 6 58 88 f7 ff 27 40 
19.837700 1 400 Rx d 7 b2 e0 6b bf ef fb 00 
19.840900 1 132 Rx d 6 63 88 f7 ff 27 40 
19.843100 1 234 Rx d 8 24 e1 03 80 43 00 f4 5a 
19.850300 1 132 Rx d 6 5e 88 f7 ff 29 40 
19.850500 1 372 Rx d 8 02 86 c0 3b 80 01 fc 5a 
19.853400 1 7a8 Rx d 8 01 00 00 00 ff a1 98 12 
19.854900 1 3a1 Rx d 8 e8 42 0d 8a 01 08 62 ec 
19.859900 1 3a2 Rx d 8 92 2a 00 00 20 00 00 00 
19.860300 1 132 Rx d 6 61 88 f7 ff 24 40 
19.861100 1 545 Rx d 8 02 00 02 00 00 00 00 4e 
19.864900 1 272 Rx d 8 09 80 63 00 00 00 00 00 
19.870500 1 132 Rx d 6 60 88 f8 ff 29 40 
19.871500 1 45a Rx d 8 20 4b 4b cb 3f 49 00 6b 
19.873600 1 3c2 Rx d 8 00 55 55 55 00 00 59 45 
19.882700 1 132 Rx d 6 50 88 f7 ff 27 40 
19.890200 1 132 Rx d 6 5f 88 f7 ff 28 40 
19.893000 1 3a2 Rx d 8 60 85 f2 aa 04 80 c0 73 
19.893200 1 234 Rx d 8 1b b0 01 25 95 04 00 25 
19.895100 1 545 Rx d 8 40 01 27 10 95 45 19 b5 
19.895300 1 2c4 Rx d 8 19 7b 1f 42 02 14 60 00 
19.897200 1 2b4 Rx d 6 13 05 a7 0d cd 00 
19.900300 1 132 Rx d 6 4e 88 f7 ff 25 40 
19.905700 1 3a1 Rx d 8 2b fa 40 77 3e 00 70 4a 
19.909100 1 788 Rx d 8 02 40 ce 07 00 00 00 00 
19.910300 1 132 Rx d 6 5c 88 f8 ff 29 40 
19.910500 1 372 Rx d 8 03 00 0b 50 00 01 00 00 
19.914100 1 2c2 Rx d 8 55 63 a8 46 01 00 1a a5 
19.920400 1 132 Rx d 6 5d 88 f7 ff 27 40 
19.920600 1 45a Rx d 8 fd 07 f8 ff 03 00 00 50 
19.924200 1 3c2 Rx d 8 29 55 00 00 00 00 00 80 
19.926100 1 3a2 Rx d 8 01 10 20 00 0b f0 ff 00 
19.929100 1 545 Rx d 8 01 00 00 00 00 10 20 7b 
19.930200 1 132 Rx d 6 5c 88 f8 ff 25 40 
19.937700 1 400 Rx d 7 00 e0 fb be ef fb 00 
19.940900 1 132 Rx d 6 5d 88 f8 ff 28 40 
19.943500 1 234 Rx d 8 23 e1 03 80 43 00 14 79 
19.950300 1 132 Rx d 6 5a 88 f7 ff 27 40 
19.951500 1 70b Rx d 8 06 8f 8f 9b 1d 1b 00 00 
19.953100 1 7a8 Rx d 8 02 40 d3 07 00 07 00 00 
19.955700 1 3a1 Rx d 8 e8 42 0d 8a 01 08 82 0c 
19.958700 1 3a2 Rx d 8 82 2a 00 00 20 00 00 00 
19.960200 1 132 Rx d 6 4f 88 f8 ff 27 40 
19.961000 1 545 Rx d 8 02 00 02 00 00 00 30 7e 
19.964900 1 272 Rx d 8 06 00 ef 78 07 b0 07 08 
19.970300 1 45a Rx d 8 20 4b 4b cb 3f 49 00 6b 
19.970600 1 132 Rx d 6 5f 88 f8 ff 27 40 
19.970800 1 372 Rx d 8 04 00 00 00 00 00 fa 10 
19.973700 1 3c2 Rx d 8 00 55 55 55 00 00 59 45 
19.980300 1 132 Rx d 6 64 88 f7 ff 24 40 
19.990200 1 132 Rx d 6 5f 88 f7 ff 27 40 
19.991700 1 3a2 Rx d 8 60 85 f2 aa 04 80 c0 73 
19.992000 1 545 Rx d 8 f0 00 22 10 95 49 49 93 
19.994600 1 234 Rx d 8 1b b0 01 25 95 04 20 45 
19.995300 1 2c4 Rx d 8 00 00 00 d2 00 00 00 00 
19.997200 1 2b4 Rx d 6 15 05 a7 0d cc 00 
20.000300 1 132 Rx d 6 5b 88 f7 ff 28 40 
20.006500 1 3a1 Rx d 8 2b fa 40 81 3e 00 90 74 
20.007500 1 788 Rx d 8 a8 bc 71 63 00 00 80 00 
20.010300 1 132 Rx d 6 5a 88 f7 ff 28 40 
20.015400 1 2c2 Rx d 8 20 40 40 6a 01 00 00 cb 
20.020200 1 45a Rx d 8 fd 07 f8 ff 03 00 00 50 
20.020600 1 132 Rx d 6 69 88 f8 ff 24 40 
20.024500 1 3c2 Rx d 8 29 55 00 00 00 00 00 80 
20.024700 1 3a2 Rx d 8 01 10 20 00 0b f0 ff 00 
20.025300 1 545 Rx d 8 01 00 00 00 00 10 50 ab 
20.030200 1 132 Rx d 6 5a 88 f7 ff 27 40 
20.030500 1 372 Rx d 8 05 46 3b 0d 00 00 00 00 
20.037900 1 400 Rx d 7 00 e0 fb be ef fb 00 
20.040900 1 132 Rx d 6 54 88 f7 ff 25 40 
20.043300 1 234 Rx d 8 24 e1 03 80 43 00 34 9a 
20.046200 1 709 Rx d 8 1d 00 00 00 00 00 00 00 
20.050300 1 132 Rx d 6 54 88 f7 ff 27 40 
20.053800 1 7a8 Rx d 8 a8 b4 71 63 00 00 82 00 
20.055400 1 3a1 Rx d 8 e8 42 0d 8a 01 08 a2 2c 
20.057500 1 319 Rx d 8 0b 03 01 00 01 00 00 00 
20.058200 1 3a2 Rx d 8 82 2a 00 00 20 00 00 00 
20.058500 1 545 Rx d 8 02 00 02 00 00 00 60 ae 
20.060200 1 132 Rx d 6 5d 88 f8 ff 27 40 
20.064900 1 272 Rx d 8 09 80 63 00 00 00 00 00 
20.070500 1 132 Rx d 6 68 88 f8 ff 27 40 
20.071500 1 45a Rx d 8 20 4b 4b cb 3f 49 00 6b 
20.073700 1 3c2 Rx d 8 00 55 55 55 00 00 59 45 
20.082700 1 132 Rx d 6 58 88 f7 ff 29 40 
20.090200 1 132 Rx d 6 58 88 f7 ff 27 40 
20.090400 1 372 Rx d 8 06 45 d3 1a 54 a3 0f 02 
20.091100 1 3a2 Rx d 8 60 85 f2 aa 04 80 c0 73 
20.091700 1 545 Rx d 8 40 01 2c e0 94 46 79 ea 
20.095000 1 234 Rx d 8 1b b0 01 24 91 04 40 60 
20.095200 1 2c4 Rx d 8 01 00 00 d2 00 00 00 00 
20.097200 1 2b4 Rx d 6 13 05 a6 0d d0 00 
20.100400 1 132 Rx d 6 5b 88 f7 ff 24 40 
20.105100 1 3a1 Rx d 8 2b fa 40 79 3e 00 b0 8c 
20.109100 1 788 Rx d 8 01 00 00 00 ff a1 a8 12 
20.110300 1 132 Rx d 6 63 88 f7 ff 25 40 
20.114600 1 2c2 Rx d 8 55 63 a8 46 01 00 1a a5 
20.120200 1 45a Rx d 8 fd 07 f8 ff 03 00 00 50 
20.120600 1 132 Rx d 6 57 88 f7 ff 28 40 
20.123700 1 3c2 Rx d 8 29 55 00 00 00 00 00 80 
20.123900 1 3a2 Rx d 8 01 10 20 00 0b f0 ff 00 
20.124400 1 545 Rx d 8 01 00 00 00 00 10 80 db 
20.130300 1 132 Rx d 6 55 88 f7 ff 28 40 
20.137200 1 400 Rx d 7 00 e0 fb be ef fb 00 
20.141000 1 132 Rx d 6 54 88 f8 ff 29 40 
20.143500 1 234 Rx d 8 24 e1 03 80 43 00 54 ba 
20.150400 1 132 Rx d 6 63 88 f8 ff 27 40 
20.150600 1 372 Rx d 8 07 00 00 00 00 00 00 00 
20.154000 1 7a8 Rx d 8 01 00 00 00 ff a1 98 12 
20.155700 1 3a1 Rx d 8 e8 42 0d 8a 01 08 c2 4c 
20.157000 1 3a2 Rx d 8 82 2a 00 00 20 00 00 00 
20.157500 1 545 Rx d 8 02 00 02 00 00 00 90 de 
20.160400 1 132 Rx d 6 62 88 f7 ff 27 40 
20.164900 1 272 Rx d 8 06 00 ef 78 07 b0 07 08 
20.170300 1 45a Rx d 8 20 4b 4b cb 3f 49 00 6b 
20.170600 1 132 Rx d 6 56 88 f8 ff 28 40 
20.173700 1 3c2 Rx d 8 00 55 55 55 00 00 59 45 
20.182600 1 132 Rx d 6 4f 88 f7 ff 27 40 
20.189800 1 3a2 Rx d 8 60 85 72 a9 04 80 c0 73 
20.190200 1 545 Rx d 8 40 01 27 40 95 47 a9 77 
20.190400 1 132 Rx d 6 50 88 f7 ff 27 40 
20.194600 1 234 Rx d 8 1a b0 01 24 91 04 60 7f 
20.195200 1 2c4 Rx d 8 02 00 00 d2 00 00 00 00 
20.197300 1 2b4 Rx d 6 14 05 a6 0d cd 00 
20.200300 1 132 Rx d 6 5e 88 f7 ff 28 40 
20.206500 1 3a1 Rx d 8 2b fa 40 7b 3e 00 d0 ae 
20.207500 1 788 Rx d 8 02 40 d0 07 00 00 00 00 
20.210300 1 132 Rx d 6 57 88 f7 ff 25 40 
20.210600 1 372 Rx d 8 08 00 00 00 00 00 00 00 
20.215400 1 2c2 Rx d 8 20 40 40 6a 01 00 00 cb 
20.220400 1 132 Rx d 6 63 88 f7 ff 28 40 
20.220700 1 45a Rx d 8 fd 07 f8 ff 03 00 00 50 
20.223700 1 361 Rx d 5 34 0d 20 03 01 
20.223900 1 3a2 Rx d 8 01 10 20 00 0b f0 ff 00 
20.224200 1 3c2 Rx d 8 29 55 00 00 00 00 00 80 
20.225300 1 545 Rx d 8 01 00 00 00 00 10 b0 0b 
20.230200 1 132 Rx d 6 59 88 f7 ff 25 40 
20.237700 1 400 Rx d 7 00 e0 fb be ef fb 00 
20.241000 1 132 Rx d 6 68 88 f7 ff 27 40 
20.243100 1 234 Rx d 8 24 e1 03 80 43 00 74 da 
20.250300 1 132 Rx d 6 5d 88 f8 ff 28 40 
20.253100 1 7a8 Rx d 8 02 40 d4 07 00 07 00 00 
20.255500 1 3a1 Rx d 8 e8 42 0d 8a 01 08 e2 6c 
20.255700 1 3a2 Rx d 8 82 2a 00 00 20 00 00 00 
20.256600 1 545 Rx d 8 02 00 01 00 00 00 c0 0d 
20.260200 1 132 Rx d 6 54 88 f6 ff 24 40 
20.264700 1 272 Rx d 8 09 80 63 00 00 00 00 00 
20.264900 1 382 Rx d 5 42 18 27 00 00 
20.270300 1 45a Rx d 8 20 4b 4b cb 3f 49 00 6b 
20.270600 1 132 Rx d 6 58 88 f7 ff 27 40 
20.270800 1 372 Rx d 8 09 00 00 00 00 f8 3f 00 
20.273700 1 3c2 Rx d 8 00 55 55 55 00 00 59 45 
20.280300 1 132 Rx d 6 5c 88 f8 ff 27 40 
20.288700 1 3a2 Rx d 8 60 85 72 a9 04 80 c0 73 
20.289600 1 545 Rx d 8 f0 00 27 10 95 45 d9 24 
20.290300 1 132 Rx d 6 6f 88 f7 ff 23 40 
20.294900 1 234 Rx d 8 1b b0 01 25 95 04 80 a5 
20.295200 1 2c4 Rx d 8 23 01 0e 00 01 10 80 00 
20.297300 1 2b4 Rx d 6 13 05 a7 0d cf 00 
20.300200 1 132 Rx d 6 6a 88 f8 ff 29 40 
20.305700 1 3a1 Rx d 8 2b fa 40 77 3e 00 f0 ca 
20.309100 1 788 Rx d 8 a8 bc 71 63 00 00 80 00 
20.310300 1 132 Rx d 6 69 88 f7 ff 27 40 
20.314600 1 2c2 Rx d 8 55 63 a8 46 01 00 1a a5 
20.320200 1 45a Rx d 8 fd 07 f8 ff 03 00 00 50 
20.320600 1 132 Rx d 6 5f 88 f7 ff 27 40 
20.321700 1 3a2 Rx d 8 01 10 20 00 0b f0 ff 00 
20.322600 1 545 Rx d 8 01 00 00 00 00 10 e0 3b 
20.323800 1 3c2 Rx d 8 29 55 00 00 00 00 00 80 
20.330300 1 132 Rx d 6 5d 88 f7 ff 28 40 
20.330700 1 372 Rx d 8 0a 01 40 06 00 00 00 82 
20.338100 1 400 Rx d 7 00 e0 fb be ef fb 00 
20.341000 1 132 Rx d 6 5d 88 f8 ff 29 40 
20.343500 1 234 Rx d 8 24 e1 03 80 43 00 94 fa 
20.350400 1 132 Rx d 6 6f 88 f8 ff 27 40 
20.353200 1 7a8 Rx d 8 a8 b4 71 63 00 00 82 00 
20.355500 1 3a1 Rx d 8 e8 42 0d 8a 01 08 02 8c 
20.355700 1 3a2 Rx d 8 82 2a 00 00 20 00 00 00 
20.356200 1 545 Rx d 8 02 00 01 00 00 00 f0 3d 
20.356400 1 709 Rx d 8 1e 00 00 00 00 00 00 00 
20.360200 1 132 Rx d 6 59 88 f8 ff 28 40 
20.364900 1 272 Rx d 8 06 00 ef 78 07 b0 07 08 
20.370500 1 132 Rx d 6 61 88 f7 ff 25 40 
20.370700 1 330 Rx d 8 10 00 39 2e 32 52 00 00 
20.372200 1 45a Rx d 8 20 4b 4b cb 3f 49 00 6b 
20.373400 1 3c2 Rx d 8 00 55 55 55 00 00 59 45 
20.382600 1 132 Rx d 6 4b 88 f7 ff 27 40 
20.387800 1 3a2 Rx d 8 60 85 72 a9 04 80 c0 73 
20.388600 1 545 Rx d 8 40 01 27 10 95 49 09 a9 
20.390400 1 132 Rx d 6 5c 88 f6 ff 24 40 
20.390900 1 372 Rx d 8 0b ef ff 8d 00 65 66 00 
20.394600 1 234 Rx d 8 1c b0 01 24 91 04 a0 c1 
20.395200 1 2c4 Rx d 8 04 00 00 00 00 20 91 4a 
20.397300 1 2b4 Rx d 6 13 05 a6 0d d3 00 
20.400400 1 132 Rx d 6 63 88 f7 ff 23 40 
20.402700 1 373 Rx d 8 0b a2 ab 00 00 de 06 1f 
20.406500 1 3a1 Rx d 8 2b fa 40 77 3e 00 10 ea 
20.407600 1 788 Rx d 8 01 00 00 00 ff a1 a8 12 
20.410300 1 132 Rx d 6 6c 88 f7 ff 27 40 
20.415500 1 2c2 Rx d 8 20 40 40 6a 01 00 00 cb 
20.420200 1 45a Rx d 8 fd 07 f8 ff 03 00 00 50 
20.420500 1 132 Rx d 6 6b 88 f8 ff 28 40 
20.420800 1 3a2 Rx d 8 01 10 20 00 0b f0 ff 00 
20.421600 1 545 Rx d 8 01 00 00 00 00 10 10 6b 
20.425300 1 3c2 Rx d 8 29 55 00 00 00 00 00 80 
20.430300 1 132 Rx d 6 62 88 f8 ff 29 40 
20.437500 1 400 Rx d 7 00 e0 fb be ef fb 00 
20.441000 1 132 Rx d 6 62 88 f7 ff 25 40 
20.443100 1 234 Rx d 8 24 e1 03 80 43 00 b4 1a 
20.450400 1 132 Rx d 6 61 88 f8 ff 27 40 
20.450600 1 372 Rx d 8 0c ee 7f 84 0f 00 00 00 
20.453900 1 3a2 Rx d 8 82 2a 00 00 20 00 00 00 
20.454200 1 545 Rx d 8 02 00 01 00 00 00 20 6d 
20.454300 1 7a8 Rx d 8 01 00 00 00 ff a1 98 12 
20.455500 1 3a1 Rx d 8 e8 42 0d 8a 01 08 22 ac 
20.460500 1 132 Rx d 6 54 88 f7 ff 27 40 
20.464900 1 272 Rx d 8 09 80 63 00 00 00 00 00 
20.470300 1 45a Rx d 8 20 4b 4b cb 3f 49 00 6b 
20.470600 1 132 Rx d 6 62 88 f8 ff 27 40 
20.473700 1 3c2 Rx d 8 00 55 55 55 00 00 59 45 
20.482700 1 132 Rx d 6 67 88 f7 ff 27 40 
20.486700 1 3a2 Rx d 8 60 85 72 a9 04 80 c0 73 
20.488200 1 545 Rx d 8 40 01 27 10 95 45 39 d5 
20.490200 1 132 Rx d 6 60 88 f7 ff 28 40 
20.494900 1 234 Rx d 8 1a b0 01 24 91 04 c0 df 
20.495200 1 2c4 Rx d 8 25 22 00 00 00 00 00 20 
20.496700 1 2b4 Rx d 6 12 05 a7 0d cb 00 
20.500400 1 132 Rx d 6 5f 88 f7 ff 27 40 
20.505700 1 3a1 Rx d 8 2b fa 40 77 3e 00 30 0a 
20.507600 1 788 Rx d 8 02 40 d0 07 00 00 00 00 
20.510400 1 132 Rx d 6 61 88 f8 ff 28 40 
20.510600 1 372 Rx d 8 0d 32 00 00 00 40 72 88 
20.514600 1 2c2 Rx d 8 55 63 a8 46 01 00 1a a5 
20.520400 1 132 Rx d 6 60 88 f7 ff 25 40 
20.520700 1 3a2 Rx d 8 01 10 20 00 09 f0 ff 00 
20.520900 1 45a Rx d 8 fd 07 f8 ff 03 00 00 50 
20.521400 1 545 Rx d 8 01 00 00 00 00 10 40 9b 
20.523800 1 301 Rx d 8 20 00 00 00 ff ff ff ff 
20.524000 1 3c2 Rx d 8 29 55 00 00 00 00 00 80 
20.530300 1 132 Rx d 6 57 88 f7 ff 27 40 
20.537700 1 400 Rx d 7 00 e0 fb be ef fb 00 
20.541000 1 132 Rx d 6 54 88 f8 ff 29 40 
20.543500 1 234 Rx d 8 24 e1 03 80 43 00 d4 3a 
20.549100 1 302 Rx d 8 20 00 00 00 ff ff ff ff 
20.550500 1 132 Rx d 6 5d 88 f7 ff 24 40 
20.552800 1 3a2 Rx d 8 72 2a 00 00 20 00 00 00 
20.554400 1 545 Rx d 8 02 00 01 00 00 00 50 9d 
20.554500 1 7a8 Rx d 8 02 40 d3 07 00 07 00 00 
20.555200 1 3a1 Rx d 8 e8 42 0d 8a 01 08 42 cc 
20.560300 1 132 Rx d 6 6a 88 f7 ff 28 40 
20.564900 1 272 Rx d 8 06 00 ef 78 07 b0 07 08 
20.570300 1 45a Rx d 8 20 4b 4b cb 3f 49 00 6b 
20.570600 1 132 Rx d 6 5c 88 f7 ff 25 40 
20.570800 1 372 Rx d 8 0e 00 00 0c 06 7d 00 00 
20.573700 1 3c2 Rx d 8 00 55 55 55 00 00 59 45 
20.580400 1 132 Rx d 6 53 88 f7 ff 27 40 
20.586200 1 3a2 Rx d 8 60 85 f2 aa 04 80 c0 73 
20.586900 1 545 Rx d 8 f0 00 27 00 95 48 69 a7 
20.590300 1 132 Rx d 6 63 88 f7 ff 25 40 
20.594600 1 234 Rx d 8 1b b0 01 24 91 04 e0 00 
20.595200 1 2c4 Rx d 8 06 9f a1 8c ca f8 0c 00 
20.596800 1 2b4 Rx d 6 14 05 a6 0d cf 00 
20.600300 1 132 Rx d 6 5f 88 f7 ff 24 40 
20.605100 1 3a1 Rx d 8 2b fa 40 75 3e 00 50 28 
20.607600 1 788 Rx d 8 a8 bc 71 63 00 00 80 00 
20.610600 1 132 Rx d 6 65 88 f8 ff 27 40 
20.615400 1 2c2 Rx d 8 20 40 40 6a 01 00 00 cb 
20.618200 1 303 Rx d 8 20 00 00 00 ff ff ff ff 
20.618800 1 3a2 Rx d 8 01 10 20 00 07 f0 ff 00 
20.619300 1 545 Rx d 8 01 00 00 00 00 10 70 cb 
20.620400 1 132 Rx d 6 6b 88 f7 ff 28 40 
20.620700 1 45a Rx d 8 fd 07 f8 ff 03 00 00 50 
20.624000 1 3c2 Rx d 8 29 55 00 00 00 00 00 80 
20.631300 1 132 Rx d 6 66 88 f7 ff 24 40 
20.637700 1 400 Rx d 7 00 e0 fb be ef fb 00 
20.641000 1 132 Rx d 6 63 88 f7 ff 27 40 
20.643200 1 234 Rx d 8 24 e1 03 80 43 00 f4 5a 
20.650500 1 132 Rx d 6 5c 88 f8 ff 28 40 
20.651800 1 3a2 Rx d 8 72 2a 00 00 20 00 00 00 
20.652800 1 545 Rx d 8 02 00 01 00 00 00 80 cd 
20.653300 1 7a8 Rx d 8 a8 b4 71 63 00 00 82 00 
20.655500 1 3a1 Rx d 8 e8 42 0d 8a 01 08 62 ec 
20.660300 1 132 Rx d 6 6c 88 f8 ff 27 40 
20.665000 1 272 Rx d 8 09 80 63 00 00 00 00 00 
20.667400 1 709 Rx d 8 1f 00 00 00 00 00 00 00 
20.670400 1 45a Rx d 8 20 4b 4b cb 3f 49 00 6b 
20.670600 1 132 Rx d 6 59 88 f8 ff 27 40 
20.673700 1 3c2 Rx d 8 00 55 55 55 00 00 59 45 
20.681300 1 132 Rx d 6 61 88 f7 ff 27 40 
20.684800 1 3a2 Rx d 8 60 85 72 a9 04 80 c0 73 
20.685500 1 545 Rx d 8 f0 00 27 00 95 44 99 d3 
20.690300 1 132 Rx d 6 4d 88 f7 ff 27 40 
20.694900 1 234 Rx d 8 1b b0 01 25 95 04 00 25 
20.695200 1 2c4 Rx d 8 47 06 a8 8c 81 0c 96 06 
20.697300 1 2b4 Rx d 6 15 05 a6 0d d0 00 
20.700300 1 132 Rx d 6 62 88 f7 ff 28 40 
20.705700 1 3a1 Rx d 8 2b fa 40 75 3e 00 70 48 
20.709100 1 788 Rx d 8 01 00 00 00 ff a1 a8 12 
20.710600 1 132 Rx d 6 67 88 f8 ff 27 40 
20.714600 1 2c2 Rx d 8 55 63 a8 46 01 00 1a a5 
20.717800 1 3a2 Rx d 8 01 10 20 00 07 f0 ff 00 
20.718300 1 545 Rx d 8 01 00 00 00 00 10 a0 fb 
20.720200 1 45a Rx d 8 fd 07 f8 ff 03 00 00 50 
20.720700 1 132 Rx d 6 67 88 f7 ff 28 40 
20.721600 1 300 Rx d 8 0b 00 04 02 05 00 02 00 
20.722300 1 3f2 Rx d 8 07 ec ba 18 b0 50 f2 00 
20.723900 1 3c2 Rx d 8 29 55 00 00 00 00 00 80 
20.730300 1 132 Rx d 6 6f 88 f8 ff 28 40 
20.731300 1 372 Rx d 8 00 08 40 8c 62 11 b0 24 
20.738600 1 400 Rx d 7 00 e0 fb be ef fb 00 
20.741000 1 132 Rx d 6 6b 88 f8 ff 27 40 
20.743100 1 234 Rx d 8 24 e1 03 80 43 00 14 7a 
20.750400 1 132 Rx d 6 81 88 f7 ff 28 40 
20.751400 1 3a2 Rx d 8 72 2a 00 00 20 00 00 00 
20.752800 1 545 Rx d 8 02 00 02 00 00 00 b0 fe 
20.753100 1 7a8 Rx d 8 01 00 00 00 ff a1 98 12 
20.755700 1 3a1 Rx d 8 e8 42 0d 8a 01 08 82 0c 
20.760500 1 132 Rx d 6 6a 88 f7 ff 27 40 
20.765000 1 272 Rx d 8 06 00 ef 78 07 b0 07 08 
20.770600 1 132 Rx d 6 68 88 f7 ff 25 40 
20.772700 1 23a Rx d 8 23 08 1a 00 00 00 00 00 
20.773400 1 3c2 Rx d 8 00 55 55 55 00 00 59 45 
20.774600 1 45a Rx d 8 20 4b 4b cb 3f 49 00 6b 
20.782700 1 132 Rx d 6 69 88 f8 ff 27 40 
20.783800 1 3a2 Rx d 8 60 85 f2 aa 04 80 c0 73 
20.783900 1 545 Rx d 8 40 01 27 30 95 46 c9 86 
20.785500 1 727 Rx d 2 0b 00 
20.790200 1 132 Rx d 6 62 88 f7 ff 27 40 
20.790500 1 372 Rx d 8 01 e1 15 04 40 00 28 01 
20.794600 1 234 Rx d 8 1b b0 01 24 91 04 20 40 
20.795200 1 2c4 Rx d 8 68 36 80 b6 a1 09 e3 a2 
20.797300 1 2b4 Rx d 6 14 05 a7 0d d1 00 
20.800300 1 132 Rx d 6 6a 88 f7 ff 28 40 
20.806500 1 3a1 Rx d 8 2b fa 40 79 3e 00 90 6c 
20.809100 1 788 Rx d 8 02 40 d1 07 00 00 00 00 
20.810400 1 132 Rx d 6 6a 88 f7 ff 28 40 
20.815400 1 2c2 Rx d 8 20 40 40 6a 01 00 00 cb 
20.816800 1 3a2 Rx d 8 01 00 20 00 07 f0 ff 00 
20.817000 1 545 Rx d 8 01 00 00 00 00 10 d0 2b 
20.820400 1 132 Rx d 6 63 88 f7 ff 29 40 
20.820700 1 45a Rx d 8 fd 07 f8 ff 03 00 00 50 
20.825300 1 3c2 Rx d 8 29 55 00 00 00 00 00 80 
20.830300 1 132 Rx d 6 79 88 f8 ff 27 40 
20.837700 1 400 Rx d 7 00 e0 fb be ef fb 00 
20.841000 1 132 Rx d 6 67 88 f8 ff 25 40 
20.843200 1 234 Rx d 8 25 e1 03 80 43 00 34 9b 
20.849800 1 3a2 Rx d 8 72 2a 00 00 20 00 00 00 
20.850500 1 132 Rx d 6 74 88 f8 ff 28 40 
20.850700 1 372 Rx d 8 02 84 80 3c 80 01 f4 59 
20.852800 1 545 Rx d 8 02 00 02 00 00 00 e0 2e 
20.853100 1 7a8 Rx d 8 02 40 cf 07 00 07 00 00 
20.855000 1 3a1 Rx d 8 e8 42 0d 8a 01 08 a2 2c 
20.860400 1 132 Rx d 6 6c 88 f8 ff 25 40 
20.865000 1 272 Rx d 8 09 80 63 00 00 00 00 00 
20.870400 1 45a Rx d 8 20 4b 4b cb 3f 49 00 6b 
20.870600 1 132 Rx d 6 65 88 f7 ff 28 40 
20.873700 1 3c2 Rx d 8 00 55 55 55 00 00 59 45 
20.880400 1 132 Rx d 6 74 88 f7 ff 27 40 
20.882800 1 3a2 Rx d 8 60 85 72 a9 04 80 c0 73 
20.883500 1 545 Rx d 8 40 01 27 30 95 4a f9 ba 
20.890200 1 132 Rx d 6 6d 88 f7 ff 27 40 
20.894700 1 234 Rx d 8 1b b0 01 25 95 04 40 65 
20.895100 1 2c4 Rx d 8 49 d9 05 2f aa 94 e5 89 
20.897300 1 2b4 Rx d 6 13 05 a6 0d cc 00 
20.900300 1 132 Rx d 6 6c 88 f7 ff 27 40 
20.905700 1 3a1 Rx d 8 2b fa 40 83 3e 00 b0 96 
20.909100 1 788 Rx d 8 a8 bc 71 63 00 00 80 00 
20.910400 1 132 Rx d 6 6b 88 f8 ff 28 40 
20.910600 1 372 Rx d 8 03 00 0b 50 00 01 00 00 
20.913900 1 2c2 Rx d 8 55 03 a8 46 81 00 1a a5 
20.914100 1 3c2 Rx d 8 00 55 55 55 04 00 59 45 
20.914300 1 2c2 Rx d 8 24 72 40 6a 01 00 00 cb 
20.915800 1 3a2 Rx d 8 01 10 20 00 07 f0 ff 00 
20.917000 1 545 Rx d 8 01 00 00 00 00 10 00 5b 
20.920200 1 45a Rx d 8 fd 07 f8 ff 03 00 00 50 
20.920700 1 132 Rx d 6 6f 88 f8 ff 29 40 
20.924200 1 3c2 Rx d 8 29 55 00 00 00 00 00 80 
20.924400 1 2c2 Rx d 8 55 03 a8 46 81 00 1a a5 
20.930300 1 132 Rx d 6 6a 88 f5 ff 20 40 
20.937700 1 400 Rx d 7 00 e0 fb be ef fb 00 
20.941000 1 132 Rx d 6 68 88 f4 ff 1f 40 
20.943600 1 234 Rx d 8 24 e1 03 80 43 00 54 ba 
20.948900 1 3a2 Rx d 8 82 2a 00 00 20 00 00 00 
20.949200 1 545 Rx d 8 02 00 03 00 00 00 10 5f 
20.950400 1 132 Rx d 6 77 88 f6 ff 24 40 
20.951100 1 70b Rx d 8 07 1f 00 00 00 00 00 00 
20.953800 1 7a8 Rx d 8 a4 b4 71 63 00 00 82 00 
20.955700 1 3a1 Rx d 8 e8 42 0d 8a 01 08 c2 4c 
20.960200 1 132 Rx d 6 76 88 f5 ff 20 40 
20.965000 1 272 Rx d 8 06 00 ee 70 07 b0 07 08 
20.970400 1 45a Rx d 8 20 4b 4b cb 3f 49 00 6b 
20.970600 1 132 Rx d 6 5b 88 f6 ff 25 40 
20.970800 1 372 Rx d 8 04 00 00 00 00 00 fa 10 
20.973700 1 3c2 Rx d 8 00 55 55 55 04 00 59 45 
20.979200 1 709 Rx d 8 20 00 00 00 00 00 00 00 
20.981600 1 132 Rx d 6 6d 88 f5 ff 24 40 
20.981800 1 3a2 Rx d 8 60 85 f2 a2 04 80 c0 73 
20.982700 1 545 Rx d 8 f0 07 27 e0 94 42 29 47 
20.990200 1 132 Rx d 6 65 88 f5 ff 20 40 
20.994600 1 234 Rx d 8 22 b0 01 24 91 04 60 87 
20.995200 1 2c4 Rx d 8 0a 00 00 80 4c 68 02 00 
20.997300 1 2b4 Rx d 6 15 05 a7 0d 07 01 
21.500300 1 132 Rx d 6 6a 88 f7 ff 25 40 
21.505700 1 3a1 Rx d 8 2b fa 40 77 3e 00 70 4a 
21.507600 1 788 Rx d 8 a8 bc 71 63 00 00 80 00 
21.509800 1 3a2 Rx d 8 01 10 20 00 07 f0 ff 00 
21.510300 1 132 Rx d 6 62 88 f8 ff 28 40 
21.510700 1 372 Rx d 8 0d 32 00 00 00 40 78 88 
21.510900 1 545 Rx d 8 01 00 00 00 00 10 20 7b 
21.514700 1 2c2 Rx d 8 55 a3 a8 46 01 00 1a a5 
21.520200 1 45a Rx d 8 fd 07 f8 ff 03 00 00 50 
21.520700 1 132 Rx d 6 65 88 f7 ff 25 40 
21.523800 1 301 Rx d 8 21 00 00 00 ff ff ff ff 
21.524100 1 3c2 Rx d 8 29 55 00 00 00 00 00 80 
21.530300 1 132 Rx d 6 67 88 f7 ff 28 40 
21.538700 1 400 Rx d 7 00 e0 fb be ef fb 00 
21.541100 1 132 Rx d 6 64 88 f8 ff 27 40 
21.542800 1 3a2 Rx d 8 92 2a 00 00 20 00 00 00 
21.543100 1 234 Rx d 8 25 e1 03 80 43 00 14 7b 
21.543800 1 545 Rx d 8 02 00 0f 00 00 00 30 8b 
21.549100 1 302 Rx d 8 21 00 00 00 00 00 00 00 
21.550600 1 132 Rx d 6 72 88 f7 ff 25 40 
21.554000 1 7a8 Rx d 8 a8 b4 71 63 00 00 82 00 
21.555800 1 3a1 Rx d 8 e8 42 0d 8a 01 08 82 0c 
21.560400 1 132 Rx d 6 76 88 f8 ff 27 40 
21.565000 1 272 Rx d 8 06 00 ef 78 07 b0 07 08 
21.570400 1 45a Rx d 8 20 4b 4b cb 3f 49 00 6b 
21.570600 1 132 Rx d 6 6a 88 f7 ff 25 40 
21.570800 1 372 Rx d 8 0e 00 00 0c 06 7d 00 00 
21.573800 1 3c2 Rx d 8 00 55 55 55 00 00 59 45 
21.575900 1 3a2 Rx d 8 60 85 f2 aa 04 80 c0 73 
21.576200 1 545 Rx d 8 f0 00 22 30 95 4a 49 b4 
21.582700 1 132 Rx d 6 76 88 f7 ff 24 40 
21.590400 1 132 Rx d 6 73 88 f7 ff 28 40 
21.594700 1 234 Rx d 8 1b b0 01 25 95 04 20 45 
21.595200 1 2c4 Rx d 8 14 00 00 00 00 00 00 00 
21.597300 1 2b4 Rx d 6 13 05 a7 0d cf 00 
21.600300 1 132 Rx d 6 70 88 f7 ff 28 40 
21.603900 1 709 Rx d 8 01 80 80 80 80 80 80 80 
21.605100 1 3a1 Rx d 8 2b fa 40 79 3e 00 90 6c 
21.608600 1 788 Rx d 8 01 00 00 00 ff a1 a8 12 
21.608800 1 3a2 Rx d 8 01 10 20 00 00 f0 ff 00 
21.609200 1 545 Rx d 8 01 00 00 00 00 10 50 ab 
21.610600 1 132 Rx d 6 71 88 f7 ff 27 40 
21.614700 1 2c2 Rx d 8 20 40 40 6f 01 00 00 cb 
21.618300 1 303 Rx d 8 21 00 00 00 ff ff ff ff 
21.620200 1 330 Rx d 8 11 4d 39 32 37 35 31 34 
21.620500 1 132 Rx d 6 76 88 f7 ff 28 40 
21.620700 1 45a Rx d 8 fd 07 f8 ff 03 00 00 50 
21.623800 1 3c2 Rx d 8 29 55 00 00 00 00 00 80 
21.631400 1 132 Rx d 6 72 88 f7 ff 27 40 
21.637800 1 400 Rx d 7 00 e0 fb be ef fb 00 
21.641100 1 132 Rx d 6 72 88 f8 ff 27 40 
21.641800 1 3a2 Rx d 8 92 2a 00 00 20 00 00 00 
21.642700 1 545 Rx d 8 02 00 0d 00 00 00 60 b9 
21.643200 1 234 Rx d 8 24 e1 03 80 43 00 34 9a 
21.650600 1 132 Rx d 6 77 88 f7 ff 27 40 
21.653300 1 7a8 Rx d 8 01 00 00 00 ff a1 98 12 
21.655500 1 3a1 Rx d 8 e8 42 0d 8a 01 08 a2 2c 
21.660300 1 132 Rx d 6 72 88 f7 ff 24 40 
21.665000 1 272 Rx d 8 09 80 63 00 00 00 00 00 
21.670400 1 45a Rx d 8 20 4b 4b cb 3f 49 00 6b 
21.670600 1 132 Rx d 6 6e 88 f7 ff 27 40 
21.673800 1 3c2 Rx d 8 00 55 55 55 00 00 59 45 
21.674800 1 3a2 Rx d 8 60 85 f2 aa 04 80 c0 73 
21.676200 1 545 Rx d 8 40 01 27 60 95 49 79 69 
21.681400 1 132 Rx d 6 66 88 f8 ff 28 40 
21.690400 1 132 Rx d 6 71 88 f7 ff 27 40 
21.693100 1 234 Rx d 8 1c b0 01 25 95 04 40 66 
21.695100 1 2c4 Rx d 8 55 00 01 08 20 00 ff 00 
21.697400 1 2b4 Rx d 6 13 05 a7 0d d2 00 
21.700300 1 132 Rx d 6 6e 88 f7 ff 27 40 
21.705700 1 3a1 Rx d 8 2b fa 40 6d 3e 00 b0 80 
21.707700 1 788 Rx d 8 02 40 d2 07 00 00 00 00 
21.707900 1 3a2 Rx d 8 01 10 20 00 09 f0 ff 00 
21.709200 1 545 Rx d 8 01 00 00 00 00 10 80 db 
21.710600 1 132 Rx d 6 7f 88 f7 ff 28 40 
21.714700 1 2c2 Rx d 8 55 a3 a8 46 01 00 1a a5 
21.720500 1 132 Rx d 6 72 88 f8 ff 25 40 
21.720700 1 45a Rx d 8 fd 07 f8 ff 03 00 00 50 
21.721600 1 300 Rx d 8 0d 03 00 00 a1 d7 36 76 
21.722300 1 3f2 Rx d 8 08 4c 73 38 90 51 ad 03 
21.724400 1 3c2 Rx d 8 29 55 00 00 00 00 00 80 
21.730300 1 132 Rx d 6 76 88 f8 ff 25 40 
21.731400 1 372 Rx d 8 00 08 80 8e 72 11 44 24 
21.738700 1 400 Rx d 7 00 e0 fb be ef fb 00 
21.740600 1 132 Rx d 6 71 88 f8 ff 2a 40 
21.740900 1 3a2 Rx d 8 82 2a 00 00 20 00 00 00 
21.741100 1 545 Rx d 8 02 00 0b 00 00 00 90 e7 
21.742900 1 234 Rx d 8 24 e1 03 80 43 00 54 ba 
21.750500 1 132 Rx d 6 6e 88 f7 ff 25 40 
21.753900 1 7a8 Rx d 8 02 40 d6 07 00 07 00 00 
21.755800 1 3a1 Rx d 8 e8 42 0d 8a 01 08 c2 4c 
21.760300 1 132 Rx d 6 74 88 f8 ff 28 40 
21.765000 1 272 Rx d 8 06 00 ef 78 07 b0 07 08 
21.770600 1 132 Rx d 6 73 88 f7 ff 25 40 
21.772700 1 23a Rx d 8 24 ff ff ff ff 00 00 00 
21.773900 1 3a2 Rx d 8 60 85 f2 aa 04 80 c0 73 
21.774200 1 3c2 Rx d 8 00 55 55 55 00 00 59 45 
21.775100 1 45a Rx d 8 20 4b 4b cb 3f 49 00 6b 
21.775600 1 545 Rx d 8 40 01 27 10 95 49 a9 49 
21.780400 1 132 Rx d 6 7a 88 f8 ff 27 40 
21.785600 1 727 Rx d 2 00 00 
21.790200 1 132 Rx d 6 75 88 f7 ff 2a 40 
21.790500 1 372 Rx d 8 01 d8 15 04 40 00 2c 01 
21.794700 1 234 Rx d 8 1b b0 01 25 95 04 60 85 
21.795200 1 2c4 Rx d 8 16 c0 b4 02 00 00 00 01 
21.796300 1 2b4 Rx d 6 13 05 a6 0d c8 00 
21.800300 1 132 Rx d 6 6b 88 f8 ff 29 40 
21.806600 1 3a1 Rx d 8 2b fa 40 81 3e 00 d0 b4 
21.807100 1 3a2 Rx d 8 01 10 20 00 09 f0 ff 00 
21.807400 1 545 Rx d 8 01 00 00 00 00 10 b0 0b 
21.807700 1 788 Rx d 8 a8 bc 71 63 00 00 80 00 
21.810400 1 132 Rx d 6 71 88 f8 ff 29 40 
21.815500 1 2c2 Rx d 8 20 40 40 6f 01 00 00 cb 
21.820300 1 45a Rx d 8 fd 07 f8 ff 03 00 00 50 
21.820700 1 132 Rx d 6 72 88 f7 ff 28 40 
21.825400 1 3c2 Rx d 8 29 55 00 00 00 00 00 80 
21.830300 1 132 Rx d 6 63 88 f8 ff 28 40 
21.837900 1 400 Rx d 7 b2 e0 53 bf ef fb 00 
21.839900 1 3a2 Rx d 8 82 2a 00 00 20 00 00 00 
21.840300 1 132 Rx d 6 6b 88 f7 ff 27 40 
21.841100 1 545 Rx d 8 02 00 0a 00 00 00 c0 16 
21.842900 1 234 Rx d 8 24 e1 03 80 43 00 74 da 
21.850500 1 132 Rx d 6 6a 88 f8 ff 28 40 
21.850700 1 372 Rx d 8 02 8b 40 3e 80 01 ec 59 
21.854000 1 7a8 Rx d 8 a8 b4 71 63 00 00 82 00 
21.855000 1 3a1 Rx d 8 e8 42 0d 8a 01 08 e2 6c 
21.860400 1 132 Rx d 6 69 88 f7 ff 24 40 
21.865100 1 272 Rx d 8 09 80 63 00 00 00 00 00 
21.870500 1 132 Rx d 6 62 88 f7 ff 25 40 
21.870900 1 45a Rx d 8 20 4b 4b cb 3f 49 00 6b 
21.873800 1 3a2 Rx d 8 60 85 72 a9 04 80 c0 73 
21.874100 1 3c2 Rx d 8 00 55 55 55 00 00 59 45 
21.874700 1 545 Rx d 8 40 01 27 50 95 4d d9 bd 
21.882800 1 132 Rx d 6 73 88 f7 ff 25 40 
21.890200 1 132 Rx d 6 71 88 f7 ff 25 40 
21.894900 1 234 Rx d 8 1b b0 01 24 91 04 80 a0 
21.895100 1 2c4 Rx d 8 17 80 01 00 04 00 20 00 
21.896200 1 2b4 Rx d 6 14 05 a7 0d cd 00 
21.900300 1 132 Rx d 6 70 88 f7 ff 25 40 
21.905600 1 3a1 Rx d 8 2b fa 40 7d 3e 00 f0 d0 
21.905900 1 3a2 Rx d 8 01 10 20 00 0b f0 ff 00 
21.906100 1 545 Rx d 8 01 00 00 00 00 10 e0 3b 
21.909200 1 788 Rx d 8 01 00 00 00 ff a1 98 12 
21.910500 1 132 Rx d 6 76 88 f7 ff 25 40 
21.910700 1 372 Rx d 8 03 00 0b 50 00 01 00 00 
21.914300 1 2c2 Rx d 8 55 a3 a8 46 01 00 1a a5 
21.916800 1 709 Rx d 8 02 80 80 80 80 80 00 00 
21.920300 1 45a Rx d 8 fd 07 f8 ff 03 00 00 50 
21.920700 1 132 Rx d 6 76 88 f8 ff 2a 40 
21.924100 1 3c2 Rx d 8 29 55 00 00 00 00 00 80 
21.930300 1 132 Rx d 6 6d 88 f8 ff 27 40 
21.937800 1 400 Rx d 7 b2 e0 5b bf ef fb 00 
21.938900 1 3a2 Rx d 8 82 2a 00 00 20 00 00 00 
21.940500 1 132 Rx d 6 6d 88 f8 ff 2a 40 
21.941100 1 545 Rx d 8 02 00 09 00 00 00 f0 45 
21.942900 1 234 Rx d 8 25 e1 03 80 43 00 94 fb 
21.950500 1 132 Rx d 6 69 88 f7 ff 24 40 
21.951500 1 70b Rx d 8 08 00 00 00 50 50 50 50 
21.953600 1 7a8 Rx d 8 01 00 00 00 ff a1 98 12 
21.955800 1 3a1 Rx d 8 e8 42 0d 8a 01 08 02 8c 
21.960400 1 132 Rx d 6 72 88 f8 ff 28 40 
21.965100 1 272 Rx d 8 06 00 ef 78 07 b0 07 08 
21.970400 1 45a Rx d 8 20 4b 4b cb 3f 49 00 6b 
21.970600 1 132 Rx d 6 7b 88 f7 ff 28 40 
21.970900 1 372 Rx d 8 04 00 00 00 00 00 fa 10 
21.972300 1 3a2 Rx d 8 60 85 f2 aa 04 80 c0 73 
21.972500 1 545 Rx d 8 40 01 27 30 95 4a 09 ca 
21.973500 1 3c2 Rx d 8 00 55 55 55 00 00 59 45 
21.982700 1 132 Rx d 6 73 88 f8 ff 28 40 
21.990200 1 132 Rx d 6 69 88 f8 ff 27 40 
21.992900 1 234 Rx d 8 1b b0 01 24 91 04 a0 c0 
21.995200 1 2c4 Rx d 8 19 7b 1f 42 02 14 60 00 
21.997400 1 2b4 Rx d 6 12 05 a6 0d cf 00 
22.000300 1 132 Rx d 6 76 88 f7 ff 24 40 
22.004900 1 3a2 Rx d 8 01 10 20 00 09 f0 ff 00 
22.005100 1 3a1 Rx d 8 2b fa 40 79 3e 00 10 ec 
22.006600 1 545 Rx d 8 01 00 00 00 00 10 10 6b 
22.009200 1 788 Rx d 8 02 40 d1 07 00 00 00 00 
22.010500 1 132 Rx d 6 73 88 f7 ff 28 40 
22.015400 1 2c2 Rx d 8 20 40 40 6f 01 00 00 cb 
22.020500 1 132 Rx d 6 73 88 f8 ff 28 40 
22.020700 1 45a Rx d 8 fd 07 f8 ff 03 00 00 50 
22.025400 1 3c2 Rx d 8 29 55 00 00 00 00 00 80 
22.030300 1 132 Rx d 6 74 88 f8 ff 29 40 
22.030500 1 372 Rx d 8 05 46 3b 0d 00 00 00 00 
22.037900 1 3a2 Rx d 8 82 2a 00 00 20 00 00 00 
22.038300 1 400 Rx d 7 b2 e0 5b bf ef fb 00 
22.038700 1 545 Rx d 8 02 00 08 00 00 00 20 74 
22.041100 1 132 Rx d 6 6e 88 f8 ff 27 40 
22.042800 1 234 Rx d 8 24 e1 03 80 43 00 b4 1a 
22.050500 1 132 Rx d 6 6a 88 f7 ff 24 40 
22.053200 1 7a8 Rx d 8 02 40 d0 07 00 07 00 00 
22.055500 1 3a1 Rx d 8 e8 42 0d 8a 01 08 22 ac 
22.056600 1 319 Rx d 8 11 00 00 00 00 00 00 00 
22.060300 1 132 Rx d 6 61 88 f7 ff 28 40 
22.065100 1 272 Rx d 8 09 80 63 00 00 00 00 00 
22.070400 1 45a Rx d 8 20 4b 4b cb 3f 49 00 6b 
22.070600 1 132 Rx d 6 74 88 f8 ff 27 40 
22.071100 1 3a2 Rx d 8 60 85 72 a9 04 80 c0 73 
22.071800 1 545 Rx d 8 40 01 27 60 95 49 39 29 
22.073800 1 3c2 Rx d 8 00 55 55 55 00 00 59 45 
22.080500 1 132 Rx d 6 6f 88 f7 ff 25 40 
22.090200 1 132 Rx d 6 6c 88 f7 ff 28 40 
22.090500 1 372 Rx d 8 06 45 d3 1a 54 a3 0f 02 
22.092800 1 234 Rx d 8 1b b0 01 25 95 04 c0 e5 
22.095100 1 2c4 Rx d 8 00 00 00 d2 00 00 00 00 
22.096200 1 2b4 Rx d 6 12 05 a7 0d cc 00 
22.100400 1 132 Rx d 6 76 88 f7 ff 27 40 
22.103800 1 3a2 Rx d 8 01 10 20 00 0b f0 ff 00 
22.104600 1 545 Rx d 8 01 00 00 00 00 10 40 9b 
22.105000 1 3a1 Rx d 8 2b fa 40 77 3e 00 30 0a 
22.109200 1 788 Rx d 8 a8 bc 71 63 00 00 80 00 
22.110500 1 132 Rx d 6 70 88 f7 ff 25 40 
22.114800 1 2c2 Rx d 8 55 a3 a8 46 01 00 1a a5 
22.120300 1 45a Rx d 8 fd 07 f8 ff 03 00 00 50 
22.120700 1 132 Rx d 6 73 88 f8 ff 28 40 
22.123800 1 3c2 Rx d 8 29 55 00 00 00 00 00 80 
22.130300 1 132 Rx d 6 6e 88 f8 ff 28 40 
22.137000 1 3a2 Rx d 8 82 2a 00 00 20 00 00 00 
22.137300 1 400 Rx d 7 b2 c0 5b bf ef fb 00 
22.137500 1 545 Rx d 8 02 00 07 00 00 00 50 a3 
22.140300 1 132 Rx d 6 6f 88 f8 ff 28 40 
22.142800 1 234 Rx d 8 24 e1 03 80 43 00 d4 3a 
22.150500 1 132 Rx d 6 70 88 f8 ff 27 40 
22.150700 1 372 Rx d 8 07 00 00 00 00 00 00 00 
22.153300 1 7a8 Rx d 8 a8 b4 71 63 00 00 82 00 
22.155800 1 3a1 Rx d 8 e8 42 0d 8a 01 08 42 cc 
22.160400 1 132 Rx d 6 71 88 f8 ff 29 40 
22.165100 1 272 Rx d 8 06 00 ef 78 07 b0 07 08 
22.170000 1 3a2 Rx d 8 60 85 f2 aa 04 80 c0 73 
22.170400 1 132 Rx d 6 78 88 f7 ff 27 40 
22.171800 1 45a Rx d 8 20 4b 4b cb 3f 49 00 6b 
22.172300 1 545 Rx d 8 40 01 27 30 95 4a 69 2a 
22.173800 1 3c2 Rx d 8 00 55 55 55 00 00 59 45 
22.182700 1 132 Rx d 6 65 88 f7 ff 28 40 
22.190200 1 132 Rx d 6 60 88 f7 ff 25 40 
22.192800 1 234 Rx d 8 1b b0 01 25 95 04 e0 05 
22.195200 1 2c4 Rx d 8 01 00 00 d2 00 00 00 00 
22.197400 1 2b4 Rx d 6 14 05 a7 0d cb 00 
22.200300 1 132 Rx d 6 70 88 f7 ff 25 40 
22.202900 1 3a2 Rx d 8 01 10 20 00 0b f0 ff 00 
22.203700 1 545 Rx d 8 01 00 00 00 00 10 70 cb 
22.206600 1 3a1 Rx d 8 2b fa 40 83 3e 00 50 36 
22.207700 1 788 Rx d 8 01 00 00 00 ff a1 a8 12 
22.210500 1 132 Rx d 6 7b 88 f7 ff 27 40 
22.210700 1 372 Rx d 8 08 00 00 00 00 00 00 00 
22.215500 1 2c2 Rx d 8 20 40 40 6f 01 00 00 cb 
22.220300 1 45a Rx d 8 fd 07 f8 ff 03 00 00 50 
22.220700 1 132 Rx d 6 6e 88 f7 ff 27 40 
22.223800 1 361 Rx d 5 34 0d 20 03 01 
22.225400 1 3c2 Rx d 8 29 55 00 00 00 00 00 80 
22.229200 1 709 Rx d 8 43 43 bd 35 c4 1b 02 00 
22.230300 1 132 Rx d 6 72 88 f8 ff 28 40 
22.235900 1 3a2 Rx d 8 82 2a 00 00 20 00 00 00 
22.236200 1 545 Rx d 8 02 00 06 00 00 00 80 d2 
22.237900 1 400 Rx d 7 b2 c0 5b bf ef fb 00 
22.241100 1 132 Rx d 6 6f 88 f8 ff 28 40 
22.242800 1 234 Rx d 8 24 e1 03 80 43 00 f4 5a 
22.250500 1 132 Rx d 6 5c 88 f7 ff 25 40 
22.253900 1 7a8 Rx d 8 01 00 00 00 ff a1 98 12 
22.255500 1 3a1 Rx d 8 e8 42 0d 8a 01 08 62 ec 
22.260300 1 132 Rx d 6 6e 88 f7 ff 28 40 
22.264800 1 272 Rx d 8 09 80 63 00 00 00 00 00 
22.265100 1 382 Rx d 5 42 18 27 00 00 
22.269000 1 3a2 Rx d 8 60 85 f2 aa 04 80 c0 73 
22.269200 1 545 Rx d 8 40 01 27 60 95 49 99 89 
22.270500 1 132 Rx d 6 6e 88 f8 ff 27 40 
22.270700 1 372 Rx d 8 09 00 00 00 00 f8 3f 00 
22.271700 1 45a Rx d 8 20 4b 4b cb 3f 49 00 6b 
22.273800 1 3c2 Rx d 8 00 55 55 55 00 00 59 45 
22.280300 1 132 Rx d 6 6f 88 f7 ff 29 40 
22.290200 1 132 Rx d 6 62 88 f7 ff 28 40 
22.292900 1 234 Rx d 8 1b b0 01 24 91 04 00 20 
22.295100 1 2c4 Rx d 8 02 00 00 d2 00 00 00 00 
22.296200 1 2b4 Rx d 6 14 05 a6 0d d1 00 
22.300400 1 132 Rx d 6 65 88 f7 ff 27 40 
22.302100 1 3a2 Rx d 8 01 10 20 00 0b f0 ff 00 
22.302800 1 545 Rx d 8 01 00 00 00 00 10 a0 fb 
22.305800 1 3a1 Rx d 8 2b fa 40 77 3e 00 70 4a 
22.309200 1 788 Rx d 8 02 40 d1 07 00 00 00 00 
22.310500 1 132 Rx d 6 5a 88 f7 ff 27 40 
22.314700 1 2c2 Rx d 8 55 a3 a8 46 01 00 1a a5 
22.320500 1 132 Rx d 6 61 88 f8 ff 27 40 
22.320800 1 45a Rx d 8 fd 07 f8 ff 03 00 00 50 
22.323900 1 3c2 Rx d 8 29 55 00 00 00 00 00 80 
22.330300 1 132 Rx d 6 6f 88 f8 ff 2a 40 
22.330800 1 372 Rx d 8 0a 01 40 06 00 00 00 82 
22.334900 1 3a2 Rx d 8 92 2a 00 00 20 00 00 00 
22.335300 1 545 Rx d 8 02 00 05 00 00 00 b0 01 
22.338300 1 400 Rx d 7 b2 a0 63 bf ef fb 00 
22.341100 1 132 Rx d 6 61 88 f8 ff 29 40 
22.342800 1 234 Rx d 8 24 e1 03 80 43 00 14 7a 
22.350300 1 132 Rx d 6 71 88 f7 ff 29 40 
22.353600 1 7a8 Rx d 8 02 40 d0 07 00 07 00 00 
22.355200 1 3a1 Rx d 8 e8 42 0d 8a 01 08 82 0c 
22.360500 1 132 Rx d 6 63 88 f8 ff 28 40 
22.365100 1 272 Rx d 8 06 00 ef 78 07 b0 07 08 
22.370500 1 132 Rx d 6 6a 88 f8 ff 28 40 
22.370700 1 3a2 Rx d 8 60 85 f2 aa 04 80 c0 73 
22.372400 1 45a Rx d 8 20 4b 4b cb 3f 49 00 6b 
22.372600 1 545 Rx d 8 f0 00 27 50 95 48 c9 57 
22.373600 1 3c2 Rx d 8 00 55 55 55 00 00 59 45 
22.380300 1 132 Rx d 6 75 88 f7 ff 2a 40 
22.390500 1 132 Rx d 6 73 88 f7 ff 24 40 
22.391000 1 372 Rx d 8 0b f1 ff 8d 00 65 66 00 
22.392800 1 234 Rx d 8 1b b0 01 25 95 04 20 45 
22.395200 1 2c4 Rx d 8 23 01 0e 00 01 10 80 00 
22.397400 1 2b4 Rx d 6 12 05 a6 0d cf 00 
22.400300 1 132 Rx d 6 6d 88 f7 ff 24 40 
22.400900 1 3a2 Rx d 8 01 10 20 00 09 f0 ff 00 
22.401300 1 545 Rx d 8 01 00 00 00 00 10 d0 2b 
22.402400 1 373 Rx d 8 0b a2 ab 00 00 de 06 1f 
22.406600 1 3a1 Rx d 8 2b fa 40 6b 3e 00 90 5e 
22.409200 1 788 Rx d 8 a8 bc 71 63 00 00 80 00 
22.410300 1 132 Rx d 6 6e 88 f7 ff 2a 40 
22.415500 1 2c2 Rx d 8 20 40 40 6f 01 00 00 cb 
22.420300 1 45a Rx d 8 fd 07 f8 ff 03 00 00 50 
22.420800 1 132 Rx d 6 73 88 f7 ff 25 40 
22.425400 1 3c2 Rx d 8 29 55 00 00 00 00 00 80 
22.430300 1 132 Rx d 6 5c 88 f7 ff 25 40 
22.433800 1 3a2 Rx d 8 92 2a 00 00 20 00 00 00 
22.434300 1 545 Rx d 8 02 00 05 00 00 00 e0 31 
22.437700 1 400 Rx d 7 b2 a0 63 bf ef fb 00 
22.441100 1 132 Rx d 6 75 88 f8 ff 28 40 
22.442800 1 234 Rx d 8 25 e1 03 80 43 00 34 9b 
22.450300 1 132 Rx d 6 68 88 f8 ff 29 40 
22.450700 1 372 Rx d 8 0c ee 7f 84 0f 00 00 00 
22.453400 1 7a8 Rx d 8 a8 b4 71 63 00 00 82 00 
22.455500 1 3a1 Rx d 8 e8 42 0d 8a 01 08 a2 2c 
22.460400 1 132 Rx d 6 78 88 f7 ff 25 40 
22.465100 1 272 Rx d 8 09 80 63 00 00 00 00 00 
22.466900 1 3a2 Rx d 8 60 85 f2 aa 04 80 c0 73 
22.469200 1 545 Rx d 8 f0 00 27 50 95 48 f9 87 
22.470400 1 45a Rx d 8 20 4b 4b cb 3f 49 00 6b 
22.470600 1 132 Rx d 6 6d 88 f8 ff 29 40 
22.473800 1 3c2 Rx d 8 00 55 55 55 00 00 59 45 
22.480300 1 132 Rx d 6 66 88 f8 ff 28 40 
22.490400 1 132 Rx d 6 70 88 f7 ff 27 40 
22.492800 1 234 Rx d 8 1b b0 01 24 91 04 40 60 
22.495100 1 2c4 Rx d 8 04 00 00 00 00 20 91 4a 
22.496200 1 2b4 Rx d 6 13 05 a7 0d cc 00 
22.500400 1 132 Rx d 6 67 88 f8 ff 27 40 
22.500800 1 3a2 Rx d 8 01 10 20 00 0b f0 ff 00 
22.501400 1 545 Rx d 8 01 00 00 00 00 10 00 5b 
22.505800 1 3a1 Rx d 8 2b fa 40 75 3e 00 b0 88 
22.507700 1 788 Rx d 8 01 00 00 00 ff a1 a8 12 
22.510300 1 132 Rx d 6 6e 88 f7 ff 24 40 
22.510700 1 372 Rx d 8 0d 32 00 00 00 40 7b 88 
22.514800 1 2c2 Rx d 8 55 a3 a8 46 01 00 1a a5 
22.520300 1 45a Rx d 8 fd 07 f8 ff 03 00 00 50 
22.520800 1 132 Rx d 6 68 88 f7 ff 25 40 
22.523900 1 301 Rx d 8 0a 01 14 01 2d 00 86 00 
22.524100 1 3c2 Rx d 8 29 55 00 00 00 00 00 80 
22.530300 1 132 Rx d 6 6a 88 f7 ff 25 40 
22.533000 1 3a2 Rx d 8 82 2a 00 00 20 00 00 00 
22.533700 1 545 Rx d 8 02 00 04 00 00 00 10 60 
22.537800 1 400 Rx d 7 b2 a0 63 bf ef fb 00 
22.539900 1 709 Rx d 8 c4 4d 37 f5 c5 1f 80 00 
22.541100 1 132 Rx d 6 67 88 f7 ff 27 40 
22.542800 1 234 Rx d 8 24 e1 03 80 43 00 54 ba 
22.549200 1 302 Rx d 8 0a 01 cf 00 2f 00 23 00 
22.550300 1 132 Rx d 6 70 88 f8 ff 29 40 
22.553300 1 7a8 Rx d 8 01 00 00 00 ff a1 98 12 
22.555800 1 3a1 Rx d 8 e8 42 0d 8a 01 08 c2 4c 
22.560500 1 132 Rx d 6 73 88 f7 ff 28 40 
22.565100 1 272 Rx d 8 06 00 ef 78 07 b0 07 08 
22.565900 1 3a2 Rx d 8 60 85 f2 aa 04 80 c0 73 
22.566800 1 545 Rx d 8 40 01 27 30 95 4a 29 ea 
22.570400 1 45a Rx d 8 20 4b 4b cb 3f 49 00 6b 
22.570600 1 132 Rx d 6 55 88 f8 ff 29 40 
22.570900 1 372 Rx d 8 0e 00 00 0c 06 7d 00 00 
22.573800 1 3c2 Rx d 8 00 55 55 55 00 00 59 45 
22.580300 1 132 Rx d 6 5d 88 f7 ff 25 40 
22.590400 1 132 Rx d 6 67 88 f7 ff 27 40 
22.592800 1 234 Rx d 8 1c b0 01 24 91 04 60 81 
22.595300 1 2c4 Rx d 8 25 22 00 00 00 00 00 20 
22.597400 1 2b4 Rx d 6 13 05 a7 0d d1 00 
22.598900 1 3a2 Rx d 8 01 10 20 00 07 f0 ff 00 
22.599200 1 545 Rx d 8 01 00 00 00 00 10 30 8b 
22.600400 1 132 Rx d 6 6b 88 f7 ff 25 40 
22.605200 1 3a1 Rx d 8 2b fa 40 79 3e 00 d0 ac 
22.609200 1 788 Rx d 8 02 40 ce 07 00 00 00 00 
22.610300 1 132 Rx d 6 6c 88 f7 ff 28 40 
22.615500 1 2c2 Rx d 8 20 40 40 6f 01 00 00 cb 
22.618400 1 303 Rx d 8 0a 01 cd 00 2d 00 24 00 
22.620300 1 132 Rx d 6 6e 88 f8 ff 28 40 
22.620800 1 45a Rx d 8 fd 07 f8 ff 03 00 00 50 
22.624200 1 3c2 Rx d 8 29 55 00 00 00 00 00 80 
22.631500 1 132 Rx d 6 66 88 f7 ff 25 40 
22.631900 1 3a2 Rx d 8 82 2a 00 00 20 00 00 00 
22.632500 1 545 Rx d 8 02 00 04 00 00 00 40 90 
22.637800 1 400 Rx d 7 b2 a0 63 bf ef fb 00 
22.641100 1 132 Rx d 6 5f 88 f8 ff 28 40 
22.643200 1 234 Rx d 8 24 e1 03 80 43 00 74 da 
22.650300 1 132 Rx d 6 67 88 f7 ff 25 40 
22.654000 1 7a8 Rx d 8 02 40 d3 07 00 07 00 00 
22.655500 1 3a1 Rx d 8 e8 42 0d 8a 01 08 e2 6c 
22.660400 1 132 Rx d 6 63 88 f8 ff 28 40 
22.664900 1 272 Rx d 8 09 80 63 00 00 00 00 00 
22.665100 1 3a2 Rx d 8 60 85 f2 aa 04 80 c0 73 
22.665400 1 545 Rx d 8 40 01 27 90 95 48 59 78 
22.670400 1 45a Rx d 8 20 4b 4b cb 3f 49 00 6b 
22.670700 1 132 Rx d 6 69 88 f7 ff 25 40 
22.673900 1 3c2 Rx d 8 00 55 55 55 00 00 59 45 
22.680300 1 132 Rx d 6 66 88 f7 ff 27 40 
22.690400 1 132 Rx d 6 6e 88 f8 ff 28 40 
22.694800 1 234 Rx d 8 1a b0 01 24 91 04 80 9f 
22.695300 1 2c4 Rx d 8 06 9f a1 8c ca 08 0d 00 
22.696300 1 2b4 Rx d 6 12 05 a6 0d cd 00 
22.697900 1 3a2 Rx d 8 01 10 20 00 07 f0 ff 00 
22.698900 1 545 Rx d 8 01 00 00 00 00 10 60 bb 
22.700400 1 132 Rx d 6 6e 88 f8 ff 27 40 
22.705800 1 3a1 Rx d 8 2b fa 40 7d 3e 00 f0 d0 
22.709200 1 788 Rx d 8 a8 bc 71 63 00 00 80 00 
22.710300 1 132 Rx d 6 78 88 f7 ff 27 40 
22.714800 1 2c2 Rx d 8 55 a3 a8 46 01 00 1a a5 
22.720300 1 45a Rx d 8 fd 07 f8 ff 03 00 00 50 
22.720800 1 132 Rx d 6 6c 88 f7 ff 25 40 
22.721700 1 300 Rx d 8 11 00 00 00 00 00 00 00 
22.722400 1 3f2 Rx d 8 09 f6 bb 18 30 64 f2 00 
22.724200 1 3c2 Rx d 8 29 55 00 00 00 00 00 80 
22.730300 1 132 Rx d 6 75 88 f8 ff 28 40 
22.730900 1 3a2 Rx d 8 82 2a 00 00 20 00 00 00 
22.731600 1 372 Rx d 8 00 08 c0 9a c2 11 d0 23 
22.732500 1 545 Rx d 8 02 00 03 00 00 00 70 bf 
22.737900 1 400 Rx d 7 b2 a0 63 bf ef fb 00 
22.740300 1 132 Rx d 6 6f 88 f8 ff 27 40 
22.743000 1 234 Rx d 8 25 e1 03 80 43 00 94 fb 
22.750300 1 132 Rx d 6 6a 88 f7 ff 27 40 
22.754000 1 7a8 Rx d 8 a8 b4 71 63 00 00 82 00 
22.755900 1 3a1 Rx d 8 e8 42 0d 8a 01 08 02 8c 
22.760500 1 132 Rx d 6 52 88 f7 ff 27 40 
22.763900 1 3a2 Rx d 8 60 85 f2 aa 04 80 c0 73 
22.764400 1 545 Rx d 8 f0 00 22 10 95 45 89 cf 
22.765100 1 272 Rx d 8 06 00 ef 78 07 b0 07 08 
22.770600 1 132 Rx d 6 62 88 f7 ff 28 40 
22.772800 1 23a Rx d 8 25 ff ff ff ff 00 00 00 
22.773700 1 3c2 Rx d 8 00 55 55 55 00 00 59 45 
22.774700 1 45a Rx d 8 20 4b 4b cb 3f 49 00 6b 
22.780300 1 132 Rx d 6 75 88 f7 ff 25 40 
22.785700 1 727 Rx d 2 01 00 
22.790300 1 132 Rx d 6 65 88 f7 ff 27 40 
22.790500 1 372 Rx d 8 01 d7 55 04 40 00 30 01 
22.794800 1 234 Rx d 8 1b b0 01 24 91 04 a0 c0 
22.795000 1 2c4 Rx d 8 47 06 a8 90 81 0c 93 06 
22.796700 1 2b4 Rx d 6 14 05 a6 0d ce 00 
22.796900 1 3a2 Rx d 8 01 10 20 00 07 f0 ff 00 
22.797400 1 545 Rx d 8 01 00 00 00 00 10 90 eb 
22.800400 1 132 Rx d 6 70 88 f7 ff 28 40 
22.806600 1 3a1 Rx d 8 2b fa 40 81 3e 00 10 f4 
22.809200 1 788 Rx d 8 01 00 00 00 ff a1 a8 12 
22.810300 1 132 Rx d 6 62 88 f7 ff 29 40 
22.815500 1 2c2 Rx d 8 20 40 40 6f 01 00 00 cb 
22.820300 1 132 Rx d 6 65 88 f8 ff 2a 40 
22.820800 1 45a Rx d 8 fd 07 f8 ff 03 00 00 50 
22.825400 1 3c2 Rx d 8 29 55 00 00 00 00 00 80 
22.830100 1 3a2 Rx d 8 82 2a 00 00 20 00 00 00 
22.830500 1 132 Rx d 6 76 88 f7 ff 27 40 
22.831500 1 545 Rx d 8 02 00 03 00 00 00 a0 ef 
22.837900 1 400 Rx d 7 b2 a0 63 bf ef fb 00 
22.841200 1 132 Rx d 6 66 88 f7 ff 25 40 
22.843000 1 234 Rx d 8 24 e1 03 80 43 00 b4 1a 
22.850200 1 132 Rx d 6 6c 88 f8 ff 27 40 
22.851600 1 372 Rx d 8 02 88 00 38 90 01 e0 59 
22.852000 1 709 Rx d 8 05 17 01 11 e0 4e 00 28 
22.854000 1 7a8 Rx d 8 01 00 00 00 ff a1 98 12 
22.855100 1 3a1 Rx d 8 e8 42 0d 8a 01 08 22 ac 
22.860500 1 132 Rx d 6 63 88 f7 ff 27 40 
22.863000 1 3a2 Rx d 8 60 85 f2 aa 04 80 40 73 
22.864100 1 545 Rx d 8 40 01 2c 50 95 48 b9 9d 
22.865100 1 272 Rx d 8 09 80 63 00 00 00 00 00 
22.870500 1 132 Rx d 6 66 88 f8 ff 29 40 
22.870700 1 330 Rx d 8 12 4d 38 39 30 36 31 33 
22.871900 1 45a Rx d 8 20 4b 4b cb 3f 49 00 6b 
22.873900 1 3c2 Rx d 8 00 55 55 55 00 00 59 45 
22.880300 1 132 Rx d 6 62 88 f7 ff 28 40 
22.890300 1 132 Rx d 6 6e 88 f7 ff 27 40 
22.892900 1 234 Rx d 8 1b b0 01 24 91 04 c0 e0 
22.895000 1 2c4 Rx d 8 08 37 60 ba a1 09 e3 a2 
22.896100 1 3a2 Rx d 8 01 10 20 00 07 f0 ff 00 
22.896400 1 2b4 Rx d 6 13 05 a6 0d cf 00 
22.897400 1 545 Rx d 8 01 00 00 00 00 10 c0 1b 
22.900400 1 132 Rx d 6 6a 88 f7 ff 25 40 
22.905800 1 3a1 Rx d 8 2b fa 40 87 3e 00 30 1a 
22.909200 1 788 Rx d 8 02 40 d0 07 00 00 00 00 
22.910300 1 132 Rx d 6 6c 88 f7 ff 27 40 
22.910800 1 372 Rx d 8 03 00 0b 50 00 01 00 00 
22.914300 1 2c2 Rx d 8 55 a3 a8 46 01 00 1a a5 
22.920300 1 132 Rx d 6 71 88 f7 ff 28 40 
22.920800 1 45a Rx d 8 fd 07 f8 ff 03 00 00 50 
22.924100 1 3c2 Rx d 8 29 55 00 00 00 00 00 80 
22.928900 1 3a2 Rx d 8 82 2a 00 00 20 00 00 00 
22.929200 1 545 Rx d 8 02 00 03 00 00 00 d0 1f 
22.930300 1 132 Rx d 6 69 88 f8 ff 25 40 
22.937900 1 400 Rx d 7 b2 a0 63 bf ef fb 00 
22.941200 1 132 Rx d 6 7a 88 f7 ff 25 40 
22.942900 1 234 Rx d 8 24 e1 03 80 43 00 d4 3a 
22.950300 1 132 Rx d 6 66 88 f7 ff 25 40 
22.952900 1 70b Rx d 8 09 00 00 00 00 00 00 00 
22.953300 1 7a8 Rx d 8 02 40 d5 07 00 07 00 00 
22.955900 1 3a1 Rx d 8 e8 42 0d 8a 01 08 42 cc 
22.960500 1 132 Rx d 6 6b 88 f7 ff 28 40 
22.961900 1 3a2 Rx d 8 60 85 f2 aa 04 80 c0 73 
22.962700 1 545 Rx d 8 40 01 27 60 95 49 e9 d9 
22.965100 1 272 Rx d 8 06 00 ef 78 07 b0 07 08 
22.970400 1 45a Rx d 8 20 4b 4b cb 3f 49 00 6b 
22.970700 1 132 Rx d 6 61 88 f8 ff 27 40 
22.970900 1 372 Rx d 8 04 00 00 00 00 00 fa 10 
22.973900 1 3c2 Rx d 8 00 55 55 55 00 00 59 45 
22.980300 1 132 Rx d 6 62 88 f8 ff 27 40 
22.990300 1 132 Rx d 6 69 88 f7 ff 25 40 
22.992900 1 234 Rx d 8 1b b0 01 24 91 04 e0 00 
22.994900 1 3a2 Rx d 8 01 10 20 00 07 f0 ff 00 
22.995100 1 2c4 Rx d 8 49 d9 05 2f aa 94 e5 89 
22.996300 1 2b4 Rx d 6 12 05 a6 0d d1 00 
22.997400 1 545 Rx d 8 01 00 00 00 00 10 f0 4b 
36.500400 1 132 Rx d 6 40 88 f8 ff 25 40 
36.506200 1 3a1 Rx d 8 2b fa 40 6d 3e 00 30 00 
36.509600 1 788 Rx d 8 a8 bc 71 63 00 00 80 00 
36.510500 1 132 Rx d 6 4b 88 f7 ff 28 40 
36.510800 1 372 Rx d 8 0d 32 00 00 00 40 66 88 
36.514800 1 2c2 Rx d 8 55 a3 a8 46 01 00 1a a5 
36.520600 1 132 Rx d 6 46 88 f8 ff 27 40 
36.521600 1 45a Rx d 8 fd 07 f8 ff 03 00 00 26 
36.523900 1 301 Rx d 8 0b 2d 00 00 00 00 00 00 
36.525100 1 3c2 Rx d 8 29 55 00 00 00 00 00 80 
36.525800 1 3a2 Rx d 8 60 85 f2 aa 04 80 c0 73 
36.526400 1 545 Rx d 8 40 01 27 10 95 45 99 35 
36.530500 1 132 Rx d 6 48 88 f7 ff 28 40 
36.538800 1 400 Rx d 7 00 e0 fb be ef fb 00 
36.540600 1 132 Rx d 6 51 88 f7 ff 28 40 
36.542200 1 234 Rx d 8 24 e1 03 80 43 00 d4 3a 
36.550300 1 302 Rx d 8 0b 2f 00 00 00 00 00 00 
36.550800 1 132 Rx d 6 56 88 f7 ff 25 40 
36.555000 1 7a8 Rx d 8 a8 b4 71 63 00 00 82 00 
36.556800 1 3a1 Rx d 8 e8 42 0d 8a 01 08 42 cc 
36.559200 1 3a2 Rx d 8 01 10 20 00 1a f0 ff 00 
36.559600 1 545 Rx d 8 01 00 00 00 00 10 a0 fb 
36.560600 1 132 Rx d 6 50 88 f7 ff 24 40 
36.566200 1 272 Rx d 8 06 00 ef 78 07 b0 07 08 
36.570900 1 132 Rx d 6 52 88 f8 ff 24 40 
36.571300 1 372 Rx d 8 0e 00 00 0c 06 7d 00 00 
36.571600 1 45a Rx d 8 20 4b 4b cb 3f 4a 00 6b 
36.574100 1 3c2 Rx d 8 00 55 55 55 00 00 59 45 
36.580400 1 709 Rx d 8 10 f1 00 00 00 00 00 00 
36.580800 1 132 Rx d 6 4b 88 f7 ff 25 40 
36.590500 1 132 Rx d 6 59 88 f7 ff 27 40 
36.591800 1 3a2 Rx d 8 82 2a 00 00 20 00 00 00 
36.592300 1 234 Rx d 8 1b b0 01 24 91 04 e0 00 
36.592800 1 545 Rx d 8 02 00 02 00 00 00 b0 fe 
36.594300 1 2c4 Rx d 8 17 80 00 00 04 10 20 00 
36.595200 1 2b4 Rx d 6 12 05 a6 0d ca 00 
36.600400 1 132 Rx d 6 47 88 f8 ff 29 40 
36.606000 1 3a1 Rx d 8 2b fa 40 77 3e 00 50 2a 
36.609600 1 788 Rx d 8 01 00 00 00 ff a1 a8 12 
36.610800 1 132 Rx d 6 51 88 f7 ff 27 40 
36.614800 1 2c2 Rx d 8 20 40 40 6f 01 00 00 cb 
36.619400 1 303 Rx d 8 0b 2d 00 00 00 00 00 00 
36.620500 1 330 Rx d 8 0b 00 03 01 00 00 00 00 
36.620700 1 132 Rx d 6 5a 88 f7 ff 28 40 
36.621600 1 45a Rx d 8 fd 07 f8 ff 03 00 00 26 
36.624800 1 3c2 Rx d 8 29 55 00 00 00 00 00 80 
36.625100 1 3a2 Rx d 8 60 85 f2 aa 04 80 c0 73 
36.626400 1 545 Rx d 8 40 01 27 10 95 49 c9 69 
36.630500 1 132 Rx d 6 55 88 f8 ff 28 40 
36.638800 1 400 Rx d 7 00 e0 fb be ef fb 00 
36.640600 1 132 Rx d 6 4e 88 f7 ff 24 40 
36.642200 1 234 Rx d 8 24 e1 03 80 43 00 f4 5a 
36.650800 1 132 Rx d 6 51 88 f7 ff 27 40 
36.654400 1 7a8 Rx d 8 01 00 00 00 ff a1 98 12 
36.655900 1 3a1 Rx d 8 e8 42 0d 8a 01 0c 62 f0 
36.657800 1 3a2 Rx d 8 01 10 20 00 1e f0 ff 00 
36.658300 1 545 Rx d 8 01 00 00 00 00 10 d0 2b 
36.660600 1 132 Rx d 6 5a 88 f7 ff 28 40 
36.666200 1 272 Rx d 8 09 80 63 00 00 00 00 00 
36.670800 1 132 Rx d 6 50 88 f8 ff 27 40 
36.671600 1 45a Rx d 8 20 4b 4b cb 3f 4a 00 6b 
36.674100 1 3c2 Rx d 8 00 55 55 55 00 00 59 45 
36.680800 1 132 Rx d 6 3a 88 f7 ff 24 40 
36.690600 1 132 Rx d 6 41 88 f7 ff 25 40 
36.691000 1 3a2 Rx d 8 82 2a 00 00 20 00 00 00 
36.691500 1 545 Rx d 8 02 00 02 00 00 00 e0 2e 
36.692100 1 234 Rx d 8 1b b0 01 24 91 04 00 20 
36.694300 1 2c4 Rx d 8 19 7b 1f 42 02 14 60 00 
36.695200 1 2b4 Rx d 6 14 05 a6 0d cf 00 
36.700400 1 132 Rx d 6 48 88 f7 ff 27 40 
36.706200 1 3a1 Rx d 8 2b fa 40 7d 3e 00 70 50 
36.709600 1 788 Rx d 8 02 40 d2 07 00 00 00 00 
36.710800 1 132 Rx d 6 57 88 f7 ff 27 40 
36.714800 1 2c2 Rx d 8 55 a3 a8 46 01 00 1a a5 
36.720600 1 132 Rx d 6 4d 88 f7 ff 25 40 
36.721600 1 45a Rx d 8 fd 07 f8 ff 03 00 00 26 
36.722000 1 300 Rx d 8 14 05 00 00 fc 21 82 ed 
36.722900 1 3f2 Rx d 8 0b 7f 10 16 80 30 d8 00 
36.724900 1 3a2 Rx d 8 60 85 72 a9 04 80 c0 73 
36.725200 1 3c2 Rx d 8 29 55 00 00 00 00 00 80 
36.725600 1 545 Rx d 8 40 01 27 50 95 48 f9 d8 
36.730600 1 132 Rx d 6 44 88 f8 ff 27 40 
36.731700 1 372 Rx d 8 00 08 c0 9b 32 12 5c 23 
36.737600 1 400 Rx d 7 00 e0 fb be ef fb 00 
36.740600 1 132 Rx d 6 53 88 f8 ff 27 40 
36.742200 1 234 Rx d 8 24 e1 03 80 43 00 14 7a 
36.750500 1 132 Rx d 6 4d 88 f7 ff 24 40 
36.755300 1 7a8 Rx d 8 02 40 d2 07 00 07 00 00 
36.756600 1 3a1 Rx d 8 e8 42 0d 8a 01 08 82 0c 
36.756900 1 545 Rx d 8 01 00 00 00 00 10 00 5b 
36.757100 1 3a2 Rx d 8 01 10 20 00 00 f0 ff 00 
36.760600 1 132 Rx d 6 4e 88 f7 ff 25 40 
36.766200 1 272 Rx d 8 06 00 ef 78 07 b0 07 08 
36.771000 1 132 Rx d 6 51 88 f7 ff 25 40 
36.773800 1 23a Rx d 8 0d 32 68 ef 3e 1c 34 d7 
36.774500 1 3c2 Rx d 8 00 55 55 55 00 00 59 45 
36.775200 1 45a Rx d 8 20 4b 4b cb 3f 4a 00 6b 
36.780800 1 132 Rx d 6 49 88 f7 ff 28 40 
36.786200 1 727 Rx d 2 03 00 
36.790500 1 3a2 Rx d 8 92 2a 00 00 20 00 00 00 
36.790700 1 132 Rx d 6 46 88 f7 ff 25 40 
36.791000 1 372 Rx d 8 01 d7 55 04 40 00 2c 01 
36.791900 1 545 Rx d 8 02 00 02 00 00 00 10 5e 
36.792800 1 234 Rx d 8 1b b0 01 24 91 04 20 40 
36.794300 1 2c4 Rx d 8 00 00 00 d2 00 00 00 00 
36.795400 1 2b4 Rx d 6 12 05 a6 0d d2 00 
36.800400 1 132 Rx d 6 4b 88 f7 ff 29 40 
36.807600 1 3a1 Rx d 8 2b fa 40 75 3e 00 90 68 
36.809600 1 788 Rx d 8 a8 bc 71 63 00 00 80 00 
36.810600 1 132 Rx d 6 47 88 f7 ff 27 40 
36.814900 1 2c2 Rx d 8 20 40 40 6f 01 00 00 cb 
36.820600 1 132 Rx d 6 3c 88 f8 ff 28 40 
36.821600 1 45a Rx d 8 fd 07 f8 ff 03 00 00 26 
36.822900 1 3a2 Rx d 8 60 85 f2 aa 04 80 c0 73 
36.823600 1 545 Rx d 8 40 01 27 00 95 44 29 b4 
36.826300 1 3c2 Rx d 8 29 55 00 00 00 00 00 80 
36.830600 1 132 Rx d 6 4d 88 f8 ff 25 40 
36.838800 1 400 Rx d 7 00 e0 fb be ef fb 00 
36.840600 1 132 Rx d 6 4d 88 f7 ff 28 40 
36.842200 1 234 Rx d 8 24 e1 03 80 43 00 34 9a 
36.850600 1 132 Rx d 6 4f 88 f7 ff 24 40 
36.850800 1 372 Rx d 8 02 88 00 3c 90 01 e0 59 
36.855200 1 7a8 Rx d 8 a8 b4 71 63 00 00 82 00 
36.855900 1 3a2 Rx d 8 01 10 20 00 1e f0 ff 00 
36.856100 1 3a1 Rx d 8 e8 42 0d 8a 01 08 a2 2c 
36.856600 1 545 Rx d 8 01 00 00 00 00 10 30 8b 
36.860700 1 132 Rx d 6 48 88 f7 ff 28 40 
36.866200 1 272 Rx d 8 09 80 63 00 00 00 00 00 
36.870800 1 132 Rx d 6 52 88 f8 ff 29 40 
36.872200 1 45a Rx d 8 20 4b 4b cb 3f 4a 00 6b 
36.874100 1 3c2 Rx d 8 00 55 55 55 00 00 59 45 
36.880800 1 132 Rx d 6 56 88 f7 ff 25 40 
36.888900 1 3a2 Rx d 8 92 2a 00 00 20 00 00 00 
36.889600 1 545 Rx d 8 02 00 02 00 00 00 40 8e 
36.890600 1 132 Rx d 6 4f 88 f7 ff 27 40 
36.892100 1 709 Rx d 8 11 55 00 60 04 00 02 08 
36.892800 1 234 Rx d 8 1a b0 01 24 91 04 40 5f 
36.894300 1 2c4 Rx d 8 01 00 00 d2 00 00 00 00 
36.895600 1 2b4 Rx d 6 11 05 a6 0d cd 00 
36.900400 1 132 Rx d 6 50 88 f7 ff 25 40 
36.906200 1 3a1 Rx d 8 2b fa 40 6d 3e 00 b0 80 
36.909600 1 788 Rx d 8 01 00 00 00 ff a1 a8 12 
36.910600 1 132 Rx d 6 50 88 f8 ff 29 40 
36.910800 1 372 Rx d 8 03 00 0b 50 00 01 00 00 
36.914900 1 2c2 Rx d 8 55 a3 a8 46 01 00 1a a5 
36.920600 1 132 Rx d 6 4c 88 f8 ff 28 40 
36.921600 1 45a Rx d 8 fd 07 f8 ff 03 00 00 26 
36.921800 1 545 Rx d 8 f0 00 22 10 95 45 59 9f 
36.922100 1 3a2 Rx d 8 60 85 f2 aa 04 80 c0 73 
36.925100 1 3c2 Rx d 8 29 55 00 00 00 00 00 80 
36.930600 1 132 Rx d 6 54 88 f8 ff 29 40 
36.938800 1 400 Rx d 7 00 e0 fb be ef fb 00 
36.940600 1 132 Rx d 6 52 88 f8 ff 29 40 
36.942200 1 234 Rx d 8 24 e1 03 80 43 00 54 ba 
36.950600 1 132 Rx d 6 53 88 f8 ff 29 40 
36.951600 1 70b Rx d 8 03 db d8 e9 ec f2 f1 d4 
36.954500 1 7a8 Rx d 8 01 00 00 00 ff a1 98 12 
36.954900 1 3a2 Rx d 8 01 10 20 00 0b f0 ff 00 
36.955100 1 545 Rx d 8 01 00 00 00 00 10 60 bb 
36.956200 1 3a1 Rx d 8 e8 42 0d 8a 01 08 c2 4c 
36.960600 1 132 Rx d 6 53 88 f7 ff 25 40 
36.966200 1 272 Rx d 8 06 00 ef 78 07 b0 07 08 
36.970800 1 132 Rx d 6 4e 88 f8 ff 27 40 
36.971300 1 372 Rx d 8 04 00 00 00 00 00 fa 10 
36.971800 1 45a Rx d 8 20 4b 4b cb 3f 4a 00 6b 
36.974100 1 3c2 Rx d 8 00 55 55 55 00 00 59 45 
36.980800 1 132 Rx d 6 4e 88 f7 ff 28 40 
36.987900 1 3a2 Rx d 8 82 2a 00 00 20 00 00 00 
36.989600 1 545 Rx d 8 02 00 02 00 00 00 70 be 
36.990500 1 132 Rx d 6 5c 88 f7 ff 27 40 
36.992800 1 234 Rx d 8 1b b0 01 24 91 04 60 80 
36.994200 1 2c4 Rx d 8 02 00 00 d2 00 00 00 00 
36.995400 1 2b4 Rx d 6 13 05 a6 0d cb 00 
37.000400 1 132 Rx d 6 5e 88 f7 ff 25 40 
37.007600 1 3a1 Rx d 8 2b fa 40 81 3e 00 d0 b4 
37.009600 1 788 Rx d 8 02 40 d2 07 00 00 00 00 
37.010600 1 132 Rx d 6 54 88 f8 ff 25 40 
37.014900 1 2c2 Rx d 8 20 40 40 6f 01 00 00 cb 
37.020700 1 132 Rx d 6 5e 88 f7 ff 24 40 
37.021600 1 3a2 Rx d 8 60 85 72 a9 04 80 c0 73 
37.021900 1 45a Rx d 8 fd 07 f8 ff 03 00 00 26 
37.022600 1 545 Rx d 8 40 01 27 10 95 49 89 29 
37.026300 1 3c2 Rx d 8 29 55 00 00 00 00 00 80 
37.030600 1 132 Rx d 6 47 88 f7 ff 25 40 
37.030800 1 372 Rx d 8 05 46 3b 0d 00 00 00 00 
37.038800 1 400 Rx d 7 00 e0 fb be ef fb 00 
37.040600 1 132 Rx d 6 51 88 f7 ff 25 40 
37.042200 1 234 Rx d 8 24 e1 03 80 43 00 74 da 
37.050600 1 132 Rx d 6 45 88 f7 ff 25 40 
37.053900 1 3a2 Rx d 8 01 10 20 00 09 f0 ff 00 
37.054000 1 545 Rx d 8 01 00 00 00 00 10 90 eb 
37.055100 1 7a8 Rx d 8 02 40 ce 07 00 07 00 00 
37.055900 1 3a1 Rx d 8 e8 42 0d 8a 01 08 e2 6c 
37.058300 1 319 Rx d 8 27 00 00 00 ff ff ff ff 
37.060700 1 132 Rx d 6 53 88 f7 ff 27 40 
37.066200 1 272 Rx d 8 09 80 63 00 00 00 00 00 
37.070900 1 132 Rx d 6 50 88 f8 ff 29 40 
37.071700 1 45a Rx d 8 20 4b 4b cb 3f 4a 00 6b 
37.074200 1 3c2 Rx d 8 00 55 55 55 00 00 59 45 
37.080800 1 132 Rx d 6 4d 88 f7 ff 29 40 
37.086900 1 545 Rx d 8 02 00 02 00 00 00 a0 ee 
37.087300 1 3a2 Rx d 8 82 2a 00 00 20 00 00 00 
37.090600 1 132 Rx d 6 4d 88 f7 ff 27 40 
37.090800 1 372 Rx d 8 06 45 d3 1a 54 a3 0f 02 
37.092800 1 234 Rx d 8 1b b0 01 24 91 04 80 a0 
37.094300 1 2c4 Rx d 8 23 01 0e 00 01 10 80 00 
37.095400 1 2b4 Rx d 6 14 05 a7 0d d1 00 
37.100400 1 132 Rx d 6 43 88 f7 ff 25 40 
37.106000 1 3a1 Rx d 8 2b fa 40 81 3e 00 f0 d4 
37.109600 1 788 Rx d 8 a8 bc 71 63 00 00 80 00 
37.110600 1 132 Rx d 6 51 88 f7 ff 28 40 
37.114900 1 2c2 Rx d 8 55 a3 a8 46 01 00 1a a5 
37.120000 1 3a2 Rx d 8 60 85 f2 aa 04 80 c0 73 
37.120500 1 545 Rx d 8 40 01 2c 10 95 49 b9 5e 
37.120700 1 132 Rx d 6 4e 88 f8 ff 29 40 
37.121600 1 45a Rx d 8 fd 07 f8 ff 03 00 00 26 
37.124800 1 3c2 Rx d 8 29 55 00 00 00 00 00 80 
37.130600 1 132 Rx d 6 58 88 f7 ff 28 40 
37.138800 1 400 Rx d 7 00 e0 fb be ef fb 00 
37.140600 1 132 Rx d 6 46 88 f8 ff 27 40 
37.142300 1 234 Rx d 8 24 e1 03 80 43 00 94 fa 
37.150600 1 132 Rx d 6 4b 88 f7 ff 24 40 
37.150800 1 372 Rx d 8 07 00 00 00 00 00 00 00 
37.152900 1 3a2 Rx d 8 01 10 20 00 07 f0 ff 00 
37.154000 1 545 Rx d 8 01 00 00 00 00 10 c0 1b 
37.155100 1 7a8 Rx d 8 a8 b4 71 63 00 00 82 00 
37.156800 1 3a1 Rx d 8 e8 42 0d 8a 01 08 02 8c 
37.160700 1 132 Rx d 6 44 88 f7 ff 25 40 
37.166200 1 272 Rx d 8 06 00 ef 78 07 b0 07 08 
37.170900 1 132 Rx d 6 4e 88 f8 ff 27 40 
37.171700 1 45a Rx d 8 20 4b 4b cb 3f 4a 00 6b 
37.174100 1 3c2 Rx d 8 00 55 55 55 00 00 59 45 
37.180800 1 132 Rx d 6 52 88 f7 ff 25 40 
37.185900 1 3a2 Rx d 8 82 2a 00 00 20 00 00 00 
37.186200 1 545 Rx d 8 02 00 02 00 00 00 d0 1e 
37.190600 1 132 Rx d 6 4f 88 f7 ff 27 40 
37.192800 1 234 Rx d 8 1b b0 01 24 91 04 a0 c0 
37.194200 1 2c4 Rx d 8 04 00 00 00 00 20 89 4a 
37.195300 1 2b4 Rx d 6 13 05 a7 0d cf 00 
37.200400 1 132 Rx d 6 53 88 f7 ff 28 40 
37.204900 1 709 Rx d 8 12 2d 00 60 04 00 00 00 
37.205900 1 3a1 Rx d 8 2b fa 40 75 3e 00 10 e8 
37.209600 1 788 Rx d 8 01 00 00 00 ff a1 a8 12 
37.210600 1 132 Rx d 6 46 88 f7 ff 27 40 
37.210800 1 372 Rx d 8 08 00 00 00 00 00 00 00 
37.214900 1 2c2 Rx d 8 20 40 40 6f 01 00 00 cb 
37.218900 1 545 Rx d 8 40 01 27 00 95 48 e9 78 
37.219200 1 3a2 Rx d 8 60 85 f2 aa 04 80 c0 73 
37.220700 1 132 Rx d 6 4d 88 f8 ff 28 40 
37.221600 1 45a Rx d 8 fd 07 f8 ff 03 00 00 26 
37.223800 1 361 Rx d 5 33 0d 20 03 01 
37.226400 1 3c2 Rx d 8 29 55 00 00 00 00 00 80 
37.230600 1 132 Rx d 6 56 88 f7 ff 28 40 
37.237600 1 400 Rx d 7 00 e0 fb be ef fb 00 
37.240600 1 132 Rx d 6 53 88 f7 ff 29 40 
37.242300 1 234 Rx d 8 24 e1 03 80 43 00 b4 1a 
37.250600 1 132 Rx d 6 50 88 f7 ff 28 40 
37.252400 1 3a2 Rx d 8 01 10 20 00 07 f0 ff 00 
37.252900 1 545 Rx d 8 01 00 00 00 00 10 f0 4b 
37.254500 1 7a8 Rx d 8 01 00 00 00 ff a1 98 12 
37.255900 1 3a1 Rx d 8 e8 42 0d 8a 01 08 22 ac 
37.260700 1 132 Rx d 6 49 88 f7 ff 28 40 
37.265800 1 272 Rx d 8 09 80 63 00 00 00 00 00 
37.266200 1 382 Rx d 5 42 18 27 00 00 
37.270900 1 132 Rx d 6 55 88 f7 ff 25 40 
37.271300 1 372 Rx d 8 09 00 00 00 00 f8 3f 00 
37.271800 1 45a Rx d 8 20 4b 4b cb 3f 4a 00 6b 
37.274200 1 3c2 Rx d 8 00 55 55 55 01 00 59 45 
37.275600 1 3c2 Rx d 8 00 55 55 55 01 00 59 45 
37.275800 1 2c2 Rx d 8 22 50 40 6f 01 00 00 cb 
37.280800 1 132 Rx d 6 56 88 f7 ff 27 40 
37.284900 1 3a2 Rx d 8 82 2a 00 00 20 00 00 00 
37.285200 1 545 Rx d 8 02 00 02 00 00 00 00 4e 
37.286600 1 2c2 Rx d 8 55 03 a8 46 81 00 1a a5 
37.290600 1 132 Rx d 6 4e 88 f4 ff 20 40 
37.292800 1 234 Rx d 8 24 b0 01 25 95 04 c0 ee 
37.294200 1 2c4 Rx d 8 25 22 00 00 00 00 00 20 
37.295100 1 2b4 Rx d 6 15 05 a6 0d 11 01 
37.300400 1 132 Rx d 6 52 88 f4 ff 1f 40 
37.306200 1 3a1 Rx d 8 2b fa 40 13 3e 00 30 a6 
37.309600 1 788 Rx d 8 02 40 ce 07 00 00 00 00 
37.310600 1 132 Rx d 6 4d 88 f6 ff 23 40 
37.314900 1 2c2 Rx d 8 22 52 ca 6e 01 00 00 cb 
37.317900 1 545 Rx d 8 d0 05 27 00 95 44 19 38 
37.318100 1 3a2 Rx d 8 60 85 f2 a5 04 80 c0 73 
37.320700 1 132 Rx d 6 54 88 f6 ff 23 40 
37.321700 1 45a Rx d 8 fd 07 f8 ff 03 00 00 26 
37.325100 1 3c2 Rx d 8 29 55 00 00 00 00 00 80 
37.330600 1 132 Rx d 6 4b 88 f6 ff 23 40 
37.331500 1 372 Rx d 8 0a 01 40 06 00 00 00 82 
37.338700 1 400 Rx d 7 00 e0 fb be ef fb 00 
37.340600 1 132 Rx d 6 4e 88 f6 ff 25 40 
37.342300 1 234 Rx d 8 24 e1 03 80 43 00 d4 3a 
37.346400 1 3c2 Rx d 8 00 55 55 55 02 00 59 45 
37.350600 1 132 Rx d 6 5e 88 f6 ff 24 40 
37.351000 1 3a2 Rx d 8 01 90 20 00 07 f0 ff 00 
37.351800 1 545 Rx d 8 01 00 00 00 00 10 20 7b 
37.354500 1 7a8 Rx d 8 02 40 d1 07 00 07 00 00 
37.355600 1 2c2 Rx d 8 2c 53 c9 6d 01 00 00 cb 
37.356100 1 3a1 Rx d 8 e8 42 0d 8a 01 08 42 cc 
37.360700 1 132 Rx d 6 51 88 f6 ff 23 40 
37.366200 1 272 Rx d 8 06 00 ee 70 07 b0 07 08 
37.370900 1 132 Rx d 6 3e 88 f5 ff 22 40 
37.371600 1 45a Rx d 8 20 4b 4b cb 3f 4a 00 6b 
37.374100 1 3c2 Rx d 8 00 55 55 55 02 00 59 45 
37.380900 1 132 Rx d 6 56 88 f5 ff 20 40 
37.384400 1 3a2 Rx d 8 82 2a 00 00 20 00 00 00 
37.384700 1 545 Rx d 8 02 00 02 00 00 00 30 7e 
37.390800 1 132 Rx d 6 55 88 f4 ff 1f 40 
37.391000 1 372 Rx d 8 0b eb ff 8d 00 65 66 00 
37.392800 1 234 Rx d 8 26 b0 01 23 8d 04 e0 06 
37.394200 1 2c4 Rx d 8 06 9f a1 8c ca 18 0d 00 
37.395100 1 2b4 Rx d 6 12 05 a6 0d 23 01 
37.396300 1 373 Rx d 8 08 a2 ab 00 00 de 06 1f 
37.400400 1 132 Rx d 6 57 88 f4 ff 1f 40 
37.407600 1 3a1 Rx d 8 2b fa 40 d1 3d 00 50 83 
37.409600 1 788 Rx d 8 a0 bc 71 63 00 00 80 00 
37.410600 1 132 Rx d 6 4c 88 f5 ff 20 40 
37.414900 1 2c2 Rx d 8 55 03 a8 46 81 00 1a a5 
37.416900 1 545 Rx d 8 30 0c 27 d0 94 45 49 9f 
37.417500 1 3a2 Rx d 8 60 85 f2 a0 04 00 c0 73 
37.420700 1 132 Rx d 6 51 88 f5 ff 22 40 
37.421700 1 45a Rx d 8 fd 07 f8 ff 03 00 00 26 
37.426200 1 3c2 Rx d 8 29 55 00 00 00 00 00 80 
37.430600 1 132 Rx d 6 4a 88 f5 ff 20 40 
37.437600 1 400 Rx d 7 00 e0 fb be ef fb 00 
37.440600 1 132 Rx d 6 4f 88 f4 ff 20 40 
37.442300 1 234 Rx d 8 24 e1 03 80 43 00 f4 5a 
37.450100 1 3a2 Rx d 8 01 30 21 00 09 f0 ff 00 
37.450300 1 545 Rx d 8 01 00 00 00 00 10 50 ab 
37.450600 1 132 Rx d 6 58 88 f4 ff 20 40 
37.450900 1 372 Rx d 8 0c ee 7f 84 0f 00 00 00 
37.455100 1 7a8 Rx d 8 a4 b4 71 63 00 00 82 00 
37.456100 1 3a1 Rx d 8 e8 42 0d 8a 01 08 62 ec 
37.460700 1 132 Rx d 6 4e 88 f4 ff 22 40 
37.460900 1 53e Rx d 8 11 00 00 00 00 00 00 00 
37.466200 1 272 Rx d 8 09 80 63 00 00 00 00 00 
37.470900 1 132 Rx d 6 4f 88 f5 ff 23 40 
37.471400 1 45a Rx d 8 20 4b 4b cb 3f 4a 00 6b 
37.474200 1 3c2 Rx d 8 00 55 55 55 02 00 59 45 
37.480900 1 132 Rx d 6 43 88 f4 ff 22 40 
37.482900 1 3a2 Rx d 8 82 2a 00 00 20 00 00 00 
37.483700 1 545 Rx d 8 02 00 02 00 00 00 60 ae 
37.490600 1 132 Rx d 6 53 88 f4 ff 22 40 
37.492900 1 234 Rx d 8 27 b0 01 24 91 04 00 2c 
37.494200 1 2c4 Rx d 8 a7 07 b6 90 81 0c ac 06 
37.495300 1 2b4 Rx d 6 14 05 a6 0d 2a 01 
37.495600 1 3c2 Rx d 8 00 55 55 55 01 00 59 45 
37.500400 1 132 Rx d 6 4a 88 f4 ff 1e 40 
37.506200 1 3a1 Rx d 8 2b fa 40 bd 3d 00 70 8f 
37.509600 1 788 Rx d 8 01 00 00 00 ff a1 78 12 
37.510600 1 132 Rx d 6 43 88 f4 ff 1f 40 
37.510800 1 372 Rx d 8 0d 32 00 00 00 40 5c 88 
37.514900 1 2c2 Rx d 8 2c 54 d3 6a 01 00 00 cb 
37.515900 1 3a2 Rx d 8 60 85 72 9f 04 00 c0 73 
37.516400 1 545 Rx d 8 d0 0c 2c d0 94 45 79 74 
37.516700 1 709 Rx d 8 13 54 00 e0 04 00 00 00 
37.520700 1 132 Rx d 6 48 88 f4 ff 1f 40 
37.521700 1 45a Rx d 8 fd 07 f8 ff 03 00 00 26 
37.523900 1 301 Rx d 8 0d 33 ec 80 fd 00 00 00 
37.525100 1 3c2 Rx d 8 29 55 00 00 00 00 00 80 
37.530600 1 132 Rx d 6 52 88 f5 ff 20 40 
37.538900 1 400 Rx d 7 00 e0 fb be ef fb 00 
37.540600 1 132 Rx d 6 4e 88 f5 ff 23 40 
37.542300 1 234 Rx d 8 24 e1 03 80 43 00 14 7a 
37.549500 1 3a2 Rx d 8 01 40 21 00 0b f0 ff 00 
37.549700 1 545 Rx d 8 01 00 00 00 00 10 80 db 
37.550300 1 302 Rx d 8 0d b2 c0 40 81 00 00 00 
37.550900 1 132 Rx d 6 50 88 f4 ff 1f 40 
37.554500 1 7a8 Rx d 8 01 00 00 00 ff a1 98 12 
37.556900 1 3a1 Rx d 8 e8 42 0d 8a 01 08 82 0c 
37.560700 1 132 Rx d 6 4c 88 f4 ff 1f 40 
37.566300 1 272 Rx d 8 06 00 ee 70 07 b0 07 08 
37.570900 1 132 Rx d 6 56 88 f4 ff 1f 40 
37.571400 1 372 Rx d 8 0e 00 00 0c 06 7d 00 00 
37.571700 1 45a Rx d 8 20 4b 4b cb 3f 4a 00 6b 
37.574100 1 3c2 Rx d 8 00 55 55 55 01 00 59 45 
37.580900 1 132 Rx d 6 5a 88 f4 ff 20 40 
37.581900 1 545 Rx d 8 02 00 02 00 00 00 90 de 
37.583700 1 3a2 Rx d 8 82 2a 00 00 20 00 00 00 
37.590600 1 132 Rx d 6 4b 88 f3 ff 1d 40 
37.592900 1 234 Rx d 8 27 c0 01 25 95 04 20 61 
37.594200 1 2c4 Rx d 8 a8 37 c0 64 61 ff 22 a3 
37.595600 1 2b4 Rx d 6 17 05 a6 0d 2a 01 
37.600500 1 132 Rx d 6 48 88 f4 ff 1f 40 
37.606000 1 3a1 Rx d 8 2b fa 40 cf 3d 00 90 c1 
37.609600 1 788 Rx d 8 02 40 d0 07 00 00 00 00 
37.610900 1 132 Rx d 6 3c 88 f4 ff 20 40 
37.614900 1 545 Rx d 8 d0 0c 27 c0 94 3f a9 89 
37.615300 1 2c2 Rx d 8 55 03 a8 46 81 00 1a a5 
37.615900 1 3a2 Rx d 8 60 85 72 9f 04 00 c0 73 
37.619400 1 303 Rx d 8 0d 63 62 c8 40 00 00 00 
37.620700 1 132 Rx d 6 4f 88 f4 ff 22 40 
37.621700 1 45a Rx d 8 fd 07 f8 ff 03 00 00 26 
37.624900 1 3c2 Rx d 8 29 55 00 00 00 00 00 80 
37.630600 1 132 Rx d 6 55 88 f4 ff 1e 40 
37.638900 1 400 Rx d 7 00 e0 fb be ef fb 00 
37.640600 1 132 Rx d 6 52 88 f4 ff 22 40 
37.642300 1 234 Rx d 8 24 e1 03 80 43 00 34 9a 
37.648700 1 3a2 Rx d 8 01 40 21 00 0b f0 ff 00 
37.649700 1 545 Rx d 8 01 00 00 00 00 10 b0 0b 
37.650900 1 132 Rx d 6 53 88 f4 ff 22 40 
37.654900 1 7a8 Rx d 8 02 40 d1 07 00 07 00 00 
37.655900 1 3a1 Rx d 8 e8 42 0d 8a 01 08 a2 2c 
37.660700 1 132 Rx d 6 56 88 f4 ff 24 40 
37.665700 1 3c2 Rx d 8 00 55 55 55 00 00 59 45 
37.666300 1 272 Rx d 8 09 80 63 00 00 00 00 00 
37.670900 1 132 Rx d 6 4d 88 f4 ff 1e 40 
37.671700 1 45a Rx d 8 20 4b 4b cb 3f 4a 00 6b 
37.674200 1 3c2 Rx d 8 00 55 55 55 00 00 59 45 
37.680700 1 132 Rx d 6 47 88 f4 ff 1f 40 
37.680900 1 3a2 Rx d 8 82 2a 00 00 20 00 00 00 
37.682700 1 545 Rx d 8 02 00 03 00 00 00 c0 0f 
37.690600 1 132 Rx d 6 4d 88 f4 ff 22 40 
37.692900 1 234 Rx d 8 27 c0 01 24 91 04 40 7c 
37.694200 1 2c4 Rx d 8 49 d9 0d 2f a9 94 e5 89 
37.695300 1 2b4 Rx d 6 13 05 a6 0d 2b 01 
37.700500 1 132 Rx d 6 4f 88 f4 ff 20 40 
37.706200 1 3a1 Rx d 8 2b fa 40 bb 3d 00 b0 cd 
37.709600 1 788 Rx d 8 9c bc 71 63 00 00 80 00 
37.710900 1 132 Rx d 6 52 88 f4 ff 1f 40 
37.713900 1 3a2 Rx d 8 60 85 72 9f 04 00 c0 73 
37.714700 1 545 Rx d 8 d0 0c 27 80 94 3f d9 79 
37.714900 1 2c2 Rx d 8 2c 54 93 67 01 00 00 cb 
37.720700 1 132 Rx d 6 4d 88 f4 ff 20 40 
37.721600 1 45a Rx d 8 fd 07 f8 ff 03 00 00 26 
37.722000 1 300 Rx d 8 0a 01 6d 10 04 00 88 00 
37.722700 1 3f2 Rx d 8 00 c8 ae 5d 00 00 00 00 
37.724900 1 3c2 Rx d 8 29 55 00 00 00 00 00 80 
37.730600 1 132 Rx d 6 51 88 f4 ff 22 40 
37.731700 1 372 Rx d 8 00 07 40 95 f2 11 10 23 
37.738900 1 400 Rx d 7 00 e0 fb be ef fb 00 
37.740600 1 132 Rx d 6 4c 88 f4 ff 23 40 
37.742300 1 234 Rx d 8 25 e1 03 80 43 00 54 bb 
37.746900 1 545 Rx d 8 01 00 00 00 00 10 e0 3b 
37.747400 1 3a2 Rx d 8 01 40 21 00 0b f0 ff 00 
37.750600 1 132 Rx d 6 45 88 f4 ff 1f 40 
37.754500 1 7a8 Rx d 8 a4 b4 71 63 00 00 82 00 
37.756900 1 3a1 Rx d 8 e8 42 0d 8a 01 08 c2 4c 
37.760700 1 132 Rx d 6 54 88 f4 ff 20 40 
37.766300 1 272 Rx d 8 06 00 ee 70 07 b0 07 08 
37.771000 1 132 Rx d 6 53 88 f4 ff 1f 40 
37.773800 1 23a Rx d 8 0e 32 68 ef 3e 1c 34 d7 
37.774500 1 3c2 Rx d 8 00 55 55 55 00 00 59 45 
37.775200 1 45a Rx d 8 20 4b 4b cb 3f 4a 00 6b 
37.780700 1 132 Rx d 6 4f 88 f3 ff 1e 40 
37.780900 1 3a2 Rx d 8 82 2a 00 00 20 00 00 00 
37.783700 1 545 Rx d 8 02 00 04 00 00 00 f0 40 
37.786200 1 727 Rx d 2 04 00 
37.790600 1 132 Rx d 6 59 88 f4 ff 1e 40 
37.790800 1 372 Rx d 8 01 a7 55 04 40 00 2c 01 
37.792900 1 234 Rx d 8 28 c0 01 25 95 04 60 a2 
37.794200 1 2c4 Rx d 8 0a 00 00 80 4c 68 02 00 
37.795300 1 2b4 Rx d 6 13 05 a6 0d 2e 01 
37.796200 1 3c2 Rx d 8 00 55 55 55 02 00 59 45 
37.796700 1 2c2 Rx d 8 20 40 13 66 01 00 00 cb 
37.800500 1 132 Rx d 6 4c 88 f4 ff 23 40 
37.805500 1 2c2 Rx d 8 53 63 a8 46 81 00 1a a5 
37.807600 1 3a1 Rx d 8 2b fa 40 33 3e 00 d0 66 
37.809600 1 788 Rx d 8 01 00 00 00 ff a1 88 12 
37.810600 1 132 Rx d 6 57 88 f7 ff 28 40 
37.812900 1 3a2 Rx d 8 60 85 f2 aa 04 80 c0 73 
37.813500 1 545 Rx d 8 40 01 27 10 95 49 09 a9 
37.814900 1 2c2 Rx d 8 20 40 01 66 01 00 00 cb 
37.820700 1 132 Rx d 6 4e 88 f7 ff 25 40 
37.821700 1 45a Rx d 8 fd 07 f8 ff 03 00 00 26 
37.826400 1 3c2 Rx d 8 29 55 00 00 00 00 00 80 
37.829600 1 709 Rx d 8 94 82 0c 32 20 20 00 00 
37.830600 1 132 Rx d 6 5a 88 f7 ff 2a 40 
37.838900 1 400 Rx d 7 00 e0 fb be ef fb 00 
37.840600 1 132 Rx d 6 5c 88 f7 ff 2a 40 
37.842300 1 234 Rx d 8 23 e1 03 80 43 00 74 d9 
37.845900 1 3a2 Rx d 8 01 10 20 00 0b f0 ff 00 
37.846200 1 545 Rx d 8 01 00 00 00 00 10 10 6b 
37.850600 1 132 Rx d 6 4f 88 f8 ff 28 40 
37.850800 1 372 Rx d 8 02 86 40 3c 80 01 14 59 
37.854500 1 7a8 Rx d 8 01 00 00 00 ff a1 98 12 
37.856000 1 3a1 Rx d 8 e8 42 0d 8a 01 08 e2 6c 
37.860700 1 132 Rx d 6 45 88 f7 ff 28 40 
37.866200 1 272 Rx d 8 09 80 63 00 00 00 00 00 
37.870800 1 132 Rx d 6 53 88 f7 ff 25 40 
37.871500 1 330 Rx d 8 0d ff 00 00 c1 c3 b5 3d 
37.872400 1 45a Rx d 8 20 4b 4b cb 3f 4a 00 6b 
37.874200 1 3c2 Rx d 8 00 55 55 55 02 00 59 45 
37.879100 1 3a2 Rx d 8 82 2a 00 00 20 00 00 00 
37.879600 1 545 Rx d 8 02 00 06 00 00 00 20 72 
37.880900 1 132 Rx d 6 4f 88 f7 ff 28 40 
37.890600 1 132 Rx d 6 57 88 f7 ff 25 40 
37.892900 1 234 Rx d 8 1b c0 01 24 91 04 80 b0 
37.894200 1 2c4 Rx d 8 0b 40 00 00 3b 47 01 00 
37.895500 1 2b4 Rx d 6 14 05 a6 0d d2 00 
37.900500 1 132 Rx d 6 42 88 f7 ff 28 40 
37.906200 1 3a1 Rx d 8 2b fa 40 79 3e 00 f0 cc 
37.909600 1 788 Rx d 8 02 40 d3 07 00 00 00 00 
37.910600 1 132 Rx d 6 41 88 f7 ff 25 40 
37.910800 1 372 Rx d 8 03 00 0b 50 00 01 00 00 
37.912100 1 3a2 Rx d 8 60 85 72 a9 04 80 c0 73 
37.912500 1 545 Rx d 8 40 01 27 30 95 46 39 f6 
37.914900 1 2c2 Rx d 8 55 63 a8 46 81 00 1a a5 
37.920700 1 132 Rx d 6 47 88 f7 ff 27 40 
37.921700 1 45a Rx d 8 fd 07 f8 ff 03 00 00 26 
37.925400 1 3c2 Rx d 8 29 55 00 00 00 00 00 80 
37.930600 1 132 Rx d 6 4d 88 f8 ff 28 40 
37.938900 1 400 Rx d 7 00 e0 fb be ef fb 00 
37.940600 1 132 Rx d 6 40 88 f7 ff 25 40 
37.942300 1 234 Rx d 8 24 e1 03 80 43 00 94 fa 
37.944900 1 545 Rx d 8 01 00 00 00 00 10 40 9b 
37.946500 1 3a2 Rx d 8 01 10 20 00 09 f0 ff 00 
37.950600 1 132 Rx d 6 4e 88 f7 ff 28 40 
37.951700 1 70b Rx d 8 04 1d 19 0f 0e 07 08 23 
37.955100 1 7a8 Rx d 8 02 40 d5 07 00 07 00 00 
37.956900 1 3a1 Rx d 8 e8 42 0d 8a 01 08 02 8c 
37.960700 1 132 Rx d 6 57 88 f7 ff 25 40 
37.966300 1 272 Rx d 8 06 00 ef 78 07 b0 07 08 
37.970900 1 132 Rx d 6 48 88 f7 ff 27 40 
37.971400 1 372 Rx d 8 04 00 00 00 00 00 fa 10 
37.971900 1 45a Rx d 8 20 4b 4b cb 3f 4a 00 6b 
37.974200 1 3c2 Rx d 8 00 55 55 55 02 00 59 45 
37.977900 1 3a2 Rx d 8 82 2a 00 00 20 00 00 00 
37.978200 1 545 Rx d 8 02 00 07 00 00 00 50 a3 
37.980900 1 132 Rx d 6 4e 88 f8 ff 28 40 
37.990600 1 132 Rx d 6 51 88 f7 ff 25 40 
37.992900 1 234 Rx d 8 1b c0 01 25 95 04 a0 d5 
37.994200 1 2c4 Rx d 8 0c 00 00 00 d8 48 01 00 
37.995300 1 2b4 Rx d 6 12 05 a7 0d d2 00 
41.500600 1 132 Rx d 6 64 88 f7 ff 27 40 
41.506400 1 3a1 Rx d 8 2b fa 40 75 3e 00 70 48 
41.509200 1 545 Rx d 8 01 00 00 00 00 10 00 5b 
41.509400 1 3a2 Rx d 8 01 10 20 00 09 f0 ff 00 
41.509700 1 788 Rx d 8 02 40 cf 07 00 00 00 00 
41.510600 1 132 Rx d 6 5c 88 f7 ff 27 40 
41.511100 1 372 Rx d 8 0d 32 00 00 00 40 6a 88 
41.515200 1 2c2 Rx d 8 55 63 a8 46 01 00 1a a5 
41.521000 1 132 Rx d 6 60 88 f7 ff 27 40 
41.522000 1 45a Rx d 8 fd 07 f8 ff 03 00 00 26 
41.524200 1 301 Rx d 8 14 05 00 36 3e ee 75 00 
41.525600 1 3c2 Rx d 8 29 55 00 00 00 00 00 80 
41.530700 1 132 Rx d 6 62 88 f8 ff 28 40 
41.539100 1 400 Rx d 7 00 e0 fb be ef fb 00 
41.540800 1 132 Rx d 6 56 88 f7 ff 27 40 
41.541900 1 234 Rx d 8 24 e1 03 80 43 00 14 7a 
41.542200 1 545 Rx d 8 02 00 04 00 00 00 10 60 
41.542600 1 3a2 Rx d 8 92 2a 00 00 20 00 00 00 
41.550400 1 302 Rx d 8 14 05 00 62 c7 0e 16 00 
41.551100 1 132 Rx d 6 5a 88 f8 ff 27 40 
41.555400 1 7a8 Rx d 8 02 40 d2 07 00 07 00 00 
41.557100 1 3a1 Rx d 8 e8 42 0d 8a 01 08 82 0c 
41.560700 1 132 Rx d 6 49 88 f8 ff 27 40 
41.566600 1 272 Rx d 8 06 00 ef 78 07 b0 07 08 
41.570900 1 132 Rx d 6 5a 88 f8 ff 29 40 
41.571100 1 372 Rx d 8 0e 00 00 0c 06 7d 00 00 
41.571900 1 45a Rx d 8 20 4b 4b cb 3f 4a 00 6b 
41.572700 1 709 Rx d 8 20 00 00 00 00 00 00 00 
41.574400 1 3c2 Rx d 8 00 55 55 55 00 00 59 45 
41.575100 1 545 Rx d 8 f0 00 27 10 95 49 29 78 
41.575400 1 3a2 Rx d 8 60 85 f2 aa 04 80 c0 73 
41.581100 1 132 Rx d 6 5a 88 f8 ff 27 40 
41.590900 1 132 Rx d 6 57 88 f7 ff 27 40 
41.592500 1 234 Rx d 8 1b c0 01 24 91 04 20 50 
41.594000 1 2c4 Rx d 8 06 9f a1 8c ca 58 0d 00 
41.595100 1 2b4 Rx d 6 14 05 a7 0d d4 00 
41.600600 1 132 Rx d 6 64 88 f7 ff 25 40 
41.606400 1 3a1 Rx d 8 2b fa 40 6d 3e 00 90 60 
41.608100 1 545 Rx d 8 01 00 00 00 00 10 30 8b 
41.608400 1 3a2 Rx d 8 01 10 20 00 0b f0 ff 00 
41.609700 1 788 Rx d 8 a8 bc 71 63 00 00 80 00 
41.611100 1 132 Rx d 6 64 88 f7 ff 25 40 
41.615200 1 2c2 Rx d 8 20 40 00 66 01 00 00 cb 
41.619400 1 303 Rx d 8 14 05 00 4c 6b a2 ae 00 
41.620800 1 132 Rx d 6 52 88 f8 ff 28 40 
41.621000 1 330 Rx d 8 11 4d 39 32 37 35 31 34 
41.621900 1 45a Rx d 8 fd 07 f8 ff 03 00 00 26 
41.625300 1 3c2 Rx d 8 29 55 00 00 00 00 00 80 
41.630800 1 132 Rx d 6 5c 88 f8 ff 29 40 
41.639200 1 400 Rx d 7 00 e0 fb be ef fb 00 
41.640800 1 132 Rx d 6 52 88 f7 ff 28 40 
41.641200 1 3a2 Rx d 8 92 2a 00 00 20 00 00 00 
41.641900 1 234 Rx d 8 24 e1 03 80 43 00 34 9a 
41.642300 1 545 Rx d 8 02 00 04 00 00 00 40 90 
41.651100 1 132 Rx d 6 58 88 f7 ff 25 40 
41.655600 1 7a8 Rx d 8 a8 b4 71 63 00 00 82 00 
41.656100 1 3a1 Rx d 8 e8 42 0d 8a 01 08 a2 2c 
41.660600 1 132 Rx d 6 5f 88 f7 ff 28 40 
41.666400 1 272 Rx d 8 09 80 63 00 00 00 00 00 
41.670900 1 132 Rx d 6 61 88 f7 ff 25 40 
41.671900 1 45a Rx d 8 20 4b 4b cb 3f 4a 00 6b 
41.674600 1 3a2 Rx d 8 60 85 72 ac 04 80 c0 73 
41.674800 1 3c2 Rx d 8 00 55 55 55 00 00 59 45 
41.675300 1 545 Rx d 8 f0 00 22 30 95 47 59 c1 
41.681100 1 132 Rx d 6 59 88 f7 ff 27 40 
41.691000 1 132 Rx d 6 63 88 f7 ff 27 40 
41.692200 1 234 Rx d 8 1b c0 01 24 91 04 40 70 
41.694100 1 2c4 Rx d 8 47 06 a8 90 81 0c 93 06 
41.694900 1 2b4 Rx d 6 12 05 a6 0d d1 00 
41.700600 1 132 Rx d 6 65 88 f7 ff 24 40 
41.706300 1 3a1 Rx d 8 2b fa 40 7d 3e 00 b0 90 
41.707200 1 545 Rx d 8 01 00 00 00 00 10 60 bb 
41.707900 1 3a2 Rx d 8 01 10 20 00 0b f0 ff 00 
41.709700 1 788 Rx d 8 01 00 00 00 ff a1 a8 12 
41.711100 1 132 Rx d 6 55 88 f8 ff 27 40 
41.715200 1 2c2 Rx d 8 55 63 a8 46 01 00 1a a5 
41.721000 1 132 Rx d 6 67 88 f8 ff 28 40 
41.721700 1 45a Rx d 8 fd 07 f8 ff 03 00 00 26 
41.721900 1 300 Rx d 8 12 78 ce a8 7f 02 f3 c3 
41.722800 1 3f2 Rx d 8 04 41 86 32 c0 87 47 03 
41.725300 1 3c2 Rx d 8 29 55 00 00 00 00 00 80 
41.730700 1 132 Rx d 6 63 88 f8 ff 27 40 
41.731800 1 372 Rx d 8 00 07 00 97 a2 11 30 23 
41.739200 1 400 Rx d 7 00 e0 fb be ef fb 00 
41.740900 1 132 Rx d 6 70 88 f7 ff 28 40 
41.741300 1 3a2 Rx d 8 82 2a 00 00 20 00 00 00 
41.741800 1 545 Rx d 8 02 00 04 00 00 00 70 c0 
41.742600 1 234 Rx d 8 24 e1 03 80 43 00 54 ba 
41.750600 1 132 Rx d 6 5d 88 f8 ff 27 40 
41.755400 1 7a8 Rx d 8 01 00 00 00 ff a1 98 12 
41.757200 1 3a1 Rx d 8 e8 42 0d 8a 01 08 c2 4c 
41.760600 1 132 Rx d 6 56 88 f7 ff 25 40 
41.766600 1 272 Rx d 8 06 00 ef 78 07 b0 07 08 
41.770800 1 132 Rx d 6 57 88 f7 ff 27 40 
41.773200 1 45a Rx d 8 20 4b 4b cb 3f 4a 00 6b 
41.773600 1 3a2 Rx d 8 60 85 72 ac 04 80 c0 73 
41.773900 1 545 Rx d 8 f0 00 27 10 95 49 89 d8 
41.774100 1 23a Rx d 8 12 00 00 00 00 00 00 00 
41.774800 1 3c2 Rx d 8 00 55 55 55 00 00 59 45 
41.781200 1 132 Rx d 6 60 88 f7 ff 25 40 
41.786300 1 727 Rx d 2 08 00 
41.790700 1 132 Rx d 6 57 88 f7 ff 29 40 
41.790900 1 372 Rx d 8 01 ae 15 04 40 00 28 01 
41.792700 1 234 Rx d 8 1b c0 01 24 91 04 60 90 
41.794000 1 2c4 Rx d 8 68 36 c0 b8 21 0c e3 a2 
41.795900 1 2b4 Rx d 6 14 05 a6 0d d1 00 
41.800600 1 132 Rx d 6 58 88 f7 ff 25 40 
41.806300 1 3a1 Rx d 8 2b fa 40 81 3e 00 d0 b4 
41.806500 1 3a2 Rx d 8 01 10 20 00 0b f0 ff 00 
41.807900 1 545 Rx d 8 01 00 00 00 00 10 90 eb 
41.809700 1 788 Rx d 8 02 40 d2 07 00 00 00 00 
41.810600 1 132 Rx d 6 64 88 f7 ff 25 40 
41.815200 1 2c2 Rx d 8 20 40 00 66 01 00 00 cb 
41.821000 1 132 Rx d 6 60 88 f7 ff 25 40 
41.822000 1 45a Rx d 8 fd 07 f8 ff 03 00 00 26 
41.826600 1 3c2 Rx d 8 29 55 00 00 00 00 00 80 
41.830700 1 132 Rx d 6 56 88 f8 ff 28 40 
41.837900 1 400 Rx d 7 00 e0 fb be ef fb 00 
41.839200 1 545 Rx d 8 02 00 03 00 00 00 a0 ef 
41.839400 1 3a2 Rx d 8 82 2a 00 00 20 00 00 00 
41.840800 1 132 Rx d 6 57 88 f8 ff 25 40 
41.842300 1 234 Rx d 8 24 e1 03 80 43 00 74 da 
41.850600 1 132 Rx d 6 5b 88 f7 ff 25 40 
41.850900 1 372 Rx d 8 02 86 c0 3b 90 01 34 59 
41.855500 1 7a8 Rx d 8 02 40 d4 07 00 07 00 00 
41.856200 1 3a1 Rx d 8 e8 42 0d 8a 01 08 e2 6c 
41.860600 1 132 Rx d 6 62 88 f7 ff 24 40 
41.866400 1 272 Rx d 8 09 80 63 00 00 00 00 00 
41.870900 1 132 Rx d 6 55 88 f7 ff 25 40 
41.871900 1 45a Rx d 8 20 4b 4b cb 3f 4a 00 6b 
41.872400 1 3a2 Rx d 8 60 85 72 ac 04 80 c0 73 
41.872800 1 545 Rx d 8 40 01 27 60 95 49 b9 a9 
41.874400 1 3c2 Rx d 8 00 55 55 55 00 00 59 45 
41.881200 1 132 Rx d 6 5f 88 f8 ff 27 40 
41.887000 1 709 Rx d 8 00 00 01 04 40 00 01 10 
41.890700 1 132 Rx d 6 60 88 f7 ff 24 40 
41.891800 1 234 Rx d 8 1c c0 01 24 91 04 80 b1 
41.894000 1 2c4 Rx d 8 49 d9 0d 2f a9 94 e5 89 
41.896000 1 2b4 Rx d 6 14 05 a6 0d d6 00 
41.900600 1 132 Rx d 6 58 88 f7 ff 28 40 
41.905200 1 545 Rx d 8 01 00 00 00 00 10 c0 1b 
41.905400 1 3a2 Rx d 8 01 10 20 00 0b f0 ff 00 
41.906600 1 3a1 Rx d 8 2b fa 40 6d 3e 00 f0 c0 
41.909700 1 788 Rx d 8 a8 bc 71 63 00 00 80 00 
41.910700 1 132 Rx d 6 4a 88 f8 ff 2a 40 
41.910900 1 372 Rx d 8 03 00 0b 50 00 01 00 00 
41.915200 1 2c2 Rx d 8 55 63 a8 46 01 00 1a a5 
41.921000 1 132 Rx d 6 5b 88 f7 ff 27 40 
41.921900 1 45a Rx d 8 fd 07 f8 ff 03 00 00 26 
41.925300 1 3c2 Rx d 8 29 55 00 00 00 00 00 80 
41.930700 1 132 Rx d 6 56 88 f8 ff 27 40 
41.937900 1 400 Rx d 7 00 e0 fb be ef fb 00 
41.938100 1 545 Rx d 8 02 00 03 00 00 00 d0 1f 
41.939200 1 3a2 Rx d 8 82 2a 00 00 20 00 00 00 
41.940800 1 132 Rx d 6 53 88 f8 ff 2c 40 
41.942400 1 234 Rx d 8 24 e1 03 80 43 00 94 fa 
41.950700 1 132 Rx d 6 61 88 f8 ff 27 40 
41.952000 1 70b Rx d 8 08 00 00 00 50 50 50 50 
41.955200 1 7a8 Rx d 8 a8 b4 71 63 00 00 82 00 
41.957200 1 3a1 Rx d 8 e8 42 0d 8a 01 08 02 8c 
41.960700 1 132 Rx d 6 63 88 f7 ff 27 40 
41.966600 1 272 Rx d 8 06 00 ef 78 07 b0 07 08 
41.970900 1 132 Rx d 6 59 88 f8 ff 28 40 
41.971100 1 372 Rx d 8 04 00 00 00 00 00 fa 10 
41.971800 1 3a2 Rx d 8 60 85 f2 aa 04 80 c0 73 
41.972700 1 45a Rx d 8 20 4b 4b cb 3f 4a 00 6b 
41.973600 1 545 Rx d 8 f0 00 27 00 95 48 e9 27 
41.974400 1 3c2 Rx d 8 00 55 55 55 00 00 59 45 
41.981200 1 132 Rx d 6 69 88 f8 ff 27 40 
41.990700 1 132 Rx d 6 53 88 f7 ff 28 40 
41.991800 1 234 Rx d 8 1b c0 01 24 91 04 a0 d0 
41.994000 1 2c4 Rx d 8 0a 00 00 80 4c 68 02 00 
41.995900 1 2b4 Rx d 6 13 05 a6 0d ce 00 
42.000600 1 132 Rx d 6 64 88 f7 ff 24 40 
42.004700 1 3a2 Rx d 8 01 10 20 00 0b f0 ff 00 
42.004900 1 545 Rx d 8 01 00 00 00 00 10 f0 4b 
42.007900 1 3a1 Rx d 8 2b fa 40 75 3e 00 10 e8 
42.009700 1 788 Rx d 8 01 00 00 00 ff a1 a8 12 
42.010600 1 132 Rx d 6 58 88 f7 ff 27 40 
42.015200 1 2c2 Rx d 8 20 40 00 66 01 00 00 cb 
42.021100 1 132 Rx d 6 58 88 f7 ff 28 40 
42.021900 1 45a Rx d 8 fd 07 f8 ff 03 00 00 26 
42.026400 1 3c2 Rx d 8 29 55 00 00 00 00 00 80 
42.030700 1 132 Rx d 6 4b 88 f8 ff 28 40 
42.030900 1 372 Rx d 8 05 46 3b 0d 00 00 00 00 
42.037200 1 545 Rx d 8 02 00 03 00 00 00 00 4f 
42.037900 1 3a2 Rx d 8 82 2a 00 00 20 00 00 00 
42.039200 1 400 Rx d 7 00 e0 fb be ef fb 00 
42.040800 1 132 Rx d 6 65 88 f8 ff 29 40 
42.042600 1 234 Rx d 8 24 e1 03 80 43 00 b4 1a 
42.050700 1 132 Rx d 6 50 88 f8 ff 27 40 
42.054900 1 7a8 Rx d 8 01 00 00 00 ff a1 98 12 
42.056200 1 3a1 Rx d 8 e8 42 0d 8a 01 08 22 ac 
42.059000 1 319 Rx d 8 0d 00 00 00 6c 8b 23 ac 
42.060800 1 132 Rx d 6 59 88 f8 ff 27 40 
42.066400 1 272 Rx d 8 09 80 63 00 00 00 00 00 
42.070300 1 3a2 Rx d 8 60 85 72 a9 04 80 c0 73 
42.070700 1 545 Rx d 8 40 01 27 00 95 44 19 a4 
42.070900 1 132 Rx d 6 64 88 f7 ff 25 40 
42.072000 1 45a Rx d 8 20 4b 4b cb 3f 4a 00 6b 
42.074400 1 3c2 Rx d 8 00 55 55 55 00 00 59 45 
42.081200 1 132 Rx d 6 65 88 f7 ff 25 40 
42.090700 1 132 Rx d 6 55 88 f7 ff 28 40 
42.090900 1 372 Rx d 8 06 45 d3 1a 54 a3 0f 02 
42.091800 1 234 Rx d 8 1b c0 01 24 91 04 c0 f0 
42.094000 1 2c4 Rx d 8 0b 40 00 00 3b 47 01 00 
42.096000 1 2b4 Rx d 6 14 05 a6 0d d1 00 
42.100600 1 132 Rx d 6 67 88 f7 ff 28 40 
42.103100 1 545 Rx d 8 01 00 00 00 00 10 20 7b 
42.103700 1 3a2 Rx d 8 01 10 20 00 0b f0 ff 00 
42.106400 1 3a1 Rx d 8 2b fa 40 75 3e 00 30 08 
42.109700 1 788 Rx d 8 02 40 d2 07 00 00 00 00 
42.110700 1 132 Rx d 6 60 88 f8 ff 27 40 
42.115200 1 2c2 Rx d 8 55 63 a8 46 01 00 1a a5 
42.121100 1 132 Rx d 6 62 88 f8 ff 28 40 
42.122000 1 45a Rx d 8 fd 07 f8 ff 03 00 00 26 
42.125100 1 3c2 Rx d 8 29 55 00 00 00 00 00 80 
42.130700 1 132 Rx d 6 71 88 f8 ff 27 40 
42.136200 1 545 Rx d 8 02 00 03 00 00 00 30 7f 
42.136800 1 3a2 Rx d 8 82 2a 00 00 20 00 00 00 
42.139200 1 400 Rx d 7 00 e0 fb be ef fb 00 
42.140800 1 132 Rx d 6 5d 88 f7 ff 27 40 
42.142600 1 234 Rx d 8 24 e1 03 80 43 00 d4 3a 
42.150700 1 132 Rx d 6 62 88 f7 ff 25 40 
42.150900 1 372 Rx d 8 07 00 00 00 00 00 00 00 
42.155700 1 7a8 Rx d 8 02 40 d2 07 00 07 00 00 
42.157200 1 3a1 Rx d 8 e8 42 0d 8a 01 08 42 cc 
42.160700 1 132 Rx d 6 69 88 f8 ff 28 40 
42.166600 1 272 Rx d 8 06 00 ef 78 07 b0 07 08 
42.169700 1 3a2 Rx d 8 60 85 f2 aa 04 80 c0 73 
42.169900 1 545 Rx d 8 f0 00 27 40 95 47 49 c6 
42.170900 1 132 Rx d 6 59 88 f7 ff 28 40 
42.171800 1 45a Rx d 8 20 4b 4b cb 3f 4a 00 6b 
42.174400 1 3c2 Rx d 8 00 55 55 55 00 00 59 45 
42.181200 1 132 Rx d 6 5c 88 f7 ff 27 40 
42.190700 1 132 Rx d 6 64 88 f7 ff 27 40 
42.191900 1 234 Rx d 8 1c c0 01 25 95 04 e0 16 
42.194000 1 2c4 Rx d 8 0c 00 00 00 d8 48 01 00 
42.194900 1 2b4 Rx d 6 12 05 a7 0d d5 00 
42.197100 1 709 Rx d 8 01 80 80 80 80 80 80 80 
42.200600 1 132 Rx d 6 61 88 f7 ff 25 40 
42.202200 1 545 Rx d 8 01 00 00 00 00 10 50 ab 
42.202400 1 3a2 Rx d 8 01 10 20 00 0b f0 ff 00 
42.206300 1 3a1 Rx d 8 2b fa 40 71 3e 00 50 24 
42.209700 1 788 Rx d 8 a8 bc 71 63 00 00 80 00 
42.210700 1 132 Rx d 6 5d 88 f7 ff 27 40 
42.210900 1 372 Rx d 8 08 00 00 00 00 00 00 00 
42.215200 1 2c2 Rx d 8 20 40 00 66 01 00 00 cb 
42.221100 1 132 Rx d 6 59 88 f7 ff 28 40 
42.221900 1 45a Rx d 8 fd 07 f8 ff 03 00 00 26 
42.224100 1 361 Rx d 5 34 0d 20 03 01 
42.226600 1 3c2 Rx d 8 29 55 00 00 00 00 00 80 
42.230700 1 132 Rx d 6 65 88 f8 ff 25 40 
42.235400 1 3a2 Rx d 8 82 2a 00 00 20 00 00 00 
42.235900 1 545 Rx d 8 02 00 03 00 00 00 60 af 
42.237900 1 400 Rx d 7 00 e0 fb be ef fb 00 
42.240800 1 132 Rx d 6 5a 88 f8 ff 27 40 
42.242700 1 234 Rx d 8 24 e1 03 80 43 00 f4 5a 
42.250700 1 132 Rx d 6 68 88 f7 ff 25 40 
42.255400 1 7a8 Rx d 8 a8 b4 71 63 00 00 82 00 
42.256200 1 3a1 Rx d 8 e8 42 0d 8a 01 08 62 ec 
42.260800 1 132 Rx d 6 5f 88 f7 ff 27 40 
42.266200 1 272 Rx d 8 09 80 63 00 00 00 00 00 
42.266400 1 382 Rx d 5 42 18 27 00 00 
42.269400 1 3a2 Rx d 8 60 85 f2 aa 04 80 c0 73 
42.270300 1 545 Rx d 8 40 01 2c 00 95 48 79 0d 
42.270900 1 132 Rx d 6 5d 88 f7 ff 24 40 
42.271400 1 372 Rx d 8 09 00 00 00 00 f8 3f 00 
42.272500 1 45a Rx d 8 20 4b 4b cb 3f 49 00 6b 
42.274500 1 3c2 Rx d 8 00 55 55 55 00 00 59 45 
42.281200 1 132 Rx d 6 51 88 f8 ff 27 40 
42.290700 1 132 Rx d 6 5b 88 f7 ff 25 40 
42.291900 1 234 Rx d 8 1b c0 01 24 91 04 00 30 
42.293900 1 2c4 Rx d 8 6d 80 00 02 00 00 00 00 
42.296000 1 2b4 Rx d 6 11 05 a6 0d cc 00 
42.300600 1 132 Rx d 6 5b 88 f7 ff 28 40 
42.302000 1 3a2 Rx d 8 01 10 20 00 09 f0 ff 00 
42.302200 1 545 Rx d 8 01 00 00 00 00 10 80 db 
42.306400 1 3a1 Rx d 8 2b fa 40 6b 3e 00 70 3e 
42.309700 1 788 Rx d 8 01 00 00 00 ff a1 a8 12 
42.310700 1 132 Rx d 6 66 88 f7 ff 27 40 
42.315200 1 2c2 Rx d 8 55 63 a8 46 01 00 1a a5 
42.321100 1 132 Rx d 6 55 88 f7 ff 27 40 
42.321900 1 45a Rx d 8 fd 07 f8 ff 03 00 00 26 
42.325400 1 3c2 Rx d 8 29 55 00 00 00 00 00 80 
42.330700 1 132 Rx d 6 6c 88 f7 ff 27 40 
42.331100 1 372 Rx d 8 0a 01 40 06 00 00 00 82 
42.334300 1 3a2 Rx d 8 82 2a 00 00 20 00 00 00 
42.334500 1 545 Rx d 8 02 00 03 00 00 00 90 df 
42.338000 1 400 Rx d 7 00 e0 fb be ef fb 00 
42.340800 1 132 Rx d 6 65 88 f8 ff 27 40 
42.342700 1 234 Rx d 8 24 e1 03 80 43 00 14 7a 
42.350700 1 132 Rx d 6 58 88 f8 ff 29 40 
42.355200 1 7a8 Rx d 8 01 00 00 00 ff a1 98 12 
42.356800 1 3a1 Rx d 8 e8 42 0d 8a 01 08 82 0c 
42.360700 1 132 Rx d 6 62 88 f8 ff 27 40 
42.366600 1 272 Rx d 8 06 00 ef 78 07 b0 07 08 
42.367200 1 545 Rx d 8 40 01 27 10 95 45 a9 45 
42.367700 1 3a2 Rx d 8 60 85 72 a9 04 80 c0 73 
42.371000 1 132 Rx d 6 5e 88 f7 ff 25 40 
42.372000 1 45a Rx d 8 20 4b 4b cb 3f 49 00 6b 
42.374500 1 3c2 Rx d 8 00 55 55 55 00 00 59 45 
42.381200 1 132 Rx d 6 68 88 f7 ff 29 40 
42.390900 1 132 Rx d 6 6a 88 f8 ff 27 40 
42.391100 1 372 Rx d 8 0b f1 ff 8d 00 65 66 00 
42.392000 1 234 Rx d 8 1b c0 01 24 91 04 20 50 
42.393800 1 373 Rx d 8 09 a2 ab 00 00 de 06 1f 
42.394000 1 2c4 Rx d 8 12 b0 00 a7 0d 1f 65 01 
42.395300 1 2b4 Rx d 6 12 05 a7 0d d0 00 
42.400200 1 545 Rx d 8 01 00 00 00 00 10 b0 0b 
42.400400 1 3a2 Rx d 8 01 10 20 00 04 f0 ff 00 
42.400600 1 132 Rx d 6 5b 88 f7 ff 28 40 
42.407900 1 3a1 Rx d 8 2b fa 40 77 3e 00 90 6a 
42.409700 1 788 Rx d 8 02 40 d2 07 00 00 00 00 
42.410700 1 132 Rx d 6 5e 88 f8 ff 28 40 
42.415200 1 2c2 Rx d 8 20 40 00 66 01 00 00 cb 
42.421100 1 132 Rx d 6 6f 88 f7 ff 24 40 
42.422000 1 45a Rx d 8 fd 07 f8 ff 03 00 00 26 
42.426600 1 3c2 Rx d 8 29 55 00 00 00 00 00 80 
42.430700 1 132 Rx d 6 63 88 f7 ff 27 40 
42.433200 1 545 Rx d 8 02 00 03 00 00 00 c0 0f 
42.433600 1 3a2 Rx d 8 82 2a 00 00 20 00 00 00 
42.439200 1 400 Rx d 7 00 e0 fb be ef fb 00 
42.440800 1 132 Rx d 6 74 88 f7 ff 28 40 
42.442600 1 234 Rx d 8 24 e1 03 80 43 00 34 9a 
42.450700 1 132 Rx d 6 61 88 f7 ff 27 40 
42.451200 1 372 Rx d 8 0c ee 7f 84 0f 00 00 00 
42.454900 1 7a8 Rx d 8 02 40 ce 07 00 07 00 00 
42.456200 1 3a1 Rx d 8 e8 42 0d 8a 01 08 a2 2c 
42.460700 1 132 Rx d 6 63 88 f7 ff 25 40 
42.466200 1 545 Rx d 8 40 01 27 00 95 48 d9 68 
42.466400 1 272 Rx d 8 09 80 63 00 00 00 00 00 
42.466600 1 3a2 Rx d 8 60 85 f2 aa 04 80 c0 73 
42.470900 1 132 Rx d 6 62 88 f7 ff 27 40 
42.472000 1 45a Rx d 8 20 4b 4b cb 3f 49 00 6b 
42.474500 1 3c2 Rx d 8 00 55 55 55 00 00 59 45 
42.481200 1 132 Rx d 6 67 88 f8 ff 27 40 
42.491000 1 132 Rx d 6 57 88 f7 ff 25 40 
42.491900 1 234 Rx d 8 1b c0 01 24 91 04 40 70 
42.494000 1 2c4 Rx d 8 13 9b 00 a6 0d 09 35 01 
42.495100 1 2b4 Rx d 6 16 05 a6 0d d2 00 
42.500200 1 3a2 Rx d 8 01 10 20 00 07 f0 ff 00 
42.500700 1 545 Rx d 8 01 00 00 00 00 10 e0 3b 
42.500800 1 132 Rx d 6 5f 88 f7 ff 25 40 
42.506400 1 3a1 Rx d 8 2b fa 40 6b 3e 00 b0 7e 
42.509100 1 709 Rx d 8 02 80 80 80 80 80 00 00 
42.509700 1 788 Rx d 8 a8 bc 71 63 00 00 80 00 
42.510700 1 132 Rx d 6 64 88 f7 ff 25 40 
42.511200 1 372 Rx d 8 0d 32 00 00 00 40 6d 88 
42.515200 1 2c2 Rx d 8 55 63 a8 46 01 00 1a a5 
42.521100 1 132 Rx d 6 64 88 f7 ff 27 40 
42.522000 1 45a Rx d 8 fd 07 f8 ff 03 00 00 26 
42.524200 1 301 Rx d 8 10 00 00 00 c4 e2 a2 b8 
42.525400 1 3c2 Rx d 8 29 55 00 00 00 00 00 80 
42.530700 1 132 Rx d 6 5b 88 f7 ff 28 40 
42.532700 1 3a2 Rx d 8 82 2a 00 00 20 00 00 00 
42.533100 1 545 Rx d 8 02 00 03 00 00 00 f0 3f 
42.539200 1 400 Rx d 7 00 e0 fb be ef fb 00 
42.540800 1 132 Rx d 6 66 88 f7 ff 28 40 
42.542700 1 234 Rx d 8 24 e1 03 80 43 00 54 ba 
42.550400 1 302 Rx d 8 10 00 00 00 ff ff ff ff 
42.551200 1 132 Rx d 6 59 88 f7 ff 27 40 
42.554900 1 7a8 Rx d 8 a8 b4 71 63 00 00 82 00 
42.557200 1 3a1 Rx d 8 e8 42 0d 8a 01 08 c2 4c 
42.560700 1 132 Rx d 6 5f 88 f7 ff 27 40 
42.565300 1 3a2 Rx d 8 60 c5 f2 aa 04 80 c0 73 
42.566000 1 545 Rx d 8 40 01 27 10 95 45 09 a5 
42.566500 1 272 Rx d 8 06 00 ef 78 07 b0 07 08 
42.570900 1 132 Rx d 6 65 88 f7 ff 25 40 
42.571200 1 372 Rx d 8 0e 00 00 0c 06 7d 00 00 
42.572000 1 45a Rx d 8 20 4b 4b cb 3f 49 00 6b 
42.574500 1 3c2 Rx d 8 00 55 55 55 00 00 59 45 
42.581200 1 132 Rx d 6 5b 88 f7 ff 27 40 
42.591000 1 132 Rx d 6 64 88 f7 ff 27 40 
42.591900 1 234 Rx d 8 1b c0 01 24 91 04 60 90 
42.593900 1 2c4 Rx d 8 14 00 00 00 00 00 00 00 
42.595800 1 2b4 Rx d 6 11 05 a7 0d ce 00 
42.598200 1 545 Rx d 8 01 00 00 00 00 10 10 6b 
42.598800 1 3a2 Rx d 8 01 10 20 00 07 f0 ff 00 
42.600600 1 132 Rx d 6 56 88 f7 ff 28 40 
42.606400 1 3a1 Rx d 8 2b fa 40 63 3e 00 d0 96 
42.609700 1 788 Rx d 8 01 00 00 00 ff a1 a8 12 
42.611200 1 132 Rx d 6 71 88 f7 ff 25 40 
42.615200 1 2c2 Rx d 8 20 40 00 66 01 00 00 cb 
42.619700 1 303 Rx d 8 10 00 00 00 ff ff ff ff 
42.621100 1 132 Rx d 6 58 88 f7 ff 28 40 
42.622000 1 45a Rx d 8 fd 07 f8 ff 03 00 00 26 
42.625400 1 3c2 Rx d 8 29 55 00 00 00 00 00 80 
42.631000 1 132 Rx d 6 6d 88 f8 ff 2a 40 
42.631100 1 545 Rx d 8 02 00 04 00 00 00 20 70 
42.633100 1 3a2 Rx d 8 82 2a 00 00 20 00 00 00 
42.639200 1 400 Rx d 7 00 e0 fb be ef fb 00 
42.640800 1 132 Rx d 6 67 88 f7 ff 28 40 
42.642700 1 234 Rx d 8 24 e1 03 80 43 00 74 da 
42.651200 1 132 Rx d 6 67 88 f7 ff 25 40 
42.655500 1 7a8 Rx d 8 01 00 00 00 ff a1 98 12 
42.656200 1 3a1 Rx d 8 e8 42 0d 8a 01 08 e2 6c 
42.660700 1 132 Rx d 6 68 88 f8 ff 29 40 
42.664500 1 3a2 Rx d 8 60 85 f2 aa 04 80 c0 73 
42.665400 1 545 Rx d 8 40 01 27 30 95 46 39 f6 
42.666400 1 272 Rx d 8 09 80 63 00 00 00 00 00 
42.670900 1 132 Rx d 6 65 88 f7 ff 25 40 
42.672000 1 45a Rx d 8 20 4b 4b cb 3f 49 00 6b 
42.674500 1 3c2 Rx d 8 00 55 55 55 00 00 59 45 
42.681200 1 132 Rx d 6 6c 88 f8 ff 28 40 
42.691000 1 132 Rx d 6 67 88 f7 ff 27 40 
42.691900 1 234 Rx d 8 1b c0 01 24 91 04 80 b0 
42.693900 1 2c4 Rx d 8 55 00 01 08 20 00 ff 00 
42.696000 1 2b4 Rx d 6 15 05 a7 0d cf 00 
42.697200 1 545 Rx d 8 01 00 00 00 00 10 40 9b 
42.697500 1 3a2 Rx d 8 01 10 20 00 07 f0 ff 00 
42.700600 1 132 Rx d 6 5f 88 f7 ff 27 40 
42.706400 1 3a1 Rx d 8 2b fa 40 79 3e 00 f0 cc 
42.709700 1 788 Rx d 8 02 40 d1 07 00 00 00 00 
42.711200 1 132 Rx d 6 5b 88 f7 ff 27 40 
42.715200 1 2c2 Rx d 8 55 63 a8 46 01 00 1a a5 
42.721100 1 132 Rx d 6 65 88 f8 ff 27 40 
42.722000 1 300 Rx d 8 14 05 00 00 fc 21 82 ed 
42.722900 1 3f2 Rx d 8 05 cc 10 16 20 3f d8 00 
42.723700 1 45a Rx d 8 fd 07 f8 ff 03 00 00 26 
42.725400 1 3c2 Rx d 8 29 55 00 00 00 00 00 80 
42.730200 1 545 Rx d 8 02 00 04 00 00 00 50 a0 
42.730500 1 3a2 Rx d 8 82 2a 00 00 20 00 00 00 
42.730800 1 132 Rx d 6 5f 88 f7 ff 25 40 
42.731800 1 372 Rx d 8 00 08 c0 94 72 11 70 23 
42.739200 1 400 Rx d 7 00 e0 fb be ef fb 00 
42.740800 1 132 Rx d 6 60 88 f8 ff 28 40 
42.742700 1 234 Rx d 8 24 e1 03 80 43 00 94 fa 
42.750700 1 132 Rx d 6 64 88 f7 ff 25 40 
42.755500 1 7a8 Rx d 8 02 40 d1 07 00 07 00 00 
42.757200 1 3a1 Rx d 8 e8 42 0d 8a 01 08 02 8c 
42.760700 1 132 Rx d 6 5c 88 f8 ff 27 40 
42.763400 1 3a2 Rx d 8 60 85 72 a9 04 80 c0 73 
42.765500 1 545 Rx d 8 40 01 27 10 95 49 69 09 
42.766700 1 272 Rx d 8 06 00 ef 78 07 b0 07 08 
42.771100 1 132 Rx d 6 59 88 f7 ff 27 40 
42.773900 1 45a Rx d 8 20 4b 4b cb 3f 49 00 6b 
42.774200 1 23a Rx d 8 13 00 00 00 00 00 00 00 
42.774900 1 3c2 Rx d 8 00 55 55 55 00 00 59 45 
42.781200 1 132 Rx d 6 5a 88 f8 ff 27 40 
42.786400 1 727 Rx d 2 09 00 
42.790700 1 132 Rx d 6 5f 88 f7 ff 25 40 
42.790900 1 372 Rx d 8 01 a7 15 04 40 00 2c 01 
42.793100 1 234 Rx d 8 1b c0 01 24 91 04 a0 d0 
42.794100 1 2c4 Rx d 8 16 c0 b4 02 00 00 00 01 
42.795000 1 2b4 Rx d 6 13 05 a6 0d d2 00 
42.796400 1 3a2 Rx d 8 01 10 20 00 04 f0 ff 00 
42.797200 1 545 Rx d 8 01 00 00 00 00 10 70 cb 
42.800600 1 132 Rx d 6 5d 88 f7 ff 25 40 
42.808000 1 3a1 Rx d 8 2b fa 40 6d 3e 00 10 e0 
42.809700 1 788 Rx d 8 a8 bc 71 63 00 00 80 00 
42.810700 1 132 Rx d 6 5b 88 f7 ff 24 40 
42.815300 1 2c2 Rx d 8 20 40 00 66 01 00 00 cb 
42.820800 1 132 Rx d 6 62 88 f8 ff 28 40 
42.821300 1 709 Rx d 8 43 43 bd 35 c4 1b 02 00 
42.821800 1 45a Rx d 8 fd 07 f8 ff 03 00 00 26 
42.826600 1 3c2 Rx d 8 29 55 00 00 00 00 00 80 
42.829200 1 545 Rx d 8 02 00 05 00 00 00 80 d1 
42.829700 1 3a2 Rx d 8 82 2a 00 00 20 00 00 00 
42.830700 1 132 Rx d 6 66 88 f8 ff 28 40 
42.839200 1 400 Rx d 7 00 e0 fb be ef fb 00 
42.840800 1 132 Rx d 6 60 88 f7 ff 27 40 
42.842200 1 234 Rx d 8 24 e1 03 80 43 00 b4 1a 
42.850700 1 132 Rx d 6 55 88 f7 ff 28 40 
42.850900 1 372 Rx d 8 02 8d 40 39 90 01 34 59 
42.855500 1 7a8 Rx d 8 a8 b4 71 63 00 00 82 00 
42.856800 1 3a1 Rx d 8 e8 42 0d 8a 01 08 22 ac 
42.860700 1 132 Rx d 6 57 88 f7 ff 24 40 
42.862200 1 545 Rx d 8 40 01 2c 10 95 49 99 3e 
42.862700 1 3a2 Rx d 8 60 85 72 a9 04 80 c0 73 
42.866400 1 272 Rx d 8 09 80 63 00 00 00 00 00 
42.870900 1 132 Rx d 6 5c 88 f8 ff 25 40 
42.871800 1 330 Rx d 8 12 4d 38 39 30 36 31 33 
42.872600 1 45a Rx d 8 20 4b 4b cb 3f 49 00 6b 
42.874700 1 3c2 Rx d 8 00 55 55 55 00 00 59 45 
42.881200 1 132 Rx d 6 62 88 f7 ff 28 40 
42.890700 1 132 Rx d 6 5d 88 f7 ff 29 40 
42.892100 1 234 Rx d 8 1a c0 01 24 91 04 c0 ef 
42.893900 1 2c4 Rx d 8 17 80 00 00 04 00 20 00 
42.895500 1 2b4 Rx d 6 12 05 a6 0d cd 00 
42.895700 1 3a2 Rx d 8 01 10 20 00 07 f0 ff 00 
42.896000 1 545 Rx d 8 01 00 00 00 00 10 a0 fb 
42.900600 1 132 Rx d 6 59 88 f7 ff 27 40 
42.906400 1 3a1 Rx d 8 2b fa 40 6d 3e 00 30 00 
42.909700 1 788 Rx d 8 01 00 00 00 ff a1 a8 12 
42.910700 1 132 Rx d 6 5c 88 f8 ff 28 40 
42.910900 1 372 Rx d 8 03 00 0b 50 00 01 00 00 
42.915300 1 2c2 Rx d 8 55 63 a8 46 01 00 1a a5 
42.921100 1 132 Rx d 6 52 88 f7 ff 27 40 
42.922000 1 45a Rx d 8 fd 07 f8 ff 03 00 00 26 
42.925400 1 3c2 Rx d 8 29 55 00 00 00 00 00 80 
42.928300 1 545 Rx d 8 02 00 05 00 00 00 b0 01 
42.929700 1 3a2 Rx d 8 82 2a 00 00 20 00 00 00 
42.930700 1 132 Rx d 6 5e 88 f7 ff 28 40 
42.939200 1 400 Rx d 7 00 e0 fb be ef fb 00 
42.940800 1 132 Rx d 6 63 88 f7 ff 25 40 
42.942600 1 234 Rx d 8 24 e1 03 80 43 00 d4 3a 
42.950700 1 132 Rx d 6 53 88 f7 ff 25 40 
42.952100 1 70b Rx d 8 09 00 00 00 00 00 00 00 
42.955000 1 7a8 Rx d 8 01 00 00 00 ff a1 98 12 
42.957200 1 3a1 Rx d 8 e8 42 0d 8a 01 08 42 cc 
42.960700 1 132 Rx d 6 61 88 f7 ff 2a 40 
42.961400 1 3a2 Rx d 8 60 85 72 a9 04 80 c0 73 
42.962300 1 545 Rx d 8 f0 00 22 10 95 45 c9 0f 
42.966700 1 272 Rx d 8 06 00 ef 78 07 b0 07 08 
42.970900 1 132 Rx d 6 61 88 f7 ff 28 40 
42.971100 1 372 Rx d 8 04 00 00 00 00 00 fa 10 
42.972000 1 45a Rx d 8 20 4b 4b cb 3f 49 00 6b 
42.974500 1 3c2 Rx d 8 00 55 55 55 00 00 59 45 
42.981200 1 132 Rx d 6 56 88 f7 ff 25 40 
42.990700 1 132 Rx d 6 53 88 f7 ff 27 40 
42.992700 1 234 Rx d 8 1b c0 01 25 95 04 e0 15 
42.993900 1 2c4 Rx d 8 19 7b 1f 42 02 14 60 00 
42.995000 1 2b4 Rx d 6 12 05 a6 0d ce 00 
42.995300 1 3a2 Rx d 8 01 10 20 00 07 f0 ff 00 
42.996000 1 545 Rx d 8 01 00 00 00 00 10 d0 2b 
56.501200 1 132 Rx d 6 41 88 f7 ff 27 40 
56.507700 1 3a1 Rx d 8 2b fa 40 81 3e 00 30 14 
56.510700 1 788 Rx d 8 02 40 d0 07 00 00 00 00 
56.511000 1 132 Rx d 6 49 88 f7 ff 27 40 
56.512200 1 372 Rx d 8 0d 32 00 00 00 40 60 88 
56.516200 1 2c2 Rx d 8 55 63 a8 46 01 00 1a a5 
56.522200 1 132 Rx d 6 45 88 f8 ff 27 40 
56.522900 1 45a Rx d 8 fd 07 f8 ff 03 00 00 29 
56.525100 1 301 Rx d 8 17 00 00 00 c4 e2 a2 b8 
56.526200 1 3a2 Rx d 8 60 85 f2 aa 04 80 c0 73 
56.526500 1 3c2 Rx d 8 29 55 00 00 00 00 00 80 
56.526700 1 545 Rx d 8 f0 00 27 10 95 45 79 c4 
56.531000 1 132 Rx d 6 4e 88 f7 ff 27 40 
56.539800 1 400 Rx d 7 b2 00 93 bf ef fb 00 
56.540800 1 234 Rx d 8 25 e1 03 80 43 00 d4 3b 
56.541100 1 132 Rx d 6 54 88 f7 ff 28 40 
56.549700 1 709 Rx d 8 0e f3 00 00 00 00 00 00 
56.551000 1 132 Rx d 6 55 88 f8 ff 27 40 
56.552200 1 302 Rx d 8 17 00 00 00 49 50 7c cc 
56.556500 1 7a8 Rx d 8 02 40 d1 07 00 07 00 00 
56.557800 1 3a1 Rx d 8 e8 42 0d 8a 01 08 42 cc 
56.558100 1 545 Rx d 8 01 00 00 00 00 10 80 db 
56.558300 1 3a2 Rx d 8 01 10 20 00 07 f0 ff 00 
56.561700 1 132 Rx d 6 54 88 f7 ff 27 40 
56.567700 1 272 Rx d 8 06 00 ef 78 07 b0 07 08 
56.571400 1 132 Rx d 6 48 88 f7 ff 25 40 
56.571800 1 372 Rx d 8 0e 00 00 0c 06 7d 00 00 
56.572800 1 45a Rx d 8 20 4b 4b cb 3f 49 00 6b 
56.576200 1 3c2 Rx d 8 00 55 55 55 00 00 59 45 
56.580900 1 132 Rx d 6 53 88 f7 ff 24 40 
56.590800 1 234 Rx d 8 1a a0 01 24 91 04 e0 ef 
56.591100 1 132 Rx d 6 54 88 f7 ff 27 40 
56.591800 1 3a2 Rx d 8 82 2a 00 00 20 00 00 00 
56.592200 1 545 Rx d 8 02 00 01 00 00 00 90 dd 
56.593400 1 2c4 Rx d 8 49 d9 fd 2e ab a4 e5 89 
56.594300 1 2b4 Rx d 6 15 05 a7 0d ca 00 
56.601200 1 132 Rx d 6 49 88 f7 ff 27 40 
56.607500 1 3a1 Rx d 8 2b fa 40 95 3e 00 50 48 
56.610700 1 788 Rx d 8 a8 bc 71 63 00 00 80 00 
56.612200 1 132 Rx d 6 49 88 f7 ff 27 40 
56.616200 1 2c2 Rx d 8 20 40 00 66 01 00 00 cb 
56.620500 1 303 Rx d 8 17 00 00 00 0e 6f 85 0d 
56.621200 1 132 Rx d 6 4c 88 f7 ff 27 40 
56.622200 1 330 Rx d 8 0b 00 03 01 00 00 00 00 
56.622700 1 45a Rx d 8 fd 07 f8 ff 03 00 00 29 
56.624300 1 3a2 Rx d 8 60 85 f2 aa 04 80 c0 73 
56.624900 1 545 Rx d 8 f0 00 27 10 95 49 a9 f8 
56.626200 1 3c2 Rx d 8 29 55 00 00 00 00 00 80 
56.631900 1 132 Rx d 6 4a 88 f7 ff 28 40 
56.640100 1 400 Rx d 7 b2 00 93 bf ef fb 00 
56.641100 1 132 Rx d 6 53 88 f7 ff 28 40 
56.641800 1 234 Rx d 8 24 e1 03 80 43 00 f4 5a 
56.652200 1 132 Rx d 6 4c 88 f8 ff 28 40 
56.656900 1 7a8 Rx d 8 a8 b4 71 63 00 00 82 00 
56.657200 1 3a1 Rx d 8 e8 42 0d 8a 01 08 62 ec 
56.657400 1 3a2 Rx d 8 01 10 20 00 04 f0 ff 00 
56.657700 1 545 Rx d 8 01 00 00 00 00 10 b0 0b 
56.661000 1 132 Rx d 6 53 88 f7 ff 25 40 
56.667800 1 272 Rx d 8 09 80 63 00 00 00 00 00 
56.671800 1 132 Rx d 6 50 88 f7 ff 25 40 
56.672800 1 45a Rx d 8 20 4b 4b cb 3f 49 00 6b 
56.676200 1 3c2 Rx d 8 00 55 55 55 00 00 59 45 
56.680900 1 132 Rx d 6 5a 88 f7 ff 25 40 
56.690100 1 545 Rx d 8 02 00 01 00 00 00 c0 0d 
56.690300 1 3a2 Rx d 8 82 2a 00 00 20 00 00 00 
56.690800 1 234 Rx d 8 1a a0 01 24 91 04 00 0f 
56.691100 1 132 Rx d 6 54 88 f7 ff 29 40 
56.693500 1 2c4 Rx d 8 0a 00 00 80 4c 68 02 00 
56.694400 1 2b4 Rx d 6 15 05 a6 0d cc 00 
56.701200 1 132 Rx d 6 53 88 f7 ff 28 40 
56.708800 1 3a1 Rx d 8 2b fa 40 8d 3e 00 70 60 
56.710700 1 788 Rx d 8 01 00 00 00 ff a1 a8 12 
56.712200 1 132 Rx d 6 64 88 f8 ff 25 40 
56.716200 1 2c2 Rx d 8 55 63 a8 46 01 00 1a a5 
56.722000 1 132 Rx d 6 4f 88 f8 ff 2a 40 
56.722600 1 300 Rx d 8 0b 00 04 02 05 00 02 00 
56.723300 1 3a2 Rx d 8 60 85 72 a9 04 80 c0 73 
56.723500 1 3f2 Rx d 8 07 ec ba 18 b0 50 f2 00 
56.724400 1 45a Rx d 8 fd 07 f8 ff 03 00 00 29 
56.725100 1 545 Rx d 8 f0 00 22 30 95 4a d9 44 
56.726300 1 3c2 Rx d 8 29 55 00 00 00 00 00 80 
56.731000 1 132 Rx d 6 59 88 f7 ff 29 40 
56.732000 1 372 Rx d 8 00 08 40 9e 02 12 14 23 
56.740100 1 400 Rx d 7 b2 00 93 bf ef fb 00 
56.740800 1 234 Rx d 8 24 e1 03 80 43 00 14 7a 
56.741100 1 132 Rx d 6 63 88 f7 ff 25 40 
56.751000 1 132 Rx d 6 56 88 f8 ff 29 40 
56.756400 1 3a2 Rx d 8 01 10 20 00 07 f0 ff 00 
56.756900 1 545 Rx d 8 01 00 00 00 00 10 e0 3b 
56.757400 1 3a1 Rx d 8 e8 42 0d 8a 01 08 82 0c 
56.757500 1 7a8 Rx d 8 01 00 00 00 ff a1 98 12 
56.761700 1 132 Rx d 6 52 88 f7 ff 25 40 
56.767700 1 272 Rx d 8 06 00 ef 78 07 b0 07 08 
56.771500 1 132 Rx d 6 5d 88 f7 ff 25 40 
56.774800 1 45a Rx d 8 20 4b 4b cb 3f 49 00 6b 
56.775000 1 23a Rx d 8 21 8f 84 ee 23 82 88 dc 
56.775500 1 3c2 Rx d 8 00 55 55 55 00 00 59 45 
56.781000 1 132 Rx d 6 51 88 f7 ff 24 40 
56.786800 1 727 Rx d 2 0b 00 
56.789600 1 3a2 Rx d 8 a2 2a 00 00 20 00 00 00 
56.790100 1 545 Rx d 8 02 00 01 00 00 00 f0 3d 
56.790900 1 234 Rx d 8 1a a0 01 24 91 04 20 2f 
56.791100 1 132 Rx d 6 57 88 f7 ff 25 40 
56.791800 1 372 Rx d 8 01 ce 55 04 40 00 34 01 
