date Thu Aug 27 01:53:07 PM 2026
base hex timestamps absolute
// version 7.0.0
19.510400 1 609 Rx d 8 29 be be be be be be be 
19.510700 1 2e1 Rx d 8 04 00 00 80 48 44 26 00 
19.513700 1 288 Rx d 8 03 16 00 8c 80 8c 41 7c 
19.517600 1 545 Rx d 8 80 01 22 e0 96 61 69 2d 
19.521300 1 609 Rx d 8 2a be be be be be be be 
19.523100 1 102 Rx d 8 21 27 89 04 8a 0c 21 48 
19.525700 1 2a8 Rx d 8 c2 10 00 00 06 00 e0 62 
19.526700 1 2e1 Rx d 8 05 41 00 00 d9 d0 8f 6a 
19.526900 1 441 Rx d 8 27 85 89 00 32 00 20 f0 
19.529400 1 7b1 Rx d 8 03 3f 3f 3f 3f 3f 3f 3f 
19.532200 1 609 Rx d 8 2b be be be be be be be 
19.532400 1 39d Rx d 5 06 5e e1 27 00 
19.538900 1 2b4 Rx d 6 27 05 9c 0d b0 00 
19.542700 1 2e1 Rx d 8 10 21 04 00 12 00 26 08 
19.543200 1 609 Rx d 8 2c be be be bd bd bd bd 
19.544400 1 318 Rx d 8 1a 08 1d 05 1b 35 21 d0 
19.545800 1 3e2 Rx d 7 00 00 80 9a 10 c0 04 
19.547300 1 25b Rx d 8 d3 c0 02 05 6a 86 20 05 
19.548700 1 23a Rx d 8 0f 32 68 ef 3e 1c 34 d7 
19.551300 1 545 Rx d 8 01 00 00 00 00 10 70 cb 
19.551700 1 228 Rx d 8 03 16 00 8c 80 8c 41 1c 
19.554200 1 609 Rx d 8 2d bd bd bd bd bd bd be 
19.560100 1 2e1 Rx d 8 29 8a 55 af 1f 08 00 00 
19.560200 1 229 Rx d 3 46 00 00 
19.561000 1 330 Rx d 8 0a 01 00 00 ff ff 38 00 
19.563800 1 2e8 Rx d 8 c2 10 00 00 06 00 d0 92 
19.564500 1 3e3 Rx d 4 00 00 00 00 
19.565400 1 609 Rx d 8 2e be be be be be be be 
19.572200 1 39d Rx d 5 07 5f e1 27 00 
19.574700 1 2e1 Rx d 8 02 6c 7f 00 3e 61 00 00 
19.576700 1 441 Rx d 8 2b 00 b6 c3 58 00 25 8a 
19.580400 1 7b1 Rx d 8 04 3f 3f 3f 3f 3f 00 00 
19.581300 1 609 Rx d 8 2f be be be be be be be 
19.583700 1 545 Rx d 8 02 00 02 00 00 00 80 ce 
19.591100 1 2e1 Rx d 8 fb 19 74 c9 94 68 09 00 
19.592200 1 609 Rx d 8 20 be be be be be bd bd 
19.592400 1 400 Rx d 7 68 60 c8 89 bc c0 01 
19.595100 1 3a8 Rx d 8 03 00 00 00 00 00 00 00 
19.603600 1 609 Rx d 8 21 bd bd bd bd bd bd bd 
19.606700 1 2e1 Rx d 8 04 00 00 80 48 44 26 00 
19.609800 1 709 Rx d 8 c3 3d bb dd c3 1b 02 00 
19.610000 1 229 Rx d 3 a8 51 02 
19.612300 1 39d Rx d 5 f8 50 e1 27 00 
19.613700 1 288 Rx d 8 03 16 00 8c 80 8c 51 8c 
19.614200 1 609 Rx d 8 22 bd be be be be be be 
19.616700 1 545 Rx d 8 10 03 22 60 97 6a 99 79 
19.622900 1 2e1 Rx d 8 45 41 00 00 d9 d0 8f 6a 
19.623200 1 102 Rx d 8 21 26 89 04 8c 0c 21 48 
19.625200 1 609 Rx d 8 23 be be be be be be be 
19.625700 1 2a8 Rx d 8 c2 10 00 00 06 00 f0 72 
19.626700 1 441 Rx d 8 27 85 89 00 32 00 28 f8 
19.638800 1 2b4 Rx d 6 28 05 9c 0d cd 00 
19.639300 1 2e1 Rx d 8 10 21 04 00 12 00 26 08 
19.640400 1 609 Rx d 8 24 be be be be be be be 
19.645300 1 318 Rx d 8 1a 08 1d 05 1b 35 23 d2 
19.647400 1 25b Rx d 8 d3 c0 02 05 6a 86 30 15 
19.649900 1 545 Rx d 8 01 00 00 00 00 10 a0 fb 
19.650000 1 229 Rx d 3 52 02 00 
19.651600 1 609 Rx d 8 25 be be be be be be be 
19.651800 1 228 Rx d 8 03 16 00 8c 80 8c 51 2c 
19.652300 1 39d Rx d 5 f9 51 e1 27 00 
19.654700 1 2e1 Rx d 8 29 8a 55 af 1f 08 00 00 
19.660000 1 229 Rx d 3 6d 03 00 
19.662300 1 609 Rx d 8 26 be be be bd bd bd bd 
19.663700 1 2e8 Rx d 8 c2 10 00 00 06 00 e0 a2 
19.670700 1 2e1 Rx d 8 02 6c 7f 00 3e 61 00 00 
19.673200 1 609 Rx d 8 27 bd bd bd bd bd bd be 
19.676700 1 441 Rx d 8 2b 00 b6 c3 58 00 2d 92 
19.678700 1 321 Rx d 8 3c e6 a8 8b 01 8a 00 04 
19.682700 1 545 Rx d 8 02 00 02 00 00 00 b0 fe 
19.684200 1 609 Rx d 8 28 be be be be be be be 
19.686700 1 2e1 Rx d 8 fb 19 73 c9 94 64 09 00 
19.692100 1 39d Rx d 5 fa 52 e1 27 00 
19.692400 1 400 Rx d 7 68 60 c8 89 bc c0 01 
19.695600 1 609 Rx d 8 29 be be bd bd bd bd bd 
19.702700 1 2e1 Rx d 8 04 00 00 80 48 44 26 00 
19.709800 1 709 Rx d 8 83 3f bd e5 c3 1b 02 00 
19.710400 1 609 Rx d 8 2a bd bd bd bd bd be be 
19.713700 1 288 Rx d 8 03 16 00 8c 80 8c 61 9c 
19.715700 1 545 Rx d 8 10 03 22 80 97 6b c9 ca 
19.719200 1 2e1 Rx d 8 45 41 00 00 d9 d0 8f 6a 
19.720400 1 709 Rx d 8 13 54 00 e0 04 00 00 00 
19.721500 1 609 Rx d 8 2b be be be be be be be 
19.723100 1 102 Rx d 8 21 26 89 04 8c 0c 21 48 
19.725700 1 2a8 Rx d 8 c2 10 00 00 06 00 00 82 
19.726900 1 441 Rx d 8 27 85 89 00 32 00 30 00 
19.728500 1 70b Rx d 8 01 20 06 f2 1f 00 f2 1f 
19.732200 1 39d Rx d 5 fb 53 e1 27 00 
19.732500 1 609 Rx d 8 2c be be be be be be be 
19.734700 1 2e1 Rx d 8 10 21 04 00 12 00 26 08 
19.738700 1 2b4 Rx d 6 27 05 9c 0d c3 00 
19.743200 1 609 Rx d 8 2d be be be be bd bd bd 
19.744500 1 318 Rx d 8 1a 08 1d 05 1b 35 25 d4 
19.745700 1 3e2 Rx d 7 00 00 80 9a 10 c0 04 
19.747400 1 25b Rx d 8 d3 c0 02 05 6a 86 40 25 
19.748700 1 545 Rx d 8 01 00 00 00 00 10 d0 2b 
19.750700 1 2e1 Rx d 8 29 8a 55 af 1f 08 00 00 
19.751700 1 228 Rx d 8 03 16 00 8c 80 8c 61 3c 
19.754200 1 609 Rx d 8 2e bd bd bd bd bd bd bd 
19.760100 1 229 Rx d 3 43 04 00 
19.763700 1 2e8 Rx d 8 c2 10 00 00 06 00 f0 b2 
19.764200 1 3e3 Rx d 4 00 00 00 00 
19.765600 1 609 Rx d 8 2f bd bd bd bd bd bd bd 
19.766800 1 2e1 Rx d 8 02 6c 7f 00 3e 61 00 00 
19.772200 1 39d Rx d 5 fc 54 e1 27 00 
19.776700 1 441 Rx d 8 2b 00 b6 c3 58 00 35 9a 
19.780500 1 609 Rx d 8 20 bd bd bd be be be be 
19.781700 1 545 Rx d 8 02 00 02 00 00 00 e0 2e 
19.782700 1 2e1 Rx d 8 fb 19 75 c9 94 69 09 00 
19.791600 1 609 Rx d 8 21 be be be be be be be 
19.792300 1 400 Rx d 7 68 60 c8 89 bc c0 01 
19.795100 1 3a8 Rx d 8 04 60 03 d7 01 00 00 00 
19.799000 1 2e1 Rx d 8 04 00 00 80 48 44 26 00 
19.803600 1 609 Rx d 8 22 be be be be be be be 
19.809800 1 709 Rx d 8 94 82 0c 32 20 20 00 00 
19.812100 1 39d Rx d 5 fd 55 e1 27 00 
19.813700 1 288 Rx d 8 03 16 00 8c 80 8c 71 ac 
19.814200 1 609 Rx d 8 23 be be bd bd bd bd bd 
19.814700 1 2e1 Rx d 8 45 41 00 00 d9 d0 8f 6a 
19.815100 1 545 Rx d 8 10 03 1d 80 97 6b f9 f5 
19.817100 1 102 Rx d 8 21 26 89 04 8c 0c 21 48 
19.823200 1 102 Rx d 8 21 26 89 04 8c 0c 21 48 
19.825200 1 609 Rx d 8 24 bd bd bd bd bd be be 
19.825700 1 2a8 Rx d 8 c2 10 00 00 06 00 10 92 
19.827400 1 441 Rx d 8 27 85 89 00 32 00 38 08 
19.830700 1 2e1 Rx d 8 10 21 04 00 12 00 26 08 
19.832400 1 319 Rx d 8 0a 01 07 00 03 00 0c 00 
19.839000 1 2b4 Rx d 6 27 05 9c 0d bf 00 
19.840600 1 609 Rx d 8 25 be be be be be be be 
19.844400 1 318 Rx d 8 1a 08 1d 05 1b 35 27 d6 
19.846900 1 2e1 Rx d 8 29 8a 55 af 1f 08 00 00 
19.847200 1 102 Rx d 8 21 26 89 04 8c 0c 21 48 
19.847600 1 25b Rx d 8 d3 c0 02 05 6a 86 50 35 
19.848800 1 545 Rx d 8 01 00 00 00 00 10 00 5b 
19.851300 1 609 Rx d 8 26 be bd bd bd bd bd bd 
19.851700 1 228 Rx d 8 03 16 00 8c 80 8c 71 4c 
19.852200 1 39d Rx d 5 fe 56 e1 27 00 
19.860000 1 229 Rx d 3 41 05 00 
19.862400 1 609 Rx d 8 27 bd bd bd bd be be be 
19.862700 1 2e1 Rx d 8 02 6c 7f 02 3e 61 00 00 
19.863700 1 2e8 Rx d 8 c2 10 00 00 06 00 00 c2 
19.873200 1 609 Rx d 8 28 be be be be be be be 
19.876700 1 441 Rx d 8 2b 00 b6 c3 58 00 3d a2 
19.878700 1 2e1 Rx d 8 fb 19 76 c9 94 6a 09 00 
19.880800 1 545 Rx d 8 02 00 02 00 00 00 10 5e 
19.884200 1 609 Rx d 8 29 be be be be be be be 
19.892200 1 39d Rx d 5 ff 57 e1 27 00 
19.892400 1 400 Rx d 7 68 60 c8 89 bc c0 01 
19.894700 1 2e1 Rx d 8 04 00 00 80 48 44 26 00 
19.896800 1 609 Rx d 8 2a be be be be be be be 
19.909800 1 709 Rx d 8 83 3f bd f9 c3 1b 02 00 
19.910500 1 609 Rx d 8 2b be be be be be be bd 
19.910700 1 2e1 Rx d 8 45 41 00 00 d9 d0 8f 6a 
19.913700 1 545 Rx d 8 80 01 27 80 97 6b 29 9d 
19.913900 1 288 Rx d 8 03 16 00 8c 80 8c 81 bc 
19.921300 1 609 Rx d 8 2c bd bd bd bd bd bd bd 
19.923100 1 102 Rx d 8 21 26 89 04 8c 0c 21 48 
19.925700 1 2a8 Rx d 8 c2 10 00 00 06 00 20 a2 
19.926700 1 2e1 Rx d 8 10 21 04 00 12 00 26 08 
19.927000 1 441 Rx d 8 27 85 89 00 32 00 00 d0 
19.932200 1 609 Rx d 8 2d bd bd be be be be be 
19.932800 1 39d Rx d 5 00 58 e1 27 00 
19.938800 1 2b4 Rx d 6 27 05 9c 0d bd 00 
19.939300 1 3c4 Rx d 8 10 00 00 00 75 d2 3a da 
19.942700 1 2e1 Rx d 8 29 8a 55 af 1f 08 00 00 
19.943200 1 609 Rx d 8 2e be be be be be be be 
19.945300 1 318 Rx d 8 1a 08 1d 05 1b 35 29 d8 
19.946000 1 3e2 Rx d 7 00 00 80 9a 10 c0 04 
19.946900 1 545 Rx d 8 01 00 00 00 00 10 30 8b 
19.947400 1 25b Rx d 8 d3 c0 02 05 6a 86 60 45 
19.951700 1 228 Rx d 8 03 16 00 8c 80 8c 81 5c 
19.959900 1 2e1 Rx d 8 02 6c 7f 02 3e 61 00 00 
19.960000 1 229 Rx d 3 dd 06 00 
19.963700 1 2e8 Rx d 8 c2 10 00 00 06 00 10 d2 
19.964200 1 3e3 Rx d 4 00 00 00 00 
19.972300 1 39d Rx d 5 01 59 e1 27 00 
19.974700 1 2e1 Rx d 8 fb 19 75 c9 94 69 09 00 
19.976700 1 441 Rx d 8 2b 00 b6 c3 58 00 05 6a 
19.979900 1 361 Rx d 5 33 0d 1f 03 00 
19.980300 1 545 Rx d 8 02 00 02 00 00 00 40 8e 
19.990700 1 2e1 Rx d 8 04 00 00 80 48 44 26 00 
19.992300 1 400 Rx d 7 68 60 c8 89 bc c0 01 
19.995100 1 3a8 Rx d 8 00 ff 01 7f 00 00 00 00 
19.995600 1 609 Rx d 8 2f be be be be be be be 
20.006700 1 2e1 Rx d 8 45 41 00 00 d9 d0 8f 6a 
20.009900 1 709 Rx d 8 94 82 0c 32 20 20 00 00 
20.010500 1 609 Rx d 8 20 be be be be be be be 
20.012100 1 39d Rx d 5 02 5a e1 27 00 
20.012700 1 545 Rx d 8 80 01 27 60 97 6a 59 ac 
20.013800 1 288 Rx d 8 03 16 00 8c 80 8c 91 cc 
20.021800 1 609 Rx d 8 21 be be be be be be be 
20.023000 1 2e1 Rx d 8 10 21 04 00 12 00 26 08 
20.023200 1 102 Rx d 8 21 26 89 04 8c 0c 21 48 
20.025700 1 2a8 Rx d 8 c2 10 00 00 06 00 30 b2 
20.027200 1 441 Rx d 8 27 85 89 00 32 00 08 d8 
20.033200 1 609 Rx d 8 22 be be be be be be be 
20.037900 1 382 Rx d 5 42 18 27 00 00 
20.038800 1 2b4 Rx d 6 27 05 9c 0d bd 00 
20.039500 1 2e1 Rx d 8 29 8a 55 af 1f 08 00 00 
20.044500 1 318 Rx d 8 1a 08 1d 05 1b 35 2b da 
20.046400 1 545 Rx d 8 01 00 00 00 00 10 60 bb 
20.046600 1 609 Rx d 8 23 be be be be be be be 
20.047700 1 25b Rx d 8 d3 c0 02 05 6a 86 70 55 
20.051700 1 228 Rx d 8 03 16 00 8c 80 8c 91 6c 
20.052600 1 39d Rx d 5 03 5b e1 27 00 
20.054700 1 2e1 Rx d 8 02 6c 7f 02 3e 61 00 00 
20.060000 1 229 Rx d 3 f9 07 00 
20.062500 1 609 Rx d 8 24 be be be bd bd bd bd 
20.063800 1 2e8 Rx d 8 c2 10 00 00 06 00 20 e2 
20.064300 1 323 Rx d 5 3c 14 21 02 02 
20.070700 1 2e1 Rx d 8 fb 19 76 c9 94 6d 09 00 
20.073200 1 609 Rx d 8 25 bd bd bd bd bd bd be 
20.076700 1 441 Rx d 8 2b 00 b6 c3 58 00 0d 72 
20.080400 1 545 Rx d 8 02 00 02 00 00 00 70 be 
20.084200 1 609 Rx d 8 26 be be be be be be be 
20.086700 1 2e1 Rx d 8 04 00 00 80 48 44 26 00 
20.092200 1 400 Rx d 7 68 60 c8 89 bc c0 01 
20.094200 1 39d Rx d 5 04 5c e1 27 00 
20.096400 1 609 Rx d 8 27 be be bd bd bd bd bd 
20.102700 1 2e1 Rx d 8 45 41 00 00 d9 d0 8f 6a 
20.110400 1 609 Rx d 8 28 bd bd bd bd bd be be 
20.111700 1 545 Rx d 8 d0 01 27 80 97 6b 89 4d 
20.113700 1 288 Rx d 8 03 16 00 8c 80 8c a1 dc 
20.118800 1 2e1 Rx d 8 10 21 04 00 12 00 26 08 
20.121300 1 609 Rx d 8 29 be be be be be be be 
20.123100 1 102 Rx d 8 21 26 89 04 8c 0c 21 48 
20.125800 1 2a8 Rx d 8 c2 10 00 00 06 00 40 c2 
20.127300 1 441 Rx d 8 27 85 89 00 32 00 10 e0 
20.132200 1 609 Rx d 8 2a be bd bd bd bd bd bd 
20.132800 1 39d Rx d 5 05 5d e1 27 00 
20.134700 1 2e1 Rx d 8 29 8a 55 af 1f 08 00 00 
20.138800 1 2b4 Rx d 6 27 05 9c 0d bb 00 
20.143200 1 609 Rx d 8 2b bd bd bd bd be be be 
20.144500 1 318 Rx d 8 1a 08 1e 05 1b 35 2d dd 
20.145800 1 3e2 Rx d 7 00 00 80 9a 10 c0 04 
20.146000 1 545 Rx d 8 01 00 00 00 00 10 90 eb 
20.147400 1 25b Rx d 8 d3 c0 02 05 6a 86 80 65 
20.150800 1 2e1 Rx d 8 02 6c 7f 02 3e 61 00 00 
20.151800 1 228 Rx d 8 03 16 00 8c 80 8c a1 7c 
20.154200 1 609 Rx d 8 2c be be be be be be be 
20.160200 1 229 Rx d 3 4c 08 00 
20.163700 1 2e8 Rx d 8 c2 10 00 00 06 00 30 f2 
20.164200 1 3e3 Rx d 4 00 00 00 00 
20.165300 1 609 Rx d 8 2d bd bd bd bd bd bd bd 
20.166800 1 2e1 Rx d 8 fb 19 75 c9 94 6d 09 00 
20.172300 1 39d Rx d 5 06 5e e1 27 00 
20.176800 1 441 Rx d 8 2b 00 b6 c3 58 00 15 7a 
20.177900 1 545 Rx d 8 02 00 02 00 00 00 a0 ee 
20.180500 1 609 Rx d 8 2e bd bd bd be be be be 
20.182700 1 2e1 Rx d 8 04 00 00 80 48 44 26 00 
20.191200 1 609 Rx d 8 2f be be be be be be be 
20.192300 1 400 Rx d 7 68 60 c8 89 bc c0 01 
20.195100 1 3a8 Rx d 8 01 02 00 00 05 03 ff 00 
20.198700 1 2e1 Rx d 8 45 41 00 00 d9 d0 8f 6a 
20.203700 1 609 Rx d 8 20 be be be be be be be 
20.210700 1 545 Rx d 8 80 01 27 80 97 6b b9 2d 
20.212200 1 39d Rx d 5 07 5f e1 27 00 
20.213800 1 288 Rx d 8 03 16 00 8c 80 8c b1 ec 
20.214200 1 609 Rx d 8 21 be be bd bd bd bd bd 
20.214700 1 2e1 Rx d 8 10 21 04 00 12 00 26 08 
20.223200 1 102 Rx d 8 21 26 89 04 8c 0c 21 48 
20.225300 1 609 Rx d 8 22 bd bd bd bd bd bd be 
20.225800 1 2a8 Rx d 8 c2 10 00 00 06 00 50 d2 
20.226700 1 441 Rx d 8 27 85 89 00 32 00 18 e8 
20.230800 1 2e1 Rx d 8 29 8a 55 af 1f 08 00 00 
20.239000 1 2b4 Rx d 6 25 05 9c 0d bc 00 
20.240600 1 609 Rx d 8 23 be be be be be be be 
20.243700 1 545 Rx d 8 01 00 00 00 00 10 c0 1b 
20.244500 1 318 Rx d 8 1a 08 1e 05 1b 35 2f df 
20.246800 1 2e1 Rx d 8 02 6c 7f 02 3e 61 00 00 
20.247500 1 25b Rx d 8 d3 c0 02 05 6a 86 90 75 
20.251300 1 609 Rx d 8 24 be be be be be be be 
20.251700 1 228 Rx d 8 03 16 00 8c 80 8c b1 8c 
20.252300 1 39d Rx d 5 f8 50 e1 27 00 
20.259900 1 229 Rx d 3 a5 09 00 
20.262400 1 609 Rx d 8 25 be be be be bd bd bd 
20.262700 1 2e1 Rx d 8 fb 19 77 c9 94 6a 09 00 
20.263800 1 2e8 Rx d 8 c2 10 00 00 06 00 40 02 
20.273200 1 609 Rx d 8 26 bd bd bd bd bd bd bd 
20.276900 1 441 Rx d 8 2b 00 b6 c3 58 00 1d 82 
20.277100 1 545 Rx d 8 02 00 01 00 00 00 d0 1d 
20.279400 1 2e1 Rx d 8 04 00 00 80 48 44 26 00 
20.284200 1 609 Rx d 8 27 bd bd bd bd bd bd bd 
20.286300 1 102 Rx d 8 21 22 89 04 8c 0c 21 48 
20.292200 1 39d Rx d 5 f9 51 e1 27 00 
20.292400 1 400 Rx d 7 68 60 c8 89 bc c0 01 
20.294700 1 2e1 Rx d 8 45 41 00 00 d9 d0 8f 6a 
20.296600 1 609 Rx d 8 28 bd bd bd be be be be 
20.309800 1 545 Rx d 8 d0 01 27 60 97 6a e9 8c 
20.310600 1 609 Rx d 8 29 be be be be be be bd 
20.310900 1 2e1 Rx d 8 10 21 04 00 12 00 26 08 
20.313700 1 288 Rx d 8 03 16 00 8c 80 8c c1 fc 
20.321300 1 609 Rx d 8 2a bd bd bd bd bd bd bd 
20.323100 1 102 Rx d 8 21 22 89 04 8c 0c 21 48 
20.325800 1 2a8 Rx d 8 c2 10 00 00 06 00 60 e2 
20.327000 1 2e1 Rx d 8 29 8a 55 af 1f 08 00 00 
20.327200 1 441 Rx d 8 27 85 89 00 32 00 20 f0 
20.332200 1 39d Rx d 5 fa 52 e1 27 00 
20.332400 1 609 Rx d 8 2b bd bd bd bd bd bd bd 
20.338800 1 2b4 Rx d 6 29 05 9c 0d c3 00 
20.341800 1 7b1 Rx d 8 00 ff ff ff ff ff ff ff 
20.342700 1 2e1 Rx d 8 02 6c 7f 02 3e 61 00 00 
20.343000 1 545 Rx d 8 01 00 00 00 00 10 f0 4b 
20.343200 1 709 Rx d 8 94 82 0c 32 20 20 00 00 
20.343400 1 609 Rx d 8 2c bd bd bd bd bd be be 
20.344600 1 318 Rx d 8 1a 08 1e 05 1b 35 31 e1 
20.345800 1 3e2 Rx d 7 00 00 80 9a 10 c0 04 
20.347300 1 25b Rx d 8 d3 c0 02 05 6a 86 a0 85 
20.351700 1 228 Rx d 8 03 16 00 8c 80 8c c1 9c 
20.354200 1 609 Rx d 8 2d be be be be be be be 
20.357100 1 102 Rx d 8 21 22 89 04 8c 0c 21 48 
20.359900 1 2e1 Rx d 8 fb 19 73 c9 94 64 09 00 
20.360000 1 229 Rx d 3 f6 0a 00 
20.363800 1 2e8 Rx d 8 c2 10 00 00 06 00 50 12 
20.364300 1 3e3 Rx d 4 00 00 00 00 
20.365400 1 609 Rx d 8 2e be be be be be be be 
20.372300 1 39d Rx d 5 fb 53 e1 27 00 
20.374700 1 2e1 Rx d 8 04 00 00 80 48 44 26 00 
20.375700 1 545 Rx d 8 02 00 01 00 00 00 00 4d 
20.377000 1 441 Rx d 8 2b 00 b6 c3 58 00 25 8a 
20.380400 1 672 Rx d 8 01 01 00 01 00 01 00 00 
20.381100 1 609 Rx d 8 2f be be be be bd bd bd 
20.387200 1 53e Rx d 8 0b 00 0d 04 01 00 ff ff 
20.387900 1 3dd Rx d 8 06 00 00 00 00 78 00 00 
20.390800 1 2e1 Rx d 8 45 41 00 00 d9 d0 8f 6a 
20.392000 1 7b1 Rx d 8 01 ff ff ff ff 3f 3f 3f 
20.392500 1 400 Rx d 7 68 60 c8 89 bc c0 01 
20.392700 1 609 Rx d 8 20 bd bd bd bd bd bd bd 
20.395200 1 3a8 Rx d 8 02 00 18 01 00 00 00 00 
20.403700 1 609 Rx d 8 21 be be be be be be be 
20.406700 1 2e1 Rx d 8 10 21 04 00 12 00 26 08 
20.407400 1 102 Rx d 8 21 22 89 04 8c 0c 21 48 
20.408900 1 545 Rx d 8 80 01 22 80 97 6b 19 88 
20.412600 1 39d Rx d 5 fc 54 e1 27 00 
20.413900 1 288 Rx d 8 03 16 00 8c 80 8c d1 0c 
20.414600 1 609 Rx d 8 22 be be be bd bd bd bd 
20.423000 1 2e1 Rx d 8 29 8a 55 af 1f 08 00 00 
20.423300 1 102 Rx d 8 21 22 89 04 8c 0c 21 48 
20.425300 1 609 Rx d 8 23 bd bd bd bd bd bd bd 
20.425800 1 2a8 Rx d 8 c2 10 00 00 06 00 70 f2 
20.426800 1 441 Rx d 8 27 85 89 00 32 00 28 f8 
20.438800 1 2b4 Rx d 6 28 05 9c 0d bf 00 
20.439200 1 2e1 Rx d 8 02 6c 7f 02 3e 61 00 00 
20.440400 1 3c4 Rx d 8 11 00 00 00 00 00 00 00 
20.440600 1 609 Rx d 8 24 bd bd bd bd bd bd bd 
20.441700 1 545 Rx d 8 01 00 00 00 00 10 20 7b 
20.443000 1 7b1 Rx d 8 02 3f 3f 3f 3f 3f 3f 3f 
20.445300 1 318 Rx d 8 1a 08 1e 05 1b 35 33 e3 
20.447300 1 25b Rx d 8 d3 c0 02 05 6a 86 b0 95 
20.451300 1 609 Rx d 8 25 bd bd be be be be be 
20.451700 1 228 Rx d 8 03 16 00 8c 80 8c d1 ac 
20.452300 1 39d Rx d 5 fd 55 e1 27 00 
20.454700 1 2e1 Rx d 8 fb 19 76 c9 94 66 09 00 
20.460200 1 229 Rx d 3 8c 0b 00 
20.463400 1 609 Rx d 8 26 be be be be be bd bd 
20.463500 1 726 Rx d 3 07 00 00 
20.463800 1 2e8 Rx d 8 c2 10 00 00 06 00 60 22 
20.470700 1 2e1 Rx d 8 04 00 00 80 48 44 26 00 
20.474200 1 609 Rx d 8 27 bd bd bd bd bd bd bd 
20.474700 1 545 Rx d 8 02 00 01 00 00 00 30 7d 
20.476700 1 441 Rx d 8 2b 00 b6 c3 58 00 2d 92 
20.485300 1 609 Rx d 8 28 bd be be be be be be 
20.486300 1 102 Rx d 8 21 32 89 04 8c 0c 21 48 
20.486700 1 2e1 Rx d 8 45 41 00 00 d9 d0 8f 6a 
20.492300 1 400 Rx d 7 68 60 c8 89 bc c0 01 
20.494100 1 7b1 Rx d 8 03 3f 3f 3f 3f 3f 3f 3f 
20.494300 1 39d Rx d 5 fe 56 e1 27 00 
20.500500 1 609 Rx d 8 29 be be be be bd bd bd 
20.502800 1 2e1 Rx d 8 10 21 04 00 12 00 26 08 
20.507700 1 545 Rx d 8 d0 01 27 c0 97 6f 49 51 
20.511700 1 609 Rx d 8 2a bd bd bd bd bd bd bd 
20.513700 1 288 Rx d 8 03 16 00 8c 80 8c e1 1c 
20.517100 1 102 Rx d 8 21 72 88 04 8c 0c 21 48 
20.518800 1 2e1 Rx d 8 29 8a 55 af 1f 08 00 00 
20.522300 1 609 Rx d 8 2b bd bd bd bd bd bd bd 
20.523200 1 102 Rx d 8 21 72 88 04 8c 0c 21 48 
20.525800 1 2a8 Rx d 8 c2 10 00 00 06 00 80 02 
20.527000 1 441 Rx d 8 27 85 89 00 32 00 30 00 
20.532200 1 39d Rx d 5 ff 57 e1 27 00 
20.533200 1 609 Rx d 8 2c bd bd bd bd bd bd bd 
20.534700 1 2e1 Rx d 8 02 6c 7f 02 3e 61 00 00 
20.538800 1 2b4 Rx d 6 27 05 9c 0d bf 00 
20.540700 1 545 Rx d 8 01 00 00 00 00 10 50 ab 
20.544500 1 609 Rx d 8 2d bd bd bd bd bd bd bd 
20.545800 1 3e2 Rx d 7 00 00 80 9a 10 c0 04 
20.546700 1 318 Rx d 8 1a 08 1e 05 1b 35 35 e5 
20.547400 1 25b Rx d 8 d3 c0 02 05 6a 86 c0 a5 
20.547700 1 7b1 Rx d 8 04 3f 3f 3f 3f 3f 00 00 
20.548700 1 23a Rx d 8 10 7a d5 20 08 00 00 00 
20.550800 1 2e1 Rx d 8 fb 19 75 d9 94 6d 09 00 
20.551800 1 228 Rx d 8 03 16 00 8c 80 8c e1 bc 
20.555300 1 609 Rx d 8 2e bd bd bd bd bd bd bd 
20.560000 1 229 Rx d 3 49 0c 00 
20.563800 1 2e8 Rx d 8 c2 10 00 00 06 00 70 32 
20.564300 1 3e3 Rx d 4 00 00 00 00 
20.566900 1 2e1 Rx d 8 04 00 00 80 48 44 26 00 
20.570600 1 609 Rx d 8 2f bd bd bd bd bd bd bd 
20.572400 1 39d Rx d 5 00 58 e1 27 00 
20.573700 1 545 Rx d 8 02 00 01 00 00 00 60 ad 
20.576700 1 441 Rx d 8 2b 00 b6 c3 58 00 35 9a 
20.581300 1 609 Rx d 8 20 bd bd bd bd bd be be 
20.582700 1 2e1 Rx d 8 45 41 00 00 d9 d0 8f 6a 
20.592300 1 609 Rx d 8 21 be be be be be be be 
20.592500 1 400 Rx d 7 68 60 c8 89 bc c0 01 
20.595100 1 3a8 Rx d 8 03 00 00 00 00 00 00 00 
20.598800 1 2e1 Rx d 8 10 21 04 00 12 00 26 08 
20.603700 1 609 Rx d 8 22 be bd bd aa aa aa aa 
20.607000 1 545 Rx d 8 80 01 22 80 97 6b 79 e8 
20.612300 1 609 Rx d 8 14 00 76 26 bd bd bd bd 
20.612500 1 39d Rx d 5 01 59 e1 27 00 
20.613800 1 288 Rx d 8 03 16 00 8c 80 8c f1 2c 
20.614900 1 2e1 Rx d 8 29 8a 55 af 1f 08 00 00 
20.623200 1 102 Rx d 8 21 72 88 04 8c 0c 21 48 
20.625800 1 2a8 Rx d 8 c2 10 00 00 06 00 90 12 
20.626800 1 441 Rx d 8 27 85 89 00 32 00 38 08 
20.630600 1 609 Rx d 8 21 bd bd bd bd be be be 
20.630800 1 2e1 Rx d 8 02 6c 7f 02 3e 61 00 00 
20.639100 1 2b4 Rx d 6 27 05 9c 0d bf 00 
20.640400 1 545 Rx d 8 01 00 00 00 00 10 80 db 
20.641300 1 609 Rx d 8 22 be be be be be be be 
20.644500 1 318 Rx d 8 1a 08 1e 05 1b 35 37 e7 
20.646900 1 2e1 Rx d 8 fb 19 75 d9 94 6e 09 00 
20.647600 1 25b Rx d 8 d3 c0 02 05 6a 86 d0 b5 
20.651800 1 228 Rx d 8 03 16 00 8c 80 8c f1 cc 
20.652300 1 39d Rx d 5 02 5a e1 27 00 
20.652600 1 609 Rx d 8 23 bd bd bd bd bd bd bd 
20.655200 1 709 Rx d 8 15 00 00 00 00 00 00 00 
20.660000 1 229 Rx d 3 2f 0d 00 
20.662700 1 2e1 Rx d 8 04 00 00 80 48 44 26 00 
20.663300 1 609 Rx d 8 24 bd bd bd bd bd bd bd 
20.663800 1 2e8 Rx d 8 c2 10 00 00 06 00 80 42 
20.672700 1 545 Rx d 8 02 00 02 00 00 00 90 de 
20.674200 1 609 Rx d 8 25 bd bd bd bd bd bd bd 
20.677300 1 441 Rx d 8 2b 00 b6 c3 58 00 3d a2 
20.678800 1 321 Rx d 8 3c e6 a8 8b 01 8a 10 14 
20.679500 1 2e1 Rx d 8 45 41 00 00 d9 d0 8f 6a 
20.685300 1 609 Rx d 8 26 bd bd bd bd bd bd bd 
20.692200 1 39d Rx d 5 03 5b e1 27 00 
20.692400 1 400 Rx d 7 68 60 c8 89 bc c0 01 
20.694800 1 2e1 Rx d 8 10 21 04 00 12 00 26 08 
20.700500 1 609 Rx d 8 27 bd bd be be be be be 
20.705700 1 545 Rx d 8 d0 01 27 60 97 6a a9 4c 
20.710800 1 2e1 Rx d 8 29 8a 55 af 1f 08 00 00 
20.711500 1 609 Rx d 8 28 be be be be be bd bd 
20.713800 1 288 Rx d 8 03 16 00 8c 80 8c 01 3c 
20.722700 1 609 Rx d 8 29 bd bd bd bd bd bd bd 
20.723200 1 102 Rx d 8 21 72 88 04 8a 0c 21 48 
20.725800 1 2a8 Rx d 8 c2 10 00 00 06 00 a0 22 
20.726800 1 2e1 Rx d 8 02 6c 7f 02 3e 61 00 00 
20.727200 1 441 Rx d 8 27 85 89 00 32 00 00 d0 
20.728600 1 70b Rx d 8 02 64 c9 00 64 e2 4d 00 
20.732200 1 39d Rx d 5 04 5c e1 27 00 
20.733300 1 609 Rx d 8 2a bd be be be be be be 
20.738800 1 2b4 Rx d 6 27 05 9c 0d bc 00 
20.739200 1 545 Rx d 8 01 00 00 00 00 10 b0 0b 
20.742700 1 2e1 Rx d 8 fb 19 76 d9 94 6b 09 00 
20.744500 1 318 Rx d 8 1a 08 1e 05 1b 35 39 e9 
20.745900 1 3e2 Rx d 7 00 00 80 9a 10 c0 04 
20.746100 1 609 Rx d 8 2b be be be be bd bd bd 
20.747400 1 25b Rx d 8 d3 c0 02 05 6a 86 e0 c5 
20.751800 1 228 Rx d 8 03 16 00 8c 80 8c 01 dc 
20.760100 1 229 Rx d 3 31 0e 00 
20.760300 1 2e1 Rx d 8 04 00 00 80 48 44 26 00 
20.762700 1 609 Rx d 8 2c bd bd bd bd bd bd bd 
20.763800 1 2e8 Rx d 8 c2 10 00 00 06 00 90 52 
20.764300 1 3e3 Rx d 4 00 00 00 00 
20.771700 1 545 Rx d 8 02 00 03 00 00 00 c0 0f 
20.772400 1 39d Rx d 5 05 5d e1 27 00 
20.773300 1 609 Rx d 8 2d bd bd bd bd bd bd bd 
20.774700 1 2e1 Rx d 8 45 41 00 00 d9 d0 8f 6a 
20.776700 1 441 Rx d 8 2b 00 b6 c3 58 00 05 6a 
20.784300 1 609 Rx d 8 2e bd bd bd be be be be 
20.790900 1 2e1 Rx d 8 10 21 04 00 12 00 26 08 
20.792300 1 400 Rx d 7 68 60 c8 89 bc c0 01 
20.795200 1 3a8 Rx d 8 04 60 03 e4 01 00 00 00 
20.795600 1 609 Rx d 8 2f be be be be be be bd 
20.804700 1 545 Rx d 8 d0 01 27 c0 97 6f d9 e1 
20.805500 1 310 Rx d 8 0b 00 04 02 05 00 02 00 
20.806800 1 2e1 Rx d 8 29 8a 55 af 1f 08 00 00 
20.810100 1 330 Rx d 8 0b 00 03 01 00 00 00 00 
20.810500 1 609 Rx d 8 20 bd bd bd bd bd bd bd 
20.812900 1 39d Rx d 5 06 5e e1 27 00 
20.813800 1 288 Rx d 8 03 16 00 8c 80 8c 11 4c 
20.821800 1 609 Rx d 8 21 bd bd bd bd bd bd bd 
20.823000 1 2e1 Rx d 8 02 6c 7f 02 3e 61 00 00 
20.823200 1 102 Rx d 8 21 72 88 04 8c 0c 21 48 
20.825800 1 2a8 Rx d 8 c2 10 00 00 06 00 b0 32 
20.827200 1 441 Rx d 8 27 85 89 00 32 00 08 d8 
20.832300 1 609 Rx d 8 22 bd bd bd bd bd bd bd 
20.832500 1 319 Rx d 8 0b 03 01 00 01 00 00 00 
20.837900 1 545 Rx d 8 01 00 00 00 00 10 e0 3b 
20.838800 1 2b4 Rx d 6 27 05 9c 0d bf 00 
20.839300 1 2e1 Rx d 8 fb 19 75 c9 94 6e 09 00 
20.843300 1 609 Rx d 8 23 bd bd bd bd bd bd bd 
20.844600 1 318 Rx d 8 1a 08 1e 05 1b 35 3b eb 
20.847500 1 25b Rx d 8 d3 c0 02 05 6a 86 f0 d5 
20.851800 1 228 Rx d 8 03 16 00 8c 80 8c 11 ec 
20.852300 1 39d Rx d 5 07 5f e1 27 00 
20.854400 1 609 Rx d 8 24 bd bd bd bd bd bd bd 
20.854700 1 2e1 Rx d 8 04 00 00 80 48 44 26 00 
20.860100 1 229 Rx d 3 3b 0f 00 
20.863800 1 2e8 Rx d 8 c2 10 00 00 06 00 a0 62 
20.865400 1 609 Rx d 8 25 bd bd bd bd bd bd bd 
20.870800 1 2e1 Rx d 8 45 41 00 00 d9 d0 8f 6a 
20.871400 1 545 Rx d 8 02 00 03 00 00 00 f0 3f 
20.876800 1 441 Rx d 8 2b 00 b6 c3 58 00 0d 72 
20.881400 1 609 Rx d 8 26 bd bd bd bd bd bd bd 
20.886800 1 2e1 Rx d 8 10 21 04 00 12 00 26 08 
20.892200 1 39d Rx d 5 f8 50 e1 27 00 
20.892400 1 400 Rx d 7 68 60 c8 89 bc c0 01 
20.892600 1 609 Rx d 8 27 be be be be be be be 
20.902800 1 2e1 Rx d 8 29 8a 55 af 1f 08 00 00 
20.904000 1 545 Rx d 8 80 01 27 80 97 6b 09 7d 
20.904400 1 609 Rx d 8 28 be be be bd bd bd bd 
20.913800 1 288 Rx d 8 03 16 00 8c 80 8c 21 5c 
20.915300 1 609 Rx d 8 29 bd bd bd bd bd bd bd 
20.918800 1 2e1 Rx d 8 02 6c 7f 02 3e 61 00 00 
20.923200 1 102 Rx d 8 21 72 88 04 8c 0c 21 48 
20.925800 1 2a8 Rx d 8 c2 10 00 00 06 00 c0 42 
20.927200 1 441 Rx d 8 27 85 89 00 32 00 10 e0 
20.930500 1 609 Rx d 8 2a bd bd bd bd bd bd bd 
20.932200 1 39d Rx d 5 f9 51 e1 27 00 
20.934700 1 2e1 Rx d 8 fb 19 75 c9 94 6d 09 00 
20.936800 1 545 Rx d 8 01 00 00 00 00 10 10 6b 
20.938800 1 2b4 Rx d 6 26 05 9c 0d c0 00 
20.939300 1 3c4 Rx d 8 12 67 db 31 70 ee c3 47 
20.941300 1 609 Rx d 8 2b bd bd be be be be be 
20.944500 1 318 Rx d 8 1a 08 1e 05 1b 35 3d ed 
20.945900 1 3e2 Rx d 7 00 00 80 9a 10 c0 04 
20.947400 1 25b Rx d 8 d3 c0 02 05 6a 86 00 e5 
20.950800 1 2e1 Rx d 8 04 00 00 80 48 44 26 00 
20.951800 1 228 Rx d 8 03 16 00 8c 80 8c 21 fc 
20.960100 1 229 Rx d 3 46 00 00 
20.963800 1 2e8 Rx d 8 c2 10 00 00 06 00 b0 72 
20.964300 1 3e3 Rx d 4 00 00 00 00 
20.966900 1 2e1 Rx d 8 45 41 00 00 d9 d0 8f 6a 
20.967100 1 709 Rx d 8 16 00 00 00 00 00 00 00 
20.970100 1 545 Rx d 8 02 00 03 00 00 00 20 6f 
20.972900 1 39d Rx d 5 fa 52 e1 27 00 
20.976800 1 441 Rx d 8 2b 00 b6 c3 58 00 15 7a 
20.978700 1 361 Rx d 5 33 0d 20 03 00 
20.982800 1 2e1 Rx d 8 10 21 04 00 12 00 26 08 
20.992400 1 400 Rx d 7 68 60 c8 89 bc c0 01 
20.995200 1 3a8 Rx d 8 00 ff 01 7f 00 00 00 00 
20.995700 1 609 Rx d 8 2c be be be be be bd bd 
20.998900 1 2e1 Rx d 8 29 8a 55 af 1f 08 00 00 
29.504500 1 609 Rx d 8 2a 00 00 00 00 00 00 00 
29.511300 1 2e1 Rx d 8 45 c1 00 00 d9 d0 8f 6a 
29.514500 1 288 Rx d 8 03 16 00 8c 80 8c 81 bc 
29.515900 1 609 Rx d 8 2b 00 00 00 00 00 00 00 
29.517300 1 545 Rx d 8 80 01 22 30 97 67 59 74 
29.523800 1 102 Rx d 8 21 72 88 04 8c 0c 21 08 
29.526500 1 2a8 Rx d 8 c2 10 00 00 06 00 20 a2 
29.526800 1 7b1 Rx d 8 03 3f 3f 3f 3f 3f 3f 3f 
29.527300 1 2e1 Rx d 8 10 21 04 00 12 00 26 08 
29.527500 1 441 Rx d 8 27 85 89 00 32 00 00 d0 
29.531200 1 609 Rx d 8 2c 00 00 00 00 00 00 00 
29.532600 1 39d Rx d 5 00 58 e1 27 00 
29.537400 1 2b4 Rx d 6 29 05 9c 0d ce 00 
29.541900 1 609 Rx d 8 2d 00 00 00 00 00 00 00 
29.543300 1 2e1 Rx d 8 29 8a 55 af 1f 28 00 00 
29.545900 1 318 Rx d 8 1a 08 27 05 1b 35 29 e2 
29.546600 1 3e2 Rx d 7 00 00 80 5a 00 c0 04 
29.547800 1 25b Rx d 8 d3 c0 02 05 6a 86 60 45 
29.549300 1 23a Rx d 8 19 00 94 00 00 00 00 00 
29.550800 1 545 Rx d 8 01 00 00 00 00 10 60 bb 
29.552500 1 228 Rx d 8 03 16 00 8c 80 8c 81 5c 
29.553000 1 609 Rx d 8 2e 00 00 00 00 00 00 00 
29.559700 1 2e1 Rx d 8 02 6c 7f 02 3e 61 00 00 
29.560200 1 229 Rx d 3 dd 06 00 
29.561100 1 330 Rx d 8 0a 01 00 00 ff ff 38 00 
29.563900 1 609 Rx d 8 2f 00 00 00 00 00 00 00 
29.564600 1 2e8 Rx d 8 c2 10 00 00 06 00 10 d2 
29.565000 1 3e3 Rx d 4 00 00 00 00 
29.572400 1 39d Rx d 5 01 59 e1 27 00 
29.574900 1 609 Rx d 8 20 00 00 00 00 00 00 00 
29.575300 1 2e1 Rx d 8 fb 19 74 b9 94 6a 09 00 
29.577100 1 7b1 Rx d 8 04 3f 3f 3f 3f 3f 00 00 
29.577400 1 441 Rx d 8 2b 00 b6 c3 58 00 05 6a 
29.583700 1 545 Rx d 8 02 00 04 00 00 00 70 c0 
29.585900 1 609 Rx d 8 21 00 00 00 00 00 00 00 
29.591400 1 2e1 Rx d 8 04 00 00 80 48 44 26 00 
29.592700 1 400 Rx d 7 00 e0 fb be ef fb 00 
29.595700 1 3a8 Rx d 8 03 00 00 00 00 00 00 00 
29.601700 1 609 Rx d 8 22 00 00 00 00 00 00 00 
29.607200 1 2e1 Rx d 8 45 c1 00 00 d9 d0 8f 6a 
29.612400 1 39d Rx d 5 02 5a e1 27 00 
29.612900 1 609 Rx d 8 23 00 00 00 00 00 00 00 
29.614500 1 288 Rx d 8 03 16 00 8c 80 8c 91 cc 
29.616400 1 545 Rx d 8 d0 01 27 30 97 6b 89 fd 
29.623600 1 2e1 Rx d 8 10 21 04 00 12 00 26 08 
29.623800 1 102 Rx d 8 21 72 88 04 8c 0c 21 08 
29.624600 1 609 Rx d 8 24 00 00 00 00 00 00 00 
29.626500 1 2a8 Rx d 8 c2 10 00 00 06 00 30 b2 
29.627300 1 441 Rx d 8 27 85 89 00 32 00 08 d8 
29.635900 1 609 Rx d 8 25 00 00 00 00 00 00 00 
29.637400 1 2b4 Rx d 6 28 05 9c 0d d4 00 
29.639600 1 2e1 Rx d 8 29 8a 55 af 1f 28 00 00 
29.645100 1 318 Rx d 8 1a 08 27 05 1b 35 2b e4 
29.647900 1 25b Rx d 8 d3 c0 02 05 6a 86 70 55 
29.649600 1 545 Rx d 8 01 00 00 00 00 10 90 eb 
29.651500 1 609 Rx d 8 26 00 00 00 00 00 00 00 
29.652400 1 228 Rx d 8 03 16 00 8c 80 8c 91 6c 
29.652600 1 39d Rx d 5 03 5b e1 27 00 
29.655300 1 2e1 Rx d 8 02 6c 7f 02 3e 61 00 00 
29.660300 1 229 Rx d 3 f9 07 00 
29.663100 1 609 Rx d 8 27 00 00 00 00 00 00 00 
29.664500 1 2e8 Rx d 8 c2 10 00 00 06 00 20 e2 
29.671400 1 2e1 Rx d 8 fb 19 75 b9 94 6a 09 00 
29.673900 1 609 Rx d 8 28 00 00 00 00 00 00 00 
29.677300 1 441 Rx d 8 2b 00 b6 c3 58 00 0d 72 
29.679300 1 321 Rx d 8 3d ea a8 8c 01 8a a0 aa 
29.682300 1 545 Rx d 8 02 00 04 00 00 00 a0 f0 
29.684900 1 609 Rx d 8 29 00 00 00 00 00 00 00 
29.687300 1 2e1 Rx d 8 04 00 00 80 48 44 26 00 
29.692500 1 39d Rx d 5 04 5c e1 27 00 
29.692700 1 400 Rx d 7 00 e0 fb be ef fb 00 
29.696300 1 609 Rx d 8 2a 00 00 00 00 00 00 00 
29.703300 1 2e1 Rx d 8 45 c1 00 00 d9 d0 8f 6a 
29.703500 1 709 Rx d 8 11 55 00 60 04 00 01 06 
29.711300 1 609 Rx d 8 2b 00 00 00 00 00 00 00 
29.714500 1 288 Rx d 8 03 16 00 8c 80 8c a1 dc 
29.715300 1 545 Rx d 8 d0 01 27 80 97 6b b9 7d 
29.719300 1 2e1 Rx d 8 10 21 04 00 12 00 26 08 
29.721900 1 609 Rx d 8 2c 00 00 00 00 00 00 00 
29.723900 1 102 Rx d 8 21 72 88 04 8c 0c 21 08 
29.726500 1 2a8 Rx d 8 c2 10 00 00 06 00 40 c2 
29.727800 1 441 Rx d 8 27 85 89 00 32 00 10 e0 
29.729200 1 70b Rx d 8 01 20 06 f2 1f 00 f2 1f 
29.732600 1 39d Rx d 5 05 5d e1 27 00 
29.732900 1 609 Rx d 8 2d 00 00 00 00 00 00 00 
29.735300 1 2e1 Rx d 8 29 8a 55 af 1f 28 00 00 
29.737400 1 2b4 Rx d 6 26 05 9c 0d cf 00 
29.743900 1 609 Rx d 8 2e 00 00 00 00 00 00 00 
29.745100 1 318 Rx d 8 1a 08 27 05 1b 35 2d e6 
29.745800 1 3e2 Rx d 7 00 00 80 5a 00 c0 04 
29.747900 1 25b Rx d 8 d3 c0 02 05 6a 86 80 65 
29.748300 1 545 Rx d 8 01 00 00 00 00 10 c0 1b 
29.751500 1 2e1 Rx d 8 02 6c 7f 02 3e 61 00 00 
29.752500 1 228 Rx d 8 03 16 00 8c 80 8c a1 7c 
29.754900 1 609 Rx d 8 2f 00 00 00 00 00 00 00 
29.760300 1 229 Rx d 3 4c 08 00 
29.764500 1 2e8 Rx d 8 c2 10 00 00 06 00 30 f2 
29.765100 1 3e3 Rx d 4 00 00 00 00 
29.766000 1 609 Rx d 8 20 00 00 00 00 00 00 00 
29.767500 1 2e1 Rx d 8 fb 19 75 b9 94 69 09 00 
29.772400 1 39d Rx d 5 06 5e e1 27 00 
29.777300 1 441 Rx d 8 2b 00 b6 c3 58 00 15 7a 
29.781900 1 545 Rx d 8 02 00 03 00 00 00 d0 1f 
29.782200 1 609 Rx d 8 21 00 00 00 00 00 00 00 
29.783300 1 2e1 Rx d 8 04 00 00 80 48 44 26 00 
29.792700 1 400 Rx d 7 00 e0 fb be ef fb 00 
29.792900 1 609 Rx d 8 22 00 00 00 aa aa aa aa 
29.795800 1 3a8 Rx d 8 04 60 03 38 02 00 00 00 
29.799700 1 2e1 Rx d 8 45 c1 00 00 d9 d0 8f 6a 
29.801500 1 609 Rx d 8 14 00 76 2b 00 00 00 00 
29.812500 1 39d Rx d 5 07 5f e1 27 00 
29.814500 1 545 Rx d 8 d0 01 27 b0 97 6e e9 e0 
29.814700 1 288 Rx d 8 03 16 00 8c 80 8c b1 ec 
29.815300 1 2e1 Rx d 8 10 21 04 00 12 00 26 08 
29.816000 1 609 Rx d 8 21 00 00 00 00 00 00 00 
29.823800 1 102 Rx d 8 21 72 88 04 8a 0c 21 08 
29.826500 1 2a8 Rx d 8 c2 10 00 00 06 00 50 d2 
29.827300 1 441 Rx d 8 27 85 89 00 32 00 18 e8 
29.831400 1 2e1 Rx d 8 29 8a 55 af 1f 28 00 00 
29.831900 1 609 Rx d 8 22 00 00 00 00 00 00 00 
29.833100 1 319 Rx d 8 1f 00 00 00 81 f3 de 61 
29.837400 1 2b4 Rx d 6 29 05 9c 0d d5 00 
29.843000 1 609 Rx d 8 23 00 00 00 00 00 00 00 
29.845200 1 318 Rx d 8 1a 08 27 05 1b 35 2f e8 
29.847600 1 2e1 Rx d 8 02 6c 7f 02 3e 61 00 00 
29.847900 1 102 Rx d 8 22 b3 88 04 8a 0c 21 08 
29.848100 1 25b Rx d 8 d3 c0 02 05 6a 86 90 75 
29.848300 1 545 Rx d 8 01 00 00 00 00 10 f0 4b 
29.852500 1 228 Rx d 8 03 16 00 8c 80 8c b1 8c 
29.852600 1 39d Rx d 5 f8 50 e1 27 00 
29.853900 1 609 Rx d 8 24 00 00 00 00 00 00 00 
29.860300 1 229 Rx d 3 a5 09 00 
29.863300 1 2e1 Rx d 8 fb 19 74 b9 94 6d 09 00 
29.864500 1 2e8 Rx d 8 c2 10 00 00 06 00 40 02 
29.865000 1 609 Rx d 8 25 00 00 00 00 00 00 00 
29.875900 1 609 Rx d 8 26 00 00 00 00 00 00 00 
29.877300 1 441 Rx d 8 2b 00 b6 c3 58 00 1d 82 
29.879300 1 2e1 Rx d 8 04 00 00 80 48 44 26 00 
29.880700 1 545 Rx d 8 02 00 03 00 00 00 00 4f 
29.891500 1 609 Rx d 8 27 00 00 00 00 00 00 00 
29.892500 1 39d Rx d 5 f9 51 e1 27 00 
29.892700 1 400 Rx d 7 00 e0 fb be ef fb 00 
29.895600 1 2e1 Rx d 8 45 80 00 00 d9 d0 8f 6a 
29.904500 1 609 Rx d 8 28 00 00 00 00 00 00 00 
29.911300 1 2e1 Rx d 8 10 21 04 00 12 00 20 08 
29.913300 1 545 Rx d 8 d0 01 27 80 97 6b 19 dd 
29.914500 1 288 Rx d 8 03 16 00 8c 80 80 c1 f0 
29.915900 1 609 Rx d 8 29 00 00 00 00 00 00 00 
29.923800 1 102 Rx d 8 22 b3 88 04 8c 0c 21 08 
29.926500 1 2a8 Rx d 8 c2 10 00 00 06 00 60 e2 
29.927300 1 2e1 Rx d 8 29 8a 55 af 1f 28 00 00 
29.927500 1 441 Rx d 8 27 85 89 00 32 00 20 f0 
29.931300 1 609 Rx d 8 2a 00 00 00 00 00 00 00 
29.932600 1 39d Rx d 5 fa 52 e1 27 00 
29.937500 1 2b4 Rx d 6 26 05 9c 0d d2 00 
29.938200 1 3c4 Rx d 8 10 00 00 00 75 d2 3a da 
29.941900 1 609 Rx d 8 2b 00 00 00 00 00 00 00 
29.943300 1 2e1 Rx d 8 02 6c 7f 02 3e 61 00 00 
29.945100 1 318 Rx d 8 1a 08 27 05 1b 35 31 ea 
29.945800 1 3e2 Rx d 7 00 00 80 5a 00 c0 04 
29.947000 1 545 Rx d 8 01 00 00 00 00 10 20 7b 
29.947900 1 25b Rx d 8 d3 c0 02 05 6a 86 a0 85 
29.952500 1 228 Rx d 8 03 16 00 8c 80 80 c1 90 
29.959800 1 2e1 Rx d 8 fb 19 75 b9 94 6b 09 00 
29.960300 1 229 Rx d 3 f6 0a 00 
29.964500 1 2e8 Rx d 8 02 10 00 00 06 00 50 52 
29.964900 1 3e3 Rx d 4 00 00 00 00 
29.972400 1 39d Rx d 5 fb 53 e1 27 00 
29.975300 1 2e1 Rx d 8 04 00 00 80 48 44 26 00 
29.977300 1 441 Rx d 8 2b 00 b6 c3 58 00 25 8a 
29.979200 1 361 Rx d 5 33 0d 20 03 00 
29.980900 1 545 Rx d 8 02 00 03 00 00 00 30 7f 
29.991300 1 2e1 Rx d 8 45 80 00 00 d9 d0 8f 6a 
29.992700 1 400 Rx d 7 00 e0 fb be ef fb 00 
29.995800 1 3a8 Rx d 8 00 ff 01 7f 00 00 00 00 
29.996500 1 609 Rx d 8 2c 00 00 00 00 00 00 00 
30.007300 1 2e1 Rx d 8 10 21 04 00 12 00 20 08 
30.011300 1 609 Rx d 8 2d 00 00 00 00 00 00 1a 
30.012300 1 545 Rx d 8 80 01 22 c0 97 70 49 fd 
30.012500 1 39d Rx d 5 fc 54 e1 27 00 
30.014500 1 288 Rx d 8 03 16 00 8c 80 80 d1 00 
30.015800 1 709 Rx d 8 12 2d 00 60 04 00 00 00 
30.022000 1 609 Rx d 8 2e aa c1 5d 0f e7 0d 0d 
30.023700 1 2e1 Rx d 8 29 8a 55 af 1f 28 00 00 
30.023900 1 102 Rx d 8 22 b3 88 04 8c 0c 21 08 
30.026600 1 2a8 Rx d 8 02 10 00 00 06 00 70 32 
30.027300 1 441 Rx d 8 27 85 89 00 32 00 28 f8 
30.032900 1 609 Rx d 8 2f 0b 9e 0a ad 0a 00 09 
30.037500 1 2b4 Rx d 6 25 05 9c 0d cd 00 
30.038200 1 382 Rx d 5 42 18 27 00 00 
30.039300 1 2e1 Rx d 8 02 6c 7f 02 3e 61 00 00 
30.043900 1 609 Rx d 8 20 65 08 fd 08 d1 08 76 
30.045300 1 318 Rx d 8 1a 08 27 05 1b 35 33 ec 
30.047200 1 545 Rx d 8 01 00 00 00 00 10 50 ab 
30.047900 1 25b Rx d 8 d3 c0 02 05 6a 86 b0 95 
30.052500 1 228 Rx d 8 03 16 00 8c 80 80 d1 a0 
30.052600 1 39d Rx d 5 fd 55 e1 27 00 
30.054900 1 609 Rx d 8 21 08 4d 08 4f 08 4a 08 
30.055300 1 2e1 Rx d 8 fb 19 79 b9 94 6f 09 00 
30.060300 1 229 Rx d 3 8c 0b 00 
30.064500 1 2e8 Rx d 8 02 10 00 00 06 00 60 62 
30.065000 1 323 Rx d 5 3b 14 21 02 02 
30.066000 1 609 Rx d 8 22 42 08 1d 08 48 08 60 
30.071400 1 2e1 Rx d 8 04 00 00 80 48 44 26 00 
30.077300 1 441 Rx d 8 2b 00 b6 c3 58 00 2d 92 
30.078500 1 545 Rx d 8 02 00 03 00 00 00 60 af 
30.082300 1 609 Rx d 8 23 08 57 08 7c 08 a1 08 
30.087300 1 2e1 Rx d 8 45 80 00 00 d9 d0 8f 6a 
30.092500 1 39d Rx d 5 fe 56 e1 27 00 
30.092700 1 400 Rx d 7 00 e0 fb be ef fb 00 
30.092900 1 609 Rx d 8 24 c0 08 d7 08 a3 08 a5 
30.103300 1 2e1 Rx d 8 10 21 04 00 12 00 20 08 
30.104500 1 609 Rx d 8 25 08 8c 08 46 08 14 08 
30.111800 1 545 Rx d 8 d0 01 27 d0 97 70 79 92 
30.114500 1 288 Rx d 8 03 16 00 8c 80 80 e1 10 
30.116000 1 609 Rx d 8 26 05 07 f4 07 d1 07 91 
30.119400 1 2e1 Rx d 8 29 8a 55 af 1f 28 00 00 
30.123800 1 102 Rx d 8 22 b3 88 04 8a 0c 21 08 
30.126600 1 2a8 Rx d 8 02 10 00 00 06 00 80 42 
30.127500 1 441 Rx d 8 27 85 89 00 32 00 30 00 
30.131200 1 609 Rx d 8 27 07 92 07 7c 07 4f 07 
30.132400 1 39d Rx d 5 ff 57 e1 27 00 
30.135300 1 2e1 Rx d 8 02 6c 7f 02 3e 61 00 00 
30.137500 1 2b4 Rx d 6 27 05 9d 0d ce 00 
30.141900 1 609 Rx d 8 28 38 07 54 07 40 07 39 
30.144300 1 545 Rx d 8 01 00 00 00 00 10 80 db 
30.145100 1 318 Rx d 8 1a 08 28 05 1b 35 35 ef 
30.145800 1 3e2 Rx d 7 00 00 80 5a 00 c0 04 
30.147900 1 25b Rx d 8 d3 c0 02 05 6a 86 c0 a5 
30.151500 1 2e1 Rx d 8 fb 19 76 c9 94 6d 09 00 
30.152500 1 228 Rx d 8 03 16 00 8c 80 80 e1 b0 
30.153000 1 609 Rx d 8 29 07 1c 07 2e 07 2e 07 
30.160300 1 229 Rx d 3 49 0c 00 
30.163900 1 609 Rx d 8 2a 10 07 12 07 1a 07 1d 
30.164500 1 2e8 Rx d 8 02 10 00 00 06 00 70 72 
30.164900 1 3e3 Rx d 4 00 00 00 00 
30.167500 1 2e1 Rx d 8 04 00 00 80 48 44 26 00 
30.172600 1 39d Rx d 5 00 58 e1 27 00 
30.174900 1 609 Rx d 8 2b 07 17 07 03 07 0b 07 
30.177300 1 545 Rx d 8 02 00 03 00 00 00 90 df 
30.177500 1 441 Rx d 8 2b 00 b6 c3 58 00 35 9a 
30.183300 1 2e1 Rx d 8 45 80 00 00 d9 d0 8f 6a 
30.185900 1 609 Rx d 8 2c 17 06 f6 06 f0 07 0c 
30.192700 1 400 Rx d 7 00 e0 fb be ef fb 00 
30.195900 1 3a8 Rx d 8 01 02 00 00 00 03 ff 00 
30.199400 1 2e1 Rx d 8 10 21 04 00 12 00 20 08 
30.201500 1 609 Rx d 8 2d 06 fc 06 f7 06 de 06 
30.210300 1 545 Rx d 8 d0 01 27 a0 97 72 a9 94 
30.212700 1 39d Rx d 5 01 59 e1 27 00 
30.213000 1 609 Rx d 8 2e f0 06 e8 06 cd 06 c8 
30.214500 1 288 Rx d 8 03 16 00 8c 80 80 f1 20 
30.215300 1 2e1 Rx d 8 29 8a 55 af 1f 28 00 00 
30.223900 1 102 Rx d 8 22 b3 88 04 8a 0c 21 08 
30.225000 1 609 Rx d 8 2f 06 d4 06 d0 06 d5 06 
30.226600 1 2a8 Rx d 8 02 10 00 00 06 00 90 52 
30.227300 1 441 Rx d 8 27 85 89 00 32 00 38 08 
30.231300 1 2e1 Rx d 8 02 6c 7f 02 3e 61 00 00 
30.235900 1 609 Rx d 8 20 b1 06 ca 06 ca 06 bc 
30.237500 1 2b4 Rx d 6 28 05 9c 0d c8 00 
30.243300 1 545 Rx d 8 01 00 00 00 00 10 b0 0b 
30.246000 1 318 Rx d 8 1a 08 28 05 1b 35 37 f1 
30.247400 1 2e1 Rx d 8 fb 19 77 c9 94 70 09 00 
30.247900 1 25b Rx d 8 d3 c0 02 05 6a 86 d0 b5 
30.251200 1 609 Rx d 8 21 06 ac 06 d4 06 cc 06 
30.252500 1 228 Rx d 8 03 16 00 8c 80 80 f1 c0 
30.252700 1 39d Rx d 5 02 5a e1 27 00 
30.260500 1 229 Rx d 3 2f 0d 00 
30.262300 1 609 Rx d 8 22 dc 06 ba 06 d5 06 d0 
30.263300 1 2e1 Rx d 8 04 00 00 80 48 44 26 00 
30.264500 1 2e8 Rx d 8 02 10 00 00 06 00 80 82 
30.273000 1 609 Rx d 8 23 06 b5 06 c4 06 d4 06 
30.276300 1 545 Rx d 8 02 00 03 00 00 00 c0 0f 
30.277300 1 441 Rx d 8 2b 00 b6 c3 58 00 3d a2 
30.280300 1 2e1 Rx d 8 45 80 00 00 d9 d0 8f 6a 
30.283900 1 609 Rx d 8 24 c6 06 c8 06 bd 06 ba 
30.292500 1 39d Rx d 5 03 5b e1 27 00 
30.292700 1 400 Rx d 7 00 e0 fb be ef fb 00 
30.294900 1 609 Rx d 8 25 06 ca 06 b4 06 b2 06 
30.295600 1 2e1 Rx d 8 10 21 04 00 12 00 20 08 
30.306000 1 609 Rx d 8 26 dc 06 d4 06 d3 06 bc 
30.309300 1 545 Rx d 8 80 01 27 60 97 6a d9 2c 
30.311300 1 2e1 Rx d 8 29 8a 55 af 1f 28 00 00 
30.314500 1 288 Rx d 8 03 16 00 8c 80 80 01 30 
30.321300 1 609 Rx d 8 27 06 e3 06 d3 06 cc 06 
30.323900 1 102 Rx d 8 22 b3 88 04 8c 0c 21 08 
30.326600 1 2a8 Rx d 8 02 10 00 00 06 00 a0 62 
30.327300 1 2e1 Rx d 8 02 6c 7f 02 3e 61 00 00 
30.327600 1 441 Rx d 8 27 85 89 00 32 00 00 d0 
30.327800 1 709 Rx d 8 13 54 00 e0 04 00 00 00 
30.331900 1 609 Rx d 8 28 c3 06 e4 06 d2 06 dd 
30.332400 1 39d Rx d 5 04 5c e1 27 00 
30.337500 1 2b4 Rx d 6 26 05 9c 0d ce 00 
30.342300 1 545 Rx d 8 01 00 00 00 00 10 e0 3b 
30.342900 1 609 Rx d 8 29 06 bb 06 be 06 d4 06 
30.343300 1 2e1 Rx d 8 fb 19 74 c9 94 6a 09 00 
30.345300 1 318 Rx d 8 1a 08 28 05 1b 35 39 f3 
30.346200 1 3e2 Rx d 7 00 00 80 5a 00 c0 04 
30.347800 1 25b Rx d 8 d3 c0 02 05 6a 86 e0 c5 
30.352500 1 228 Rx d 8 03 16 00 8c 80 80 01 d0 
30.353900 1 609 Rx d 8 2a af 06 b6 06 cf 06 c7 
30.360200 1 2e1 Rx d 8 04 00 00 80 48 44 26 00 
30.360400 1 229 Rx d 3 31 0e 00 
30.364500 1 2e8 Rx d 8 02 10 00 00 06 00 90 92 
30.364900 1 3e3 Rx d 4 00 00 00 00 
30.365200 1 609 Rx d 8 2b 06 d1 06 b0 06 ce 06 
30.372400 1 39d Rx d 5 05 5d e1 27 00 
30.375300 1 2e1 Rx d 8 45 80 00 00 d9 d0 8f 6a 
30.375800 1 545 Rx d 8 02 00 04 00 00 00 f0 40 
30.376000 1 609 Rx d 8 2c c5 06 b3 06 be 06 d5 
30.377300 1 441 Rx d 8 2b 00 b6 c3 58 00 05 6a 
30.380900 1 672 Rx d 8 00 01 00 01 00 00 00 00 
30.387800 1 53e Rx d 8 0b 00 0d 04 01 00 ff ff 
30.389200 1 3dd Rx d 8 c7 dd 02 f0 af 54 17 00 
30.391500 1 2e1 Rx d 8 10 21 04 00 12 00 20 08 
30.392300 1 609 Rx d 8 2d 06 ce 06 da 06 bf 06 
30.392800 1 400 Rx d 7 00 e0 fb be ef fb 00 
30.395800 1 3a8 Rx d 8 02 00 18 01 00 00 00 00 
30.404500 1 609 Rx d 8 2e d4 06 ce 06 bd 06 bb 
30.407300 1 2e1 Rx d 8 29 8a 55 af 1f 28 00 00 
30.408300 1 545 Rx d 8 d0 01 27 20 97 6a 09 6c 
30.412800 1 39d Rx d 5 06 5e e1 27 00 
30.414600 1 288 Rx d 8 03 16 00 8c 80 80 11 40 
30.416000 1 609 Rx d 8 2f 06 df 06 da 06 e2 06 
30.423500 1 2e1 Rx d 8 02 6c 7f 02 3e 61 00 00 
30.423900 1 102 Rx d 8 22 b3 88 04 8a 0c 21 08 
30.426600 1 2a8 Rx d 8 02 10 00 00 06 00 b0 72 
30.427300 1 441 Rx d 8 27 85 89 00 32 00 08 d8 
30.431700 1 609 Rx d 8 20 b7 06 de 06 d1 06 ba 
30.437400 1 2b4 Rx d 6 2b 05 9c 0d d4 00 
30.438400 1 3c4 Rx d 8 11 00 00 00 00 00 00 00 
30.439700 1 2e1 Rx d 8 fb 19 73 b9 94 66 09 00 
30.441500 1 545 Rx d 8 01 00 00 00 00 10 10 6b 
30.442900 1 609 Rx d 8 21 06 c8 06 d8 06 d1 06 
30.445200 1 318 Rx d 8 1a 08 28 05 1b 35 3b f5 
30.447900 1 25b Rx d 8 d3 c0 02 05 6a 86 f0 d5 
30.452500 1 39d Rx d 5 07 5f e1 27 00 
30.452700 1 228 Rx d 8 03 16 00 8c 80 80 11 e0 
30.453900 1 609 Rx d 8 22 db 06 be 06 ce 06 c9 
30.455300 1 2e1 Rx d 8 04 00 00 80 48 44 26 00 
30.460000 1 229 Rx d 3 3b 0f 00 
30.463700 1 726 Rx d 3 02 00 00 
30.464600 1 2e8 Rx d 8 02 10 00 00 06 00 a0 a2 
30.465000 1 609 Rx d 8 23 06 c8 06 b4 06 d7 06 
30.471400 1 2e1 Rx d 8 45 80 00 00 d9 d0 8f 6a 
30.474400 1 545 Rx d 8 02 00 04 00 00 00 20 70 
30.476000 1 609 Rx d 8 24 d1 06 d6 06 b8 06 cd 
30.477300 1 441 Rx d 8 2b 00 b6 c3 58 00 0d 72 
30.487400 1 2e1 Rx d 8 10 21 04 00 12 00 20 08 
30.491700 1 609 Rx d 8 25 06 d6 06 c0 06 c9 06 
30.492600 1 39d Rx d 5 f8 50 e1 27 00 
30.492800 1 400 Rx d 7 c7 e0 1b be ef fb 00 
30.503400 1 2e1 Rx d 8 29 8a 55 af 1f 28 00 00 
30.504500 1 609 Rx d 8 26 d0 06 d3 06 e2 06 c2 
30.507300 1 545 Rx d 8 80 01 22 80 97 6b 39 a8 
30.514800 1 288 Rx d 8 03 16 00 8c 80 80 21 50 
30.516000 1 609 Rx d 8 27 06 e2 06 e1 06 cb 06 
30.519400 1 2e1 Rx d 8 02 6c 7f 02 3e 61 00 00 
30.523800 1 102 Rx d 8 22 b3 88 04 8a 0c 21 08 
30.526600 1 2a8 Rx d 8 02 10 00 00 06 00 c0 82 
30.527600 1 441 Rx d 8 27 85 89 00 32 00 10 e0 
30.531300 1 609 Rx d 8 28 cc 06 ef 06 e1 06 ef 
30.532500 1 39d Rx d 5 f9 51 e1 27 00 
30.535300 1 2e1 Rx d 8 fb 19 74 b9 94 69 09 00 
30.537500 1 2b4 Rx d 6 24 05 9d 0d cd 00 
30.540300 1 545 Rx d 8 01 00 00 00 00 10 40 9b 
30.541900 1 609 Rx d 8 29 06 d4 06 e8 06 df 06 
30.545200 1 318 Rx d 8 1a 08 28 05 1b 35 3d f7 
30.545900 1 3e2 Rx d 7 00 00 80 5a 00 c0 04 
30.547800 1 25b Rx d 8 d3 c0 02 05 6a 86 00 e5 
30.549300 1 23a Rx d 8 1a 02 01 00 00 00 00 00 
30.551300 1 2e1 Rx d 8 04 00 00 80 48 44 26 00 
30.552600 1 228 Rx d 8 03 16 00 8c 80 80 21 f0 
30.553000 1 609 Rx d 8 2a d9 06 d8 06 ef 06 e0 
30.560200 1 229 Rx d 3 46 00 00 
30.563900 1 609 Rx d 8 2b 06 e0 06 d0 06 ea 06 
30.564500 1 2e8 Rx d 8 02 10 00 00 06 00 b0 b2 
30.565000 1 3e3 Rx d 4 00 00 00 00 
30.567500 1 2e1 Rx d 8 45 80 00 00 d9 d0 8f 6a 
30.572800 1 39d Rx d 5 fa 52 e1 27 00 
30.573700 1 545 Rx d 8 02 00 04 00 00 00 50 a0 
30.574900 1 609 Rx d 8 2c e2 06 d1 06 c8 06 ea 
30.577300 1 441 Rx d 8 2b 00 b6 c3 58 00 15 7a 
30.583300 1 2e1 Rx d 8 10 21 04 00 12 00 20 08 
30.586000 1 609 Rx d 8 2d 06 e2 06 f2 06 d2 06 
30.592700 1 400 Rx d 7 c7 e0 1b be ef fb 00 
30.595800 1 3a8 Rx d 8 03 00 00 00 00 00 00 00 
30.599800 1 2e1 Rx d 8 29 8a 55 af 1f 28 00 00 
30.601700 1 609 Rx d 8 2e f1 06 de 06 d9 06 da 
30.606300 1 545 Rx d 8 d0 01 27 90 97 6c 69 3e 
30.612700 1 39d Rx d 5 fb 53 e1 27 00 
30.613000 1 609 Rx d 8 2f 06 e8 06 e4 06 f9 06 
30.614600 1 288 Rx d 8 03 16 00 8c 80 80 31 60 
30.615300 1 2e1 Rx d 8 02 6c 7f 02 3e 61 00 00 
30.623900 1 102 Rx d 8 22 b3 88 04 8c 0c 21 08 
30.624400 1 609 Rx d 8 20 d2 06 e5 06 ec 06 da 
30.626600 1 2a8 Rx d 8 02 10 00 00 06 00 d0 92 
30.627600 1 441 Rx d 8 27 85 89 00 32 00 18 e8 
30.631500 1 2e1 Rx d 8 fb 19 75 b9 94 6b 09 00 
30.635000 1 609 Rx d 8 21 06 cd 06 f9 06 ed 06 
30.637300 1 2b4 Rx d 6 29 05 9c 0d d3 00 
30.640200 1 545 Rx d 8 01 00 00 00 00 10 70 cb 
30.641000 1 709 Rx d 8 94 82 0c 32 20 20 00 00 
30.646000 1 318 Rx d 8 1a 08 28 05 1b 35 3f f9 
30.647400 1 2e1 Rx d 8 04 00 00 80 48 44 26 00 
30.647900 1 25b Rx d 8 d3 c0 02 05 6a 86 10 f5 
30.648600 1 609 Rx d 8 22 fb 06 d1 06 f0 06 f5 
30.652500 1 39d Rx d 5 fc 54 e1 27 00 
30.652700 1 228 Rx d 8 03 16 00 8c 80 80 31 00 
30.660300 1 229 Rx d 3 44 01 00 
30.662600 1 609 Rx d 8 23 06 e6 06 de 06 fb 06 
30.663300 1 2e1 Rx d 8 45 80 00 00 d9 d0 8f 6a 
30.664600 1 2e8 Rx d 8 02 10 00 00 06 00 c0 c2 
30.672800 1 545 Rx d 8 02 00 03 00 00 00 80 cf 
30.674000 1 609 Rx d 8 24 ec 06 fd 06 e3 06 f0 
30.677300 1 441 Rx d 8 2b 00 b6 c3 58 00 1d 82 
30.679300 1 321 Rx d 8 3d ea a8 8b 01 8a b0 b9 
30.680300 1 2e1 Rx d 8 10 21 04 00 12 00 20 08 
30.684900 1 609 Rx d 8 25 06 f9 06 e0 06 ec 06 
30.692500 1 39d Rx d 5 fd 55 e1 27 00 
30.692700 1 400 Rx d 7 c7 e0 1b be ef fb 00 
30.695700 1 2e1 Rx d 8 29 8a 55 af 1f 28 00 00 
30.696400 1 609 Rx d 8 26 fa 06 f9 07 01 06 d9 
30.705300 1 545 Rx d 8 d0 01 27 60 97 6e 99 40 
30.711300 1 609 Rx d 8 27 06 fb 06 f9 06 e4 06 
30.711500 1 2e1 Rx d 8 02 6c 7f 02 3e 61 00 00 
30.714500 1 288 Rx d 8 03 16 00 8c 80 80 41 70 
30.722800 1 609 Rx d 8 28 e4 07 03 06 f5 07 06 
30.723800 1 102 Rx d 8 22 b3 88 04 8c 0c 21 08 
30.726600 1 2a8 Rx d 8 02 10 00 00 06 00 e0 a2 
30.727300 1 2e1 Rx d 8 fb 19 74 c9 94 6a 09 00 
30.727600 1 441 Rx d 8 27 85 89 00 32 00 20 f0 
30.729300 1 70b Rx d 8 02 64 c9 00 64 e2 4d 00 
30.732500 1 39d Rx d 5 fe 56 e1 27 00 
30.733900 1 609 Rx d 8 29 06 d8 07 02 06 f6 06 
30.737300 1 2b4 Rx d 6 26 05 9c 0d cf 00 
30.738400 1 545 Rx d 8 01 00 00 00 00 10 a0 fb 
30.743300 1 2e1 Rx d 8 04 00 00 80 48 44 26 00 
30.745200 1 318 Rx d 8 1a 08 28 05 1b 35 21 db 
30.745900 1 3e2 Rx d 7 00 00 80 5a 00 c0 04 
30.746600 1 609 Rx d 8 2a f0 06 ee 07 03 06 f9 
30.747900 1 25b Rx d 8 d3 c0 02 05 6a 86 20 05 
30.752600 1 228 Rx d 8 03 16 00 8c 80 80 41 10 
30.759700 1 2e1 Rx d 8 45 80 00 00 d9 d0 8f 6a 
30.760200 1 229 Rx d 3 52 02 00 
30.762300 1 609 Rx d 8 2b 07 0e 06 e1 06 fe 06 
30.764500 1 2e8 Rx d 8 02 10 00 00 06 00 d0 d2 
30.765000 1 3e3 Rx d 4 00 00 00 00 
30.771700 1 545 Rx d 8 02 00 03 00 00 00 b0 ff 
30.773300 1 39d Rx d 5 ff 57 e1 27 00 
30.774000 1 609 Rx d 8 2c fc 06 f1 06 de 07 0c 
30.775400 1 2e1 Rx d 8 10 21 04 00 12 00 20 08 
30.777300 1 441 Rx d 8 2b 00 b6 c3 58 00 25 8a 
30.784900 1 609 Rx d 8 2d 06 fd 06 f8 06 e9 06 
30.791400 1 2e1 Rx d 8 29 8a 55 af 1f 28 00 00 
30.792700 1 400 Rx d 7 c7 e0 1b be ef fb 00 
30.795800 1 3a8 Rx d 8 04 60 03 35 02 00 00 00 
30.796300 1 609 Rx d 8 2e fc 06 ff 06 ed 06 e0 
30.804600 1 545 Rx d 8 80 01 22 90 97 70 c9 4d 
30.805400 1 310 Rx d 8 0b 00 04 02 05 00 02 00 
30.807300 1 2e1 Rx d 8 02 6c 7f 02 3e 61 00 00 
30.810400 1 330 Rx d 8 0b 00 03 01 00 00 00 00 
30.811300 1 609 Rx d 8 2f 07 01 06 fe 07 0b 06 
30.812500 1 39d Rx d 5 00 58 e1 27 00 
30.814600 1 288 Rx d 8 03 16 00 8c 80 80 51 80 
30.822100 1 609 Rx d 8 20 df 06 f4 06 fd 06 ec 
30.823500 1 2e1 Rx d 8 fb 19 75 c9 94 69 09 00 
30.823900 1 102 Rx d 8 22 b3 88 04 8c 0c 21 08 
30.826600 1 2a8 Rx d 8 02 10 00 00 06 00 f0 b2 
30.827300 1 441 Rx d 8 27 85 89 00 32 00 28 f8 
30.832900 1 609 Rx d 8 21 06 f6 07 06 06 fc 07 
30.833200 1 319 Rx d 8 20 00 00 00 ff ff ff ff 
30.837300 1 2b4 Rx d 6 28 05 9c 0d ca 00 
30.837500 1 545 Rx d 8 01 00 00 00 00 10 d0 2b 
30.839700 1 2e1 Rx d 8 04 00 00 80 48 44 26 00 
30.843900 1 609 Rx d 8 22 14 06 ec 06 ee 07 02 
30.845200 1 318 Rx d 8 1a 08 28 05 1b 35 23 dd 
30.847900 1 25b Rx d 8 d3 c0 02 05 6a 86 30 15 
30.852500 1 39d Rx d 5 01 59 e1 27 00 
30.852700 1 228 Rx d 8 03 16 00 8c 80 80 51 20 
30.855000 1 609 Rx d 8 23 06 e4 06 f5 06 fc 07 
30.855300 1 2e1 Rx d 8 45 80 00 00 d9 d0 8f 6a 
30.860300 1 229 Rx d 3 6d 03 00 
30.864600 1 2e8 Rx d 8 02 10 00 00 06 00 e0 e2 
30.866100 1 609 Rx d 8 24 04 07 00 06 e5 06 fa 
30.870400 1 545 Rx d 8 02 00 03 00 00 00 e0 2f 
30.871500 1 2e1 Rx d 8 10 21 04 00 12 00 20 08 
30.877300 1 441 Rx d 8 2b 00 b6 c3 58 00 2d 92 
30.881900 1 609 Rx d 8 25 06 f7 06 f8 06 d9 07 
30.887400 1 2e1 Rx d 8 29 8a 55 af 1f 28 00 00 
30.892500 1 39d Rx d 5 02 5a e1 27 00 
30.893000 1 400 Rx d 7 c7 e0 23 be ef fb 00 
30.893200 1 609 Rx d 8 26 10 06 fc 07 0a 06 e2 
30.903400 1 2e1 Rx d 8 02 6c 7f 02 3e 61 00 00 
30.903600 1 545 Rx d 8 d0 01 27 60 97 6a f9 9c 
30.904600 1 609 Rx d 8 27 06 fc 07 00 06 f0 06 
30.914600 1 288 Rx d 8 03 16 00 8c 80 80 61 90 
30.916000 1 609 Rx d 8 28 e1 07 0c 07 04 07 11 
30.919400 1 2e1 Rx d 8 fb 19 75 c9 94 6a 09 00 
30.923800 1 102 Rx d 8 22 b3 88 04 8a 0c 21 08 
30.926600 1 2a8 Rx d 8 02 10 00 00 06 00 00 c2 
30.927600 1 441 Rx d 8 27 85 89 00 32 00 30 00 
30.931300 1 609 Rx d 8 29 06 e7 06 fc 06 f4 06 
30.932500 1 39d Rx d 5 03 5b e1 27 00 
30.935300 1 2e1 Rx d 8 04 00 00 80 48 44 26 00 
30.936300 1 545 Rx d 8 01 00 00 00 00 10 00 5b 
30.937600 1 2b4 Rx d 6 29 05 9c 0d c8 00 
30.938300 1 3c4 Rx d 8 12 67 db 31 70 ee c3 47 
30.941900 1 609 Rx d 8 2a f1 06 f0 06 f3 07 08 
30.946000 1 318 Rx d 8 1a 08 28 05 1b 35 25 df 
30.946700 1 3e2 Rx d 7 00 00 80 5a 00 c0 04 
30.947800 1 25b Rx d 8 d3 c0 02 05 6a 86 40 25 
30.951400 1 2e1 Rx d 8 45 80 00 00 d9 d0 8f 6a 
30.952000 1 709 Rx d 8 15 00 00 00 00 00 00 00 
30.952600 1 228 Rx d 8 03 16 00 8c 80 80 61 30 
30.960400 1 229 Rx d 3 43 04 00 
30.964600 1 2e8 Rx d 8 02 10 00 00 06 00 f0 f2 
30.965000 1 3e3 Rx d 4 00 00 00 00 
30.967600 1 2e1 Rx d 8 10 21 04 00 12 00 20 08 
30.969400 1 545 Rx d 8 02 00 03 00 00 00 10 5f 
30.973000 1 39d Rx d 5 04 5c e1 27 00 
30.977300 1 441 Rx d 8 2b 00 b6 c3 58 00 35 9a 
30.979300 1 361 Rx d 5 34 0d 20 03 01 
30.983400 1 2e1 Rx d 8 29 8a 55 af 1f 28 00 00 
30.992700 1 400 Rx d 7 c7 e0 23 be ef fb 00 
30.995800 1 3a8 Rx d 8 00 ff 01 7f 00 00 00 00 
30.996300 1 609 Rx d 8 2b 07 03 06 e8 06 f7 06 
30.999400 1 2e1 Rx d 8 02 6c 7f 02 3e 61 00 00 
39.501800 1 609 Rx d 8 24 00 00 00 00 00 00 00 
39.511900 1 2e1 Rx d 8 10 21 04 00 12 00 20 08 
39.512600 1 609 Rx d 8 25 00 00 00 00 00 00 00 
39.515300 1 288 Rx d 8 03 16 00 8c 80 80 c1 f0 
39.517000 1 545 Rx d 8 80 01 27 90 97 6c 49 ce 
39.518400 1 3e2 Rx d 7 01 00 80 5a 00 c0 04 
39.518600 1 55d Rx d 8 93 00 2e 46 66 41 06 40 
39.520600 1 2e1 Rx d 8 29 89 55 af 1f 28 00 00 
39.521700 1 3e3 Rx d 4 01 00 00 00 
39.522400 1 7b1 Rx d 8 03 3f 3f 3f 3f 3f 3f 3f 
39.523700 1 609 Rx d 8 26 00 00 00 00 00 00 00 
39.524400 1 102 Rx d 8 22 b3 88 04 8a 0c 21 08 
39.527300 1 2a8 Rx d 8 02 10 10 10 06 00 62 44 
39.527900 1 2e1 Rx d 8 29 89 55 af 1f 28 00 00 
39.528100 1 441 Rx d 8 28 85 89 00 32 00 20 f1 
39.530400 1 2e1 Rx d 8 29 8d 55 af 1f 28 00 00 
39.532900 1 39d Rx d 5 e7 62 aa 3b 00 
39.534600 1 609 Rx d 8 27 00 00 00 00 00 00 00 
39.537300 1 2b4 Rx d 6 27 05 9c 0d fc 00 
39.543900 1 2e1 Rx d 8 02 6c 7f 02 3e 61 00 00 
39.545600 1 609 Rx d 8 28 00 00 00 00 00 00 00 
39.546500 1 318 Rx d 8 1a 08 31 05 1b 35 31 f4 
39.547200 1 3e2 Rx d 7 01 00 80 5a 00 c0 04 
39.548200 1 25b Rx d 8 d3 80 06 05 6a 86 a0 49 
39.549900 1 23a Rx d 8 23 08 1a 00 00 00 00 00 
39.551100 1 545 Rx d 8 01 00 00 00 00 10 50 ab 
39.553200 1 228 Rx d 8 03 16 00 8c 80 80 c1 90 
39.556600 1 609 Rx d 8 29 00 00 00 00 00 00 00 
39.560500 1 2e1 Rx d 8 fb 19 75 d9 94 65 09 00 
39.560700 1 229 Rx d 3 f6 0a 00 
39.561700 1 330 Rx d 8 0a 01 00 00 ff ff 38 00 
39.565200 1 2e8 Rx d 8 02 10 10 10 06 00 52 74 
39.565600 1 3e3 Rx d 4 01 00 00 00 
39.572100 1 609 Rx d 8 2a 00 00 00 00 00 00 00 
39.573000 1 39d Rx d 5 7a 63 2a 4d 00 
39.573200 1 7b1 Rx d 8 04 3f 3f 3f 3f 3f 00 00 
39.575800 1 2e1 Rx d 8 04 00 00 80 48 44 26 00 
39.577900 1 441 Rx d 8 2b 00 b6 c3 58 00 25 8a 
39.582900 1 545 Rx d 8 02 00 02 00 00 00 60 ae 
39.583600 1 609 Rx d 8 2b 00 00 00 00 00 00 00 
39.591900 1 2e1 Rx d 8 65 80 01 00 ed d0 8f 6a 
39.593100 1 400 Rx d 7 d7 e0 0b be ef fb 00 
39.594600 1 609 Rx d 8 2c 00 00 00 00 00 00 00 
39.596400 1 3a8 Rx d 8 03 00 00 00 00 00 00 00 
39.605600 1 609 Rx d 8 2d 00 00 00 00 00 00 00 
39.607900 1 2e1 Rx d 8 10 21 04 00 12 00 20 08 
39.613100 1 39d Rx d 5 ca 64 6a 5c 00 
39.615300 1 288 Rx d 8 03 16 00 8c 80 80 d1 00 
39.616100 1 545 Rx d 8 60 03 44 20 97 66 79 87 
39.616600 1 609 Rx d 8 2e 00 00 00 00 00 00 00 
39.624000 1 2e1 Rx d 8 29 8d 55 af 1f 28 00 00 
39.624500 1 102 Rx d 8 22 b3 88 04 8a 0c 21 08 
39.627300 1 2a8 Rx d 8 02 10 10 10 06 00 72 54 
39.628100 1 441 Rx d 8 28 85 89 00 32 00 28 f9 
39.632200 1 609 Rx d 8 2f 00 00 00 00 00 00 00 
39.637200 1 2b4 Rx d 6 27 05 9c 0d 59 01 
39.640500 1 2e1 Rx d 8 02 6c 7f 02 3e 61 00 00 
39.643600 1 609 Rx d 8 20 00 00 00 00 00 00 00 
39.646600 1 318 Rx d 8 1a 08 31 05 1b 35 33 f6 
39.648300 1 25b Rx d 8 d3 80 06 05 6a 86 b0 59 
39.649200 1 545 Rx d 8 01 00 00 00 00 10 80 db 
39.652700 1 39d Rx d 5 b6 65 4a 67 00 
39.653300 1 228 Rx d 8 03 16 00 8c 80 80 d1 a0 
39.654600 1 609 Rx d 8 21 00 00 00 00 00 00 00 
39.655800 1 2e1 Rx d 8 fb 19 6f d9 94 5f 19 00 
39.660500 1 229 Rx d 3 8c 0b 00 
39.665200 1 2e8 Rx d 8 02 10 10 10 06 00 62 84 
39.666200 1 609 Rx d 8 22 00 00 00 00 00 00 00 
39.672100 1 2e1 Rx d 8 04 00 00 80 48 44 26 00 
39.677900 1 441 Rx d 8 2b 00 b6 c3 58 00 2d 92 
39.679900 1 321 Rx d 8 3d e6 a8 8c 01 8a 40 46 
39.682200 1 545 Rx d 8 02 00 02 00 00 00 90 de 
39.682400 1 609 Rx d 8 23 00 00 00 00 00 00 00 
39.687900 1 2e1 Rx d 8 65 80 09 00 ed d0 8f 6a 
39.688100 1 709 Rx d 8 10 f2 00 00 00 00 00 00 
39.693100 1 400 Rx d 7 d7 e0 0b be ef fb 00 
39.693300 1 39d Rx d 5 a0 66 2a 70 00 
39.693600 1 609 Rx d 8 24 00 00 00 00 00 00 00 
39.703900 1 2e1 Rx d 8 10 21 04 00 12 00 20 08 
39.705200 1 609 Rx d 8 25 00 00 00 00 00 00 00 
39.714800 1 545 Rx d 8 60 03 44 d0 96 60 a9 60 
39.715300 1 288 Rx d 8 03 16 00 8c 80 80 e1 10 
39.716600 1 609 Rx d 8 26 00 00 00 00 00 00 00 
39.720400 1 2e1 Rx d 8 29 8d 55 af 1f 28 00 00 
39.724400 1 102 Rx d 8 22 b3 88 04 8c 0c 21 08 
39.727300 1 2a8 Rx d 8 02 10 10 10 06 00 82 64 
39.728100 1 441 Rx d 8 28 85 89 00 32 00 30 01 
39.730400 1 70b Rx d 8 01 20 06 f2 1f 00 f2 1f 
39.731900 1 609 Rx d 8 27 00 00 00 00 00 00 00 
39.732900 1 39d Rx d 5 e8 67 6a 77 00 
39.736300 1 2e1 Rx d 8 02 6c 7f 02 3e 61 00 00 
39.737200 1 2b4 Rx d 6 2a 05 9b 0d 76 01 
39.742600 1 609 Rx d 8 28 00 00 00 00 00 00 00 
39.745800 1 318 Rx d 8 1a 08 31 05 1b 35 35 f8 
39.746500 1 3e2 Rx d 7 01 00 80 5a 00 c0 04 
39.747900 1 545 Rx d 8 01 00 00 00 00 10 b0 0b 
39.748300 1 25b Rx d 8 d3 80 06 05 6a 86 c0 69 
39.751900 1 2e1 Rx d 8 fb 19 6c 79 94 5f 19 00 
39.753200 1 228 Rx d 8 03 16 00 8c 80 80 e1 b0 
39.754100 1 609 Rx d 8 29 00 00 00 00 00 00 00 
39.756500 1 1e5 Rx d 8 00 2c 00 00 00 00 00 12 
39.760600 1 229 Rx d 3 49 0c 00 
39.764700 1 609 Rx d 8 2a 00 00 00 00 00 00 00 
39.765200 1 2e8 Rx d 8 02 10 10 10 06 00 72 94 
39.765600 1 3e3 Rx d 4 01 00 00 00 
39.766600 1 1e5 Rx d 8 00 2c 00 00 00 00 20 32 
39.768200 1 2e1 Rx d 8 04 00 00 80 48 44 26 00 
39.773100 1 39d Rx d 5 af 68 2a 7d 00 
39.774800 1 266 Rx d 8 00 00 49 49 00 00 00 00 
39.775600 1 609 Rx d 8 2b 00 00 00 00 00 00 00 
39.776600 1 1e5 Rx d 8 02 ec 00 00 00 00 40 14 
39.777900 1 441 Rx d 8 2b 00 b6 c3 58 00 35 9a 
39.781100 1 545 Rx d 8 02 00 03 00 00 00 c0 0f 
39.783900 1 2e1 Rx d 8 65 80 09 00 ed d0 8f 6a 
39.784800 1 266 Rx d 8 00 00 48 48 00 00 00 00 
39.785800 1 268 Rx d 5 48 48 ff 01 ff 
39.786900 1 1e5 Rx d 8 02 ec 00 00 00 00 60 34 
39.787400 1 609 Rx d 8 2c 00 00 00 00 00 00 00 
39.793100 1 400 Rx d 7 d7 e0 0b be ef fb 00 
39.794800 1 315 Rx d 8 18 4c 47 4d 50 47 c6 7d 
39.795000 1 266 Rx d 8 00 00 48 48 00 00 00 00 
39.795300 1 315 Rx d 8 01 47 47 00 4c 28 00 00 
39.795500 1 7d5 Rx d 8 2b 00 00 00 00 00 00 00 
39.795800 1 315 Rx d 8 02 00 ac 0e 00 00 00 00 
39.796700 1 315 Rx d 8 73 1c 18 5a 98 00 80 02 
39.797000 1 1e5 Rx d 8 02 ec 00 00 00 00 00 d4 
39.797200 1 315 Rx d 8 04 24 2b c6 00 28 28 28 
39.797500 1 3a8 Rx d 8 04 80 03 e9 01 00 00 00 
39.799400 1 7d5 Rx d 8 2c 00 3f 00 00 00 00 00 
39.799800 1 335 Rx d 8 0a 01 cb 32 fc 00 05 00 
39.800500 1 2e1 Rx d 8 10 21 04 00 12 00 20 08 
39.802200 1 609 Rx d 8 2d 00 00 00 00 00 00 00 
39.805600 1 266 Rx d 8 00 00 48 48 00 00 00 00 
39.805900 1 7d5 Rx d 8 32 00 00 00 00 00 00 00 
39.807100 1 1e5 Rx d 8 02 ec 00 00 00 00 20 f4 
39.807300 1 7d5 Rx d 8 42 fd 00 fd 00 00 17 00 
39.807600 1 7d5 Rx d 8 43 fd 00 fd 00 1e 00 00 
39.807800 1 7d5 Rx d 8 44 5e 46 1d 54 36 00 29 
39.808500 1 7d5 Rx d 8 46 28 28 28 28 28 28 28 
39.808800 1 7d5 Rx d 8 48 28 28 00 00 00 0a 58 
39.813800 1 39d Rx d 5 d2 69 4a 7f 00 
39.814000 1 545 Rx d 8 b0 03 44 30 97 67 d9 48 
39.814500 1 609 Rx d 8 2e 00 00 00 00 00 00 00 
39.815300 1 288 Rx d 8 03 16 00 8c 80 80 f1 20 
39.815800 1 266 Rx d 8 00 00 48 48 00 00 00 00 
39.816000 1 2e1 Rx d 8 29 8d 55 af 1f 28 00 00 
39.816800 1 1e5 Rx d 8 02 ec 00 00 00 00 40 14 
39.824500 1 102 Rx d 8 22 b3 88 04 8c 0c 21 08 
39.825600 1 266 Rx d 8 00 00 48 48 00 00 00 00 
39.825900 1 609 Rx d 8 2f 00 00 00 00 00 00 00 
39.826700 1 1e5 Rx d 8 02 ec 00 00 00 00 60 34 
39.827400 1 2a8 Rx d 8 02 10 10 10 06 00 92 74 
39.827900 1 441 Rx d 8 28 85 89 00 32 00 38 09 
39.831900 1 2e1 Rx d 8 02 6c 7f 02 3e 61 00 00 
39.833800 1 319 Rx d 8 29 00 00 00 ff ff ff ff 
39.836500 1 266 Rx d 8 00 00 48 48 00 00 00 00 
39.836900 1 1e5 Rx d 8 02 ec 00 00 00 00 00 d4 
39.837800 1 2b4 Rx d 6 29 05 9c 0d 38 01 
39.838000 1 609 Rx d 8 20 00 00 00 00 00 00 00 
39.845600 1 266 Rx d 8 00 00 48 48 00 00 00 00 
39.846800 1 1e5 Rx d 8 02 ec 00 00 00 00 20 f4 
39.847700 1 318 Rx d 8 1a 08 31 05 1b 35 37 fa 
39.847900 1 2e1 Rx d 8 fb 19 71 59 94 66 19 00 
39.848400 1 25b Rx d 8 d3 80 06 05 6a 86 d0 79 
39.851000 1 545 Rx d 8 01 00 00 00 00 10 e0 3b 
39.852000 1 609 Rx d 8 21 00 00 00 00 00 00 00 
39.853000 1 39d Rx d 5 95 6a 0a 81 00 
39.853200 1 228 Rx d 8 03 16 00 8c 80 80 f1 c0 
39.856200 1 266 Rx d 8 00 00 48 48 00 00 00 00 
39.857200 1 1e5 Rx d 8 02 ec 00 00 00 00 40 14 
39.860500 1 229 Rx d 3 2f 0d 00 
39.862800 1 609 Rx d 8 22 00 00 00 00 00 00 00 
39.864000 1 2e1 Rx d 8 04 00 00 80 48 44 26 00 
39.865200 1 2e8 Rx d 8 02 10 10 10 06 00 82 a4 
39.866000 1 266 Rx d 8 00 00 48 48 00 00 00 00 
39.867100 1 1e5 Rx d 8 02 ec 00 00 00 00 60 34 
39.873700 1 609 Rx d 8 23 00 00 00 00 00 00 00 
39.875800 1 266 Rx d 8 00 00 48 48 00 00 00 00 
39.876700 1 1e5 Rx d 8 02 ec 00 00 00 00 00 d4 
39.877900 1 441 Rx d 8 2c 00 b6 c3 58 00 3d a3 
39.880800 1 2e1 Rx d 8 65 80 09 00 ed d0 8f 6a 
39.882400 1 545 Rx d 8 02 00 06 00 00 00 f0 42 
39.884600 1 609 Rx d 8 24 00 00 00 00 00 00 00 
39.885600 1 266 Rx d 8 00 00 48 48 00 00 00 00 
39.887000 1 1e5 Rx d 8 02 ec 00 00 00 00 20 f4 
39.887400 1 268 Rx d 5 48 48 ff 01 ff 
39.893100 1 400 Rx d 7 d7 e0 0b be ef fb 00 
39.893300 1 39d Rx d 5 37 6b aa 82 00 
39.895800 1 609 Rx d 8 25 00 00 00 00 00 00 00 
39.896300 1 266 Rx d 8 00 00 48 48 00 00 00 00 
39.896500 1 2e1 Rx d 8 10 21 04 00 12 00 20 08 
39.897700 1 1e5 Rx d 8 02 ec 00 00 00 00 40 14 
39.899400 1 7d5 Rx d 8 2b 00 00 00 00 00 00 00 
39.902200 1 7d5 Rx d 8 2c 00 3f 00 00 00 00 00 
39.902400 1 7d5 Rx d 8 32 00 00 00 00 00 00 00 
39.905800 1 266 Rx d 8 00 00 48 48 00 00 00 00 
39.907000 1 1e5 Rx d 8 02 ec 00 00 00 00 60 34 
39.907200 1 609 Rx d 8 26 00 00 00 00 00 00 00 
39.911900 1 2e1 Rx d 8 29 8d 55 af 1f 28 00 00 
39.912900 1 545 Rx d 8 60 03 44 80 97 6b 09 7c 
39.915300 1 288 Rx d 8 03 16 00 8c 80 80 01 30 
39.915800 1 266 Rx d 8 00 00 48 48 00 00 00 00 
39.916800 1 1e5 Rx d 8 02 ec 00 00 00 00 00 d4 
39.922000 1 609 Rx d 8 27 00 00 00 00 00 00 00 
39.924400 1 102 Rx d 8 22 b3 88 04 8a 0c 21 08 
39.925600 1 266 Rx d 8 00 00 48 48 00 00 00 00 
39.926700 1 1e5 Rx d 8 02 ec 00 00 00 00 20 f4 
39.927400 1 2a8 Rx d 8 02 10 10 10 06 00 a2 84 
39.927900 1 2e1 Rx d 8 02 6c 7f 02 3e 61 00 00 
39.928100 1 441 Rx d 8 28 85 89 00 32 00 00 d1 
39.932600 1 609 Rx d 8 28 00 00 00 00 00 00 00 
39.933000 1 39d Rx d 5 58 6c ca 82 00 
39.936200 1 266 Rx d 8 00 00 48 48 00 00 00 00 
39.937800 1 2b4 Rx d 6 25 05 9c 0d 3a 01 
39.938300 1 1e5 Rx d 8 02 ec 00 00 00 00 40 14 
39.938700 1 3c4 Rx d 8 10 00 00 00 75 d2 3a da 
39.943600 1 609 Rx d 8 29 00 00 00 00 00 00 00 
39.943900 1 2e1 Rx d 8 fb 19 71 59 94 63 19 00 
39.945600 1 266 Rx d 8 00 00 48 48 00 00 00 00 
39.946700 1 1e5 Rx d 8 02 ec 00 00 00 00 60 34 
39.948200 1 3e2 Rx d 7 01 00 80 5a 00 c0 04 
39.948400 1 25b Rx d 8 d3 80 06 05 6a 86 e0 89 
39.948600 1 545 Rx d 8 01 00 00 00 00 10 10 6b 
39.949900 1 318 Rx d 8 1a 08 31 05 1b 35 39 fc 
39.953300 1 228 Rx d 8 03 16 00 8c 80 80 01 d0 
39.955800 1 266 Rx d 8 00 00 48 48 00 00 00 00 
39.956700 1 1e5 Rx d 8 02 ec 00 00 00 00 00 d4 
39.960600 1 229 Rx d 3 31 0e 00 
39.960900 1 2e1 Rx d 8 04 00 00 80 48 44 26 00 
39.965200 1 2e8 Rx d 8 02 10 10 10 06 00 92 b4 
39.966000 1 266 Rx d 8 00 00 48 48 00 00 00 00 
39.966100 1 3e3 Rx d 4 01 00 00 00 
39.967300 1 1e5 Rx d 8 02 ec 00 00 00 00 20 f4 
39.973100 1 39d Rx d 5 59 6d ca 82 00 
39.975800 1 266 Rx d 8 00 00 48 48 00 00 00 00 
39.976000 1 2e1 Rx d 8 65 80 09 00 ed d0 8f 6a 
39.976700 1 1e5 Rx d 8 02 ec 00 00 00 00 40 14 
39.977900 1 441 Rx d 8 2d 00 b6 c3 58 00 05 6c 
39.979100 1 545 Rx d 8 02 00 08 00 00 00 20 74 
39.979800 1 361 Rx d 5 34 0d 20 03 01 
39.985600 1 266 Rx d 8 00 00 48 48 00 00 00 00 
39.987000 1 1e5 Rx d 8 02 ec 00 00 00 00 60 34 
39.987400 1 268 Rx d 5 48 48 ff 01 ff 
39.991900 1 2e1 Rx d 8 10 21 04 00 12 00 20 08 
39.993100 1 400 Rx d 7 d7 e0 03 be ef fb 00 
39.996100 1 266 Rx d 8 00 00 48 48 00 00 00 00 
39.996900 1 3a8 Rx d 8 00 ff 01 7f 00 00 00 00 
39.997100 1 1e5 Rx d 8 02 ec 00 00 00 00 00 d4 
39.997900 1 7d5 Rx d 8 2b 00 00 00 00 00 00 00 
39.998100 1 7d5 Rx d 8 2c 00 3f 00 00 00 00 00 
39.998400 1 7d5 Rx d 8 32 00 00 00 00 00 00 00 
40.000900 1 709 Rx d 8 11 55 00 60 04 00 02 08 
40.002000 1 609 Rx d 8 2a 00 00 00 00 00 00 00 
40.005800 1 266 Rx d 8 00 00 48 48 00 00 00 00 
40.006700 1 1e5 Rx d 8 02 ec 00 00 00 00 20 f4 
40.007900 1 2e1 Rx d 8 29 8d 55 af 1f 28 00 00 
40.008400 1 2e8 Rx d 8 02 10 10 10 06 80 a2 44 
40.008600 1 2a8 Rx d 8 02 10 10 10 06 80 b2 14 
40.011900 1 545 Rx d 8 60 03 44 50 97 68 39 79 
40.012600 1 609 Rx d 8 2b 00 00 00 00 00 00 00 
40.013800 1 39d Rx d 5 5a 6e ca 82 00 
40.015300 1 288 Rx d 8 03 11 00 80 80 00 11 af 
40.015800 1 266 Rx d 8 00 00 48 48 00 00 00 00 
40.016700 1 1e5 Rx d 8 02 ec 00 00 00 00 40 14 
40.023700 1 609 Rx d 8 2c 00 00 00 00 00 00 00 
40.024100 1 2e1 Rx d 8 02 6c 7f 02 3e 61 00 00 
40.024600 1 102 Rx d 8 22 b3 88 04 8a 0c 21 08 
40.025700 1 266 Rx d 8 00 00 48 48 00 00 00 00 
40.026700 1 1e5 Rx d 8 02 ec 00 00 00 00 60 34 
40.027400 1 2a8 Rx d 8 02 10 10 10 06 80 c2 24 
40.027900 1 441 Rx d 8 28 85 89 00 32 00 08 d9 
40.034600 1 609 Rx d 8 2d 00 00 00 00 00 00 00 
40.036500 1 266 Rx d 8 00 00 48 48 00 00 00 00 
40.037000 1 1e5 Rx d 8 02 ec 00 00 00 00 00 d4 
40.037800 1 2b4 Rx d 6 27 05 9c 0d 32 01 
40.038600 1 382 Rx d 5 43 19 27 00 00 
40.040600 1 2e1 Rx d 8 fb 19 71 69 94 63 19 00 
40.044900 1 545 Rx d 8 01 00 00 00 00 10 40 9b 
40.045600 1 266 Rx d 8 00 00 48 48 00 00 00 00 
40.047000 1 1e5 Rx d 8 02 ec 00 00 00 00 20 f4 
40.047500 1 318 Rx d 8 1a 08 31 05 1b 35 3b fe 
40.048400 1 25b Rx d 8 d3 80 06 05 6a 86 f0 99 
40.051000 1 609 Rx d 8 2e 00 00 00 00 00 00 00 
40.053000 1 39d Rx d 5 3b 6f aa 82 00 
40.053300 1 228 Rx d 8 03 11 00 80 80 00 11 4f 
40.055800 1 266 Rx d 8 00 00 48 48 00 00 00 00 
40.056000 1 2e1 Rx d 8 04 00 00 80 48 44 26 00 
40.056800 1 1e5 Rx d 8 02 ec 00 00 00 00 40 14 
40.060600 1 229 Rx d 3 3b 0f 00 
40.063600 1 609 Rx d 8 2f 00 00 00 00 00 00 00 
40.065300 1 2e8 Rx d 8 02 10 10 10 06 80 b2 54 
40.065700 1 323 Rx d 5 3c 14 21 02 02 
40.066000 1 266 Rx d 8 00 00 48 48 00 00 00 00 
40.067300 1 1e5 Rx d 8 02 ec 00 00 00 00 60 34 
40.072100 1 2e1 Rx d 8 65 80 09 00 ed d0 8f 6a 
40.074600 1 609 Rx d 8 20 00 00 00 00 00 00 00 
40.075800 1 266 Rx d 8 00 00 48 48 00 00 00 00 
40.076700 1 1e5 Rx d 8 02 ec 00 00 00 00 00 d4 
40.077900 1 545 Rx d 8 02 00 08 00 00 00 50 a4 
40.078100 1 441 Rx d 8 2d 00 b6 c3 58 00 0d 74 
40.085600 1 266 Rx d 8 00 00 48 48 00 00 00 00 
40.087000 1 1e5 Rx d 8 02 ec 00 00 00 00 20 f4 
40.087400 1 268 Rx d 5 48 48 ff 01 ff 
40.088300 1 2e1 Rx d 8 10 21 04 00 12 00 20 08 
40.091500 1 609 Rx d 8 21 00 00 00 00 00 00 00 
40.093100 1 39d Rx d 5 ec 60 6a 82 00 
40.093300 1 400 Rx d 7 d7 e0 03 be ef fb 00 
40.095800 1 7d5 Rx d 8 2b 00 00 00 00 00 00 00 
40.096500 1 266 Rx d 8 00 00 48 48 00 00 00 00 
40.097500 1 1e5 Rx d 8 02 ec 00 00 00 00 40 14 
40.098700 1 7d5 Rx d 8 2c 00 3f 00 00 00 00 00 
40.098900 1 7d5 Rx d 8 32 00 00 00 00 00 00 00 
40.103900 1 2e1 Rx d 8 39 8d 55 af 1f 28 00 00 
40.105200 1 609 Rx d 8 22 00 00 00 00 00 00 00 
40.105900 1 266 Rx d 8 00 00 48 48 00 00 00 00 
40.106800 1 1e5 Rx d 8 02 ec 00 00 00 00 60 34 
40.110900 1 545 Rx d 8 b0 03 44 80 97 6b 69 2c 
40.115300 1 288 Rx d 8 03 11 00 80 80 00 21 bf 
40.115800 1 266 Rx d 8 00 00 48 48 00 00 00 00 
40.116700 1 1e5 Rx d 8 02 ec 00 00 00 00 00 d4 
40.117200 1 609 Rx d 8 23 00 00 00 00 00 00 00 
40.119900 1 2e1 Rx d 8 02 6c 7f 02 3e 61 00 00 
40.124500 1 102 Rx d 8 22 b3 88 04 8c 0c 21 08 
40.125600 1 266 Rx d 8 00 00 48 48 00 00 00 00 
40.126700 1 1e5 Rx d 8 02 ec 00 00 00 00 20 f4 
40.127400 1 2a8 Rx d 8 02 10 10 10 06 80 d2 34 
40.128100 1 441 Rx d 8 28 85 89 00 32 00 10 e1 
40.131900 1 609 Rx d 8 24 00 00 00 00 00 00 00 
40.133000 1 39d Rx d 5 cd 61 4a 82 00 
40.136000 1 266 Rx d 8 00 00 48 48 00 00 00 00 
40.136800 1 1e5 Rx d 8 02 ec 00 00 00 00 40 14 
40.137600 1 2b4 Rx d 6 29 05 9b 0d 3e 01 
40.138100 1 2e1 Rx d 8 fb 19 72 69 94 61 19 00 
40.142600 1 609 Rx d 8 25 00 00 00 00 00 00 00 
40.144100 1 545 Rx d 8 01 00 00 00 00 10 70 cb 
40.145600 1 266 Rx d 8 00 00 48 48 00 00 00 00 
40.147200 1 1e5 Rx d 8 02 ec 00 00 00 00 60 34 
40.147400 1 318 Rx d 8 1a 08 32 05 1b 35 3d 01 
40.148400 1 3e2 Rx d 7 01 00 80 5a 00 c0 04 
40.148600 1 25b Rx d 8 d3 80 06 05 6a 86 00 a9 
40.152100 1 2e1 Rx d 8 04 00 00 80 48 44 26 00 
40.153400 1 228 Rx d 8 03 11 00 80 80 00 21 5f 
40.153800 1 609 Rx d 8 26 00 00 00 00 00 00 00 
40.155800 1 266 Rx d 8 00 00 48 48 00 00 00 00 
40.156700 1 1e5 Rx d 8 02 ec 00 00 00 00 00 d4 
40.160700 1 229 Rx d 3 46 00 00 
40.164600 1 609 Rx d 8 27 00 00 00 00 00 00 00 
40.165300 1 2e8 Rx d 8 02 10 10 10 06 80 c2 64 
40.166000 1 266 Rx d 8 00 00 48 48 00 00 00 00 
40.166200 1 3e3 Rx d 4 01 00 00 00 
40.167300 1 1e5 Rx d 8 02 ec 00 00 00 00 20 f4 
40.168200 1 2e1 Rx d 8 65 80 09 00 ee d0 8f 6a 
40.173200 1 39d Rx d 5 ae 62 2a 82 00 
40.175800 1 266 Rx d 8 00 00 48 48 00 00 00 00 
40.176300 1 609 Rx d 8 28 00 00 00 00 00 00 00 
40.176800 1 1e5 Rx d 8 02 ec 00 00 00 00 40 14 
40.177000 1 545 Rx d 8 02 00 09 00 00 00 80 d5 
40.177900 1 441 Rx d 8 2d 00 b6 c3 58 00 15 7c 
40.183900 1 2e1 Rx d 8 10 21 04 00 12 00 20 08 
40.185600 1 266 Rx d 8 00 00 48 48 00 00 00 00 
40.187000 1 1e5 Rx d 8 02 ec 00 00 00 00 60 34 
40.187400 1 268 Rx d 5 48 48 ff 01 ff 
40.191900 1 609 Rx d 8 29 00 00 00 00 00 00 00 
40.193100 1 400 Rx d 7 d7 e0 03 be ef fb 00 
40.196200 1 266 Rx d 8 00 00 48 48 00 00 00 00 
40.196900 1 3a8 Rx d 8 01 02 00 04 00 09 ff 00 
40.197200 1 1e5 Rx d 8 02 ec 00 00 00 00 00 d4 
40.197900 1 7d5 Rx d 8 2b 00 00 00 00 00 00 00 
40.198200 1 7d5 Rx d 8 2c 00 3f 00 00 00 00 00 
40.198700 1 7d5 Rx d 8 32 00 00 00 00 00 00 00 
40.199900 1 2e1 Rx d 8 39 8d 55 af 1f 28 00 00 
40.205100 1 609 Rx d 8 2a 00 00 00 00 00 00 00 
40.205800 1 266 Rx d 8 00 00 48 48 00 00 00 00 
40.206800 1 1e5 Rx d 8 02 ec 00 00 00 00 20 f4 
40.210000 1 545 Rx d 8 b0 03 49 30 97 67 99 0d 
40.213100 1 39d Rx d 5 af 63 2a 82 00 
40.215300 1 288 Rx d 8 03 11 00 80 80 00 31 cf 
40.215600 1 609 Rx d 8 2b 00 00 00 00 00 00 00 
40.216100 1 2e1 Rx d 8 02 6c 7f 02 3e 61 00 00 
40.216300 1 266 Rx d 8 00 00 48 48 00 00 00 00 
40.216800 1 1e5 Rx d 8 02 ec 00 00 00 00 40 14 
40.224500 1 102 Rx d 8 22 b3 88 04 8c 0c 21 08 
40.225900 1 266 Rx d 8 00 00 48 48 00 00 00 00 
40.226700 1 1e5 Rx d 8 02 ec 00 00 00 00 60 34 
40.227200 1 609 Rx d 8 2c 00 00 00 00 00 00 00 
40.227400 1 2a8 Rx d 8 02 10 10 10 06 80 e2 44 
40.227900 1 441 Rx d 8 28 85 89 00 32 00 18 e9 
40.231900 1 2e1 Rx d 8 fb 19 70 69 94 63 19 00 
40.236200 1 266 Rx d 8 00 00 48 48 00 00 00 00 
40.237200 1 1e5 Rx d 8 02 ec 00 00 00 00 00 d4 
40.238000 1 2b4 Rx d 6 2a 05 9c 0d 46 01 
40.241900 1 609 Rx d 8 2d 00 00 00 00 00 00 00 
40.242900 1 545 Rx d 8 01 00 00 00 00 10 a0 fb 
40.246300 1 266 Rx d 8 00 00 48 48 00 00 00 00 
40.247300 1 318 Rx d 8 1a 08 32 05 1b 35 3f 03 
40.247500 1 1e5 Rx d 8 02 ec 00 00 00 00 20 f4 
40.248000 1 2e1 Rx d 8 04 00 00 80 48 44 26 00 
40.248500 1 25b Rx d 8 d3 80 06 05 6a 86 10 b9 
40.252600 1 609 Rx d 8 2e 00 00 00 00 00 00 00 
40.253000 1 39d Rx d 5 b0 64 2a 82 00 
40.253300 1 228 Rx d 8 03 11 00 80 80 00 31 6f 
40.256200 1 266 Rx d 8 00 00 48 48 00 00 00 00 
40.256700 1 1e5 Rx d 8 02 ec 00 00 00 00 40 14 
40.260700 1 229 Rx d 3 44 01 00 
40.263800 1 609 Rx d 8 2f 00 00 00 00 00 00 00 
40.264100 1 2e1 Rx d 8 65 80 09 00 ee d0 8f 6a 
40.265500 1 2e8 Rx d 8 02 10 10 10 06 80 d2 74 
40.266200 1 266 Rx d 8 00 00 48 48 00 00 00 00 
40.267100 1 1e5 Rx d 8 02 ec 00 00 00 00 60 34 
40.274600 1 609 Rx d 8 20 00 00 00 00 00 00 00 
40.276000 1 266 Rx d 8 00 00 48 48 00 00 00 00 
40.276800 1 1e5 Rx d 8 02 ec 00 00 00 00 00 d4 
40.277000 1 545 Rx d 8 02 00 0b 00 00 00 b0 07 
40.277900 1 441 Rx d 8 2d 00 b6 c3 58 00 1d 84 
40.280900 1 2e1 Rx d 8 10 21 04 00 12 00 20 08 
40.285600 1 609 Rx d 8 21 00 00 00 00 00 00 00 
40.286100 1 266 Rx d 8 00 00 48 48 00 00 00 00 
40.287300 1 1e5 Rx d 8 02 ec 00 00 00 00 20 f4 
40.288300 1 268 Rx d 5 48 48 ff 01 ff 
40.293100 1 39d Rx d 5 b1 65 2a 82 00 
40.293300 1 400 Rx d 7 d7 e0 03 be ef fb 00 
40.296300 1 266 Rx d 8 00 00 48 48 00 00 00 00 
40.296500 1 2e1 Rx d 8 39 8d 55 af 1f 28 00 00 
40.297200 1 1e5 Rx d 8 02 ec 00 00 00 00 40 14 
40.298700 1 609 Rx d 8 22 00 00 00 00 00 00 00 
40.299000 1 7d5 Rx d 8 2b 00 00 00 00 00 00 00 
40.299200 1 7d5 Rx d 8 2c 00 3f 00 00 00 00 00 
40.299400 1 7d5 Rx d 8 32 00 00 00 00 00 00 00 
40.306100 1 266 Rx d 8 07 00 48 48 09 00 00 00 
40.306800 1 1e5 Rx d 8 02 ec 00 00 00 00 60 34 
40.308900 1 545 Rx d 8 f0 03 44 20 97 66 c9 67 
40.311900 1 609 Rx d 8 23 00 00 00 00 00 00 00 
40.312100 1 2e1 Rx d 8 02 6c 7f 02 3e 61 00 00 
40.312800 1 709 Rx d 8 12 2d 00 60 04 00 00 00 
40.315300 1 288 Rx d 8 03 11 00 80 80 00 41 df 
40.316100 1 266 Rx d 8 05 00 48 48 05 00 00 00 
40.316700 1 1e5 Rx d 8 02 ec 00 00 00 00 00 d4 
40.322700 1 609 Rx d 8 24 00 00 00 00 00 00 00 
40.324500 1 102 Rx d 8 22 b3 88 04 8c 0c 21 08 
40.325900 1 266 Rx d 8 01 00 01 18 00 00 00 00 
40.326700 1 1e5 Rx d 8 02 ec 00 00 00 00 20 f4 
40.327400 1 2a8 Rx d 8 02 10 10 10 06 80 f2 54 
40.327900 1 2e1 Rx d 8 fb 19 71 79 94 60 19 00 
40.328400 1 441 Rx d 8 28 85 89 00 32 00 20 f1 
40.333000 1 39d Rx d 5 b2 66 2a 82 00 
40.333800 1 609 Rx d 8 25 00 00 00 00 00 00 00 
40.336500 1 266 Rx d 8 00 00 01 18 00 00 00 00 
40.337000 1 1e5 Rx d 8 02 ec 00 00 00 00 40 14 
40.337600 1 2b4 Rx d 6 29 05 9c 0d 3d 01 
40.341900 1 545 Rx d 8 01 00 00 00 00 10 d0 2b 
40.343900 1 2e1 Rx d 8 04 00 00 80 48 44 26 00 
40.344600 1 609 Rx d 8 26 00 00 00 00 00 00 00 
40.346300 1 266 Rx d 8 00 00 01 18 00 00 00 00 
40.347100 1 1e5 Rx d 8 02 ec 00 00 00 00 60 34 
40.347800 1 318 Rx d 8 1a 08 32 05 1b 35 21 e5 
40.348500 1 25b Rx d 8 d3 80 06 05 6a 86 20 c9 
40.348900 1 3e2 Rx d 7 01 00 80 5a 00 c0 04 
40.350700 1 229 Rx d 3 a3 42 00 
40.353300 1 228 Rx d 8 03 11 00 80 80 00 41 7f 
40.355600 1 609 Rx d 8 27 00 00 00 00 00 00 00 
40.356100 1 266 Rx d 8 00 00 01 18 00 00 00 00 
40.356700 1 1e5 Rx d 8 02 ec 00 00 00 00 00 d4 
40.360400 1 2e1 Rx d 8 65 80 09 00 ee d0 8f 6a 
40.360600 1 229 Rx d 3 9c 43 00 
40.365300 1 2e8 Rx d 8 02 10 10 10 06 80 e2 84 
40.365900 1 3e3 Rx d 4 01 00 00 00 
40.366200 1 266 Rx d 8 00 00 01 18 00 00 00 00 
40.367100 1 609 Rx d 8 28 00 00 00 00 00 00 00 
40.367800 1 1e5 Rx d 8 02 ec 00 00 00 00 20 f4 
40.373000 1 39d Rx d 5 b3 67 2a 82 00 
40.374900 1 545 Rx d 8 02 00 0d 00 00 00 e0 39 
40.375900 1 2e1 Rx d 8 10 21 04 00 12 00 20 08 
40.376200 1 266 Rx d 8 00 00 01 18 00 00 00 00 
40.376800 1 1e5 Rx d 8 02 ec 00 00 00 00 40 14 
40.377900 1 441 Rx d 8 2d 00 b6 c3 58 00 25 8c 
40.381700 1 672 Rx d 8 01 01 00 01 00 01 00 00 
40.382200 1 609 Rx d 8 29 00 00 00 00 00 00 00 
40.385800 1 266 Rx d 8 00 00 01 18 00 00 00 00 
40.387100 1 1e5 Rx d 8 02 ec 00 00 00 00 60 34 
40.387500 1 268 Rx d 5 01 01 ed 00 64 
40.390000 1 3dd Rx d 8 08 00 00 00 00 00 00 00 
40.391900 1 53e Rx d 8 0b 00 0d 04 01 00 ff ff 
40.392100 1 2e1 Rx d 8 39 8d 55 af 1f 28 00 00 
40.393200 1 400 Rx d 7 d7 e0 03 be ef fb 00 
40.393600 1 609 Rx d 8 2a 00 00 00 00 00 00 00 
40.396200 1 266 Rx d 8 00 00 01 18 00 00 9f 01 
40.397000 1 3a8 Rx d 8 02 68 18 01 04 00 00 80 
40.397200 1 1e5 Rx d 8 02 ec 00 00 00 00 00 d4 
40.398400 1 7d5 Rx d 8 2b 00 00 00 00 00 00 00 
40.401000 1 7d5 Rx d 8 2c 00 3f 00 00 00 00 00 
40.401300 1 7d5 Rx d 8 32 00 00 00 00 00 00 00 
40.405200 1 609 Rx d 8 2b 00 00 00 00 00 00 00 
40.406100 1 266 Rx d 8 00 00 01 18 00 00 9f 01 
40.406800 1 1e5 Rx d 8 02 ec 00 00 00 00 20 f4 
40.408100 1 2e1 Rx d 8 02 6c 7f 02 3e 61 00 00 
40.408300 1 545 Rx d 8 f0 03 49 00 97 68 f9 7e 
40.413300 1 39d Rx d 5 94 68 0a 82 00 
40.415300 1 288 Rx d 8 03 11 00 40 80 00 51 af 
40.416200 1 266 Rx d 8 00 00 01 18 00 00 9f 01 
40.416700 1 1e5 Rx d 8 02 ec 00 00 00 00 40 14 
40.417200 1 609 Rx d 8 2c 00 00 00 00 00 00 00 
40.424000 1 2e1 Rx d 8 fb 19 70 79 94 61 19 00 
40.424500 1 102 Rx d 8 22 b3 88 04 8a 0c 21 08 
40.425800 1 266 Rx d 8 00 00 01 18 00 00 9f 01 
40.426700 1 1e5 Rx d 8 02 ec 00 00 00 00 60 34 
40.427400 1 2a8 Rx d 8 02 10 10 10 06 80 02 64 
40.427900 1 441 Rx d 8 28 85 89 00 32 00 28 f9 
40.432200 1 609 Rx d 8 2d 00 00 00 00 00 00 00 
40.436000 1 266 Rx d 8 00 00 01 18 00 00 9f 01 
40.437200 1 1e5 Rx d 8 02 ec 00 00 00 00 00 d4 
40.437800 1 2b4 Rx d 6 27 05 9c 0d 47 01 
40.438100 1 3c4 Rx d 8 11 00 00 00 00 00 00 00 
40.440400 1 2e1 Rx d 8 04 00 00 80 48 44 26 00 
40.441100 1 545 Rx d 8 01 00 00 00 00 10 00 5b 
40.443600 1 609 Rx d 8 2e 00 00 00 00 00 00 00 
40.446300 1 266 Rx d 8 00 00 01 18 00 00 9f 01 
40.447000 1 1e5 Rx d 8 02 ec 00 00 00 00 20 f4 
40.448400 1 25b Rx d 8 d3 80 06 05 6a 86 30 d9 
40.449900 1 318 Rx d 8 1a 08 32 05 1b 35 23 e7 
40.453000 1 39d Rx d 5 95 69 0a 82 00 
40.453300 1 228 Rx d 8 03 11 00 40 80 00 51 4f 
40.454600 1 609 Rx d 8 2f 00 00 00 00 00 00 00 
40.456500 1 266 Rx d 8 00 00 01 18 00 00 9f 01 
40.457200 1 2e1 Rx d 8 65 80 09 00 ee d0 8f 6a 
40.457400 1 1e5 Rx d 8 02 ec 00 00 00 00 40 14 
40.460600 1 229 Rx d 3 b2 44 00 
40.464400 1 726 Rx d 3 0c 00 00 
40.465500 1 2e8 Rx d 8 02 11 10 10 06 80 f2 95 
40.465900 1 266 Rx d 8 00 00 01 18 00 00 9f 01 
40.466900 1 1e5 Rx d 8 02 ec 00 00 00 00 60 34 
40.467400 1 609 Rx d 8 20 00 00 00 00 00 00 00 
40.472200 1 2e1 Rx d 8 10 21 04 00 12 00 20 08 
40.473900 1 545 Rx d 8 02 00 0e 00 00 00 10 6a 
40.476000 1 266 Rx d 8 00 00 01 18 00 00 9f 01 
40.476800 1 1e5 Rx d 8 02 ec 00 00 00 00 00 d4 
40.477900 1 441 Rx d 8 2d 00 b6 c3 58 00 2d 94 
40.482400 1 609 Rx d 8 21 00 00 00 00 00 00 00 
40.485800 1 266 Rx d 8 00 00 01 18 00 00 9f 01 
40.487000 1 1e5 Rx d 8 02 ec 00 00 00 00 20 f4 
40.487800 1 268 Rx d 5 09 01 f1 00 64 
40.488400 1 2e1 Rx d 8 39 8d 55 af 1f 28 00 00 
40.493100 1 400 Rx d 7 d7 e0 03 be ef fb 00 
40.493300 1 39d Rx d 5 96 6a 0a 82 00 
40.493600 1 609 Rx d 8 22 00 00 00 00 00 00 00 
40.496500 1 266 Rx d 8 00 00 01 18 00 00 9f 01 
40.497400 1 1e5 Rx d 8 02 ec 00 00 00 00 40 14 
40.498400 1 7d5 Rx d 8 2b 00 00 00 00 00 00 00 
40.498600 1 7d5 Rx d 8 2c 00 3f 00 00 00 00 00 
40.498900 1 7d5 Rx d 8 32 00 00 00 00 00 00 00 
40.503900 1 2e1 Rx d 8 02 6c 7f 02 3e 61 00 00 
40.505200 1 609 Rx d 8 23 00 00 00 00 00 00 00 
40.505900 1 266 Rx d 8 00 00 01 18 00 00 9f 01 
40.507000 1 1e5 Rx d 8 02 ec 00 00 00 00 60 34 
40.507200 1 545 Rx d 8 40 04 53 20 97 66 29 27 
40.515300 1 288 Rx d 8 03 11 00 40 80 00 61 bf 
40.516000 1 266 Rx d 8 00 00 01 18 00 00 9f 01 
40.516700 1 1e5 Rx d 8 02 ec 00 00 00 00 00 d4 
40.517200 1 609 Rx d 8 24 00 00 00 00 00 00 00 
40.519900 1 2e1 Rx d 8 fb 19 70 79 94 64 19 00 
40.524500 1 102 Rx d 8 22 b3 88 04 8a 0c 21 08 
40.525800 1 266 Rx d 8 00 00 01 18 00 00 9f 01 
40.526700 1 1e5 Rx d 8 02 ec 00 00 00 00 20 f4 
40.527400 1 2a8 Rx d 8 02 11 10 10 06 80 12 75 
40.528600 1 441 Rx d 8 28 85 89 00 32 00 30 01 
40.531900 1 609 Rx d 8 25 00 00 00 00 00 00 00 
40.533700 1 39d Rx d 5 76 6b ea 81 00 
40.536500 1 266 Rx d 8 00 00 01 18 00 00 9f 01 
40.537000 1 1e5 Rx d 8 02 ec 00 00 00 00 40 14 
40.537800 1 2b4 Rx d 6 26 05 9c 0d 3f 01 
40.538100 1 2e1 Rx d 8 04 00 00 80 48 44 26 00 
40.540600 1 545 Rx d 8 01 00 00 00 00 10 30 8b 
40.542600 1 609 Rx d 8 26 00 00 00 00 00 00 00 
40.546300 1 266 Rx d 8 00 00 01 18 00 00 9f 01 
40.547300 1 1e5 Rx d 8 02 ec 00 00 00 00 60 34 
40.548200 1 3e2 Rx d 7 01 00 80 5a 00 c0 04 
40.548400 1 25b Rx d 8 d3 80 06 05 6a 86 40 e9 
40.549900 1 318 Rx d 8 1a 08 32 05 1b 35 25 e9 
40.550100 1 23a Rx d 8 64 ff ff ff ff 00 00 00 
40.550800 1 229 Rx d 3 41 05 00 
40.552200 1 2e1 Rx d 8 65 80 09 00 ee d0 8f 6a 
40.553300 1 228 Rx d 8 03 11 00 40 80 00 61 5f 
40.553800 1 609 Rx d 8 27 00 00 00 00 00 00 00 
40.556300 1 266 Rx d 8 00 00 01 18 00 00 9f 01 
40.556800 1 1e5 Rx d 8 02 ec 00 00 00 00 00 d4 
40.560600 1 229 Rx d 3 dd 06 00 
40.564600 1 609 Rx d 8 28 00 00 00 00 00 00 00 
40.565500 1 2e8 Rx d 8 02 11 10 10 06 80 02 a5 
40.565900 1 266 Rx d 8 00 00 01 18 00 00 9f 01 
40.566900 1 1e5 Rx d 8 02 ec 00 00 00 00 20 f4 
40.567100 1 3e3 Rx d 4 01 00 00 00 
40.568500 1 2e1 Rx d 8 10 21 04 00 12 00 20 08 
40.572900 1 545 Rx d 8 02 00 0d 00 00 00 40 99 
40.573100 1 39d Rx d 5 77 6c ea 81 00 
40.575600 1 609 Rx d 8 29 00 00 00 00 00 00 00 
40.576300 1 266 Rx d 8 00 00 01 18 00 00 9f 01 
40.576800 1 1e5 Rx d 8 02 ec 00 00 00 00 40 14 
40.577900 1 441 Rx d 8 2d 00 b6 c3 58 00 35 9c 
40.583900 1 2e1 Rx d 8 39 8d 55 af 1f 28 00 00 
40.585800 1 266 Rx d 8 00 00 01 18 00 00 9f 01 
40.587200 1 1e5 Rx d 8 02 ec 00 00 00 00 60 34 
40.587600 1 268 Rx d 5 0a 01 f3 00 64 
40.588300 1 609 Rx d 8 2a 00 00 00 00 00 00 00 
40.593100 1 400 Rx d 7 d7 e0 03 be ef fb 00 
40.596200 1 266 Rx d 8 00 00 01 18 00 00 9f 01 
40.597000 1 3a8 Rx d 8 03 00 00 00 00 00 00 00 
40.597200 1 1e5 Rx d 8 02 ec 00 00 00 00 00 d4 
40.598000 1 7d5 Rx d 8 2b 00 00 00 00 00 00 00 
40.598200 1 7d5 Rx d 8 2c 00 3f 00 00 00 00 00 
40.598500 1 7d5 Rx d 8 32 00 00 00 00 00 00 00 
40.600400 1 2e1 Rx d 8 02 6c 7f 02 3e 61 00 00 
40.602000 1 609 Rx d 8 2b 00 00 00 00 00 00 00 
40.605800 1 266 Rx d 8 00 00 01 18 00 00 9f 01 
40.606300 1 545 Rx d 8 40 04 53 50 97 6c 59 8d 
40.606800 1 1e5 Rx d 8 02 ec 00 00 00 00 20 f4 
40.612600 1 609 Rx d 8 2c 00 00 00 00 00 00 00 
40.613200 1 39d Rx d 5 78 6d ea 81 00 
40.615300 1 288 Rx d 8 03 11 00 40 80 00 71 cf 
40.616000 1 2e1 Rx d 8 fb 19 71 79 94 66 19 00 
40.616200 1 266 Rx d 8 00 00 01 18 00 00 9f 01 
40.616700 1 1e5 Rx d 8 02 ec 00 00 00 00 40 14 
40.623700 1 609 Rx d 8 2d 00 00 00 00 00 00 00 
40.624600 1 102 Rx d 8 22 b3 88 04 8a 0c 21 08 
40.624900 1 709 Rx d 8 13 54 00 e0 04 00 00 00 
40.625800 1 266 Rx d 8 00 00 01 18 00 00 9f 01 
40.626700 1 1e5 Rx d 8 02 ec 00 00 00 00 60 34 
40.627400 1 2a8 Rx d 8 02 11 10 10 06 80 22 85 
40.627900 1 441 Rx d 8 28 85 89 00 32 00 38 09 
40.631900 1 2e1 Rx d 8 04 00 00 80 48 44 26 00 
40.634600 1 609 Rx d 8 2e 00 00 00 00 00 00 00 
40.636000 1 266 Rx d 8 00 00 01 18 00 00 9f 01 
40.636800 1 1e5 Rx d 8 02 ec 00 00 00 00 00 d4 
40.637600 1 2b4 Rx d 6 27 05 9c 0d 44 01 
40.638900 1 545 Rx d 8 01 00 00 00 00 10 60 bb 
40.646300 1 266 Rx d 8 00 00 01 18 00 00 9f 01 
40.647500 1 1e5 Rx d 8 02 ec 00 00 00 00 20 f4 
40.648000 1 2e1 Rx d 8 65 80 09 00 ee d0 8f 6a 
40.648500 1 25b Rx d 8 d3 80 06 05 6a 86 50 f9 
40.649100 1 609 Rx d 8 2f 00 00 00 00 00 00 00 
40.652100 1 318 Rx d 8 1a 08 32 05 1b 35 27 eb 
40.653100 1 39d Rx d 5 79 6e ea 81 00 
40.653400 1 228 Rx d 8 03 11 00 40 80 00 71 6f 
40.656500 1 266 Rx d 8 00 00 01 18 00 00 9f 01 
40.657200 1 1e5 Rx d 8 02 ec 00 00 00 00 40 14 
40.660600 1 229 Rx d 3 f9 07 00 
40.662500 1 609 Rx d 8 20 00 00 00 00 00 00 00 
40.663900 1 2e1 Rx d 8 10 21 04 00 12 00 20 08 
40.665400 1 2e8 Rx d 8 02 11 10 10 06 80 12 b5 
40.665900 1 266 Rx d 8 00 00 01 18 00 00 9f 01 
40.666900 1 1e5 Rx d 8 02 ec 00 00 00 00 60 34 
40.672500 1 545 Rx d 8 02 00 0c 00 00 00 70 c8 
40.673700 1 609 Rx d 8 21 00 00 00 00 00 00 00 
40.676000 1 266 Rx d 8 00 00 01 18 00 00 9f 01 
40.676800 1 1e5 Rx d 8 02 ec 00 00 00 00 00 d4 
40.677900 1 441 Rx d 8 2d 00 b6 c3 58 00 3d a4 
40.680000 1 321 Rx d 8 3d ea a8 8c 01 8a 50 5a 
40.680900 1 2e1 Rx d 8 39 8d 55 af 1f 28 00 00 
40.684600 1 609 Rx d 8 22 00 00 00 00 00 00 00 
40.685800 1 266 Rx d 8 00 00 01 18 00 00 9f 01 
40.687000 1 1e5 Rx d 8 02 ec 00 00 00 00 20 f4 
40.687800 1 268 Rx d 5 0b 01 f5 00 64 
40.693100 1 400 Rx d 7 d7 e0 03 be ef fb 00 
40.693300 1 39d Rx d 5 5a 6f ca 81 00 
40.695600 1 609 Rx d 8 23 00 00 00 00 00 00 00 
40.696400 1 266 Rx d 8 00 00 01 18 00 00 9f 01 
40.696600 1 2e1 Rx d 8 02 6c 7f 02 3e 61 00 00 
40.697300 1 1e5 Rx d 8 02 ec 00 00 00 00 40 14 
40.698500 1 7d5 Rx d 8 2b 00 00 00 00 00 00 00 
40.698800 1 7d5 Rx d 8 2c 00 3f 00 00 00 00 00 
40.699000 1 7d5 Rx d 8 32 00 00 00 00 00 00 00 
40.705100 1 545 Rx d 8 40 04 53 f0 96 62 89 52 
40.705900 1 266 Rx d 8 00 00 01 18 00 00 9f 01 
40.706800 1 1e5 Rx d 8 02 ec 00 00 00 00 60 34 
40.707100 1 609 Rx d 8 24 00 00 00 00 00 00 00 
40.711900 1 2e1 Rx d 8 fb 19 71 69 94 64 19 00 
40.715400 1 288 Rx d 8 03 11 00 40 80 00 81 df 
40.716000 1 266 Rx d 8 00 00 01 18 00 00 9f 01 
40.716700 1 1e5 Rx d 8 02 ec 00 00 00 00 00 d4 
40.722700 1 609 Rx d 8 25 00 00 00 00 00 00 00 
40.724500 1 102 Rx d 8 22 b3 88 04 8c 0c 21 08 
40.725800 1 266 Rx d 8 00 00 01 18 00 00 9f 01 
40.726700 1 1e5 Rx d 8 02 ec 00 00 00 00 20 f4 
40.727400 1 2a8 Rx d 8 02 11 10 10 06 80 32 95 
40.727900 1 2e1 Rx d 8 04 00 00 80 48 44 26 00 
40.728400 1 441 Rx d 8 28 85 89 00 32 00 00 d1 
40.730500 1 70b Rx d 8 02 64 c9 00 64 e2 4d 00 
40.733000 1 39d Rx d 5 4b 60 ca 81 00 
40.733800 1 609 Rx d 8 26 00 00 00 00 00 00 00 
40.736500 1 266 Rx d 8 00 00 01 18 00 00 9f 01 
40.737000 1 1e5 Rx d 8 02 ec 00 00 00 00 40 14 
40.737600 1 2b4 Rx d 6 29 05 9c 0d 4c 01 
40.738100 1 545 Rx d 8 01 00 00 00 00 10 90 eb 
40.743900 1 2e1 Rx d 8 65 80 09 00 ee d0 8f 6a 
40.744600 1 609 Rx d 8 27 00 00 00 00 00 00 00 
40.746300 1 266 Rx d 8 00 00 01 18 00 00 9f 01 
40.747600 1 1e5 Rx d 8 02 ec 00 00 00 00 60 34 
40.748300 1 3e2 Rx d 7 01 00 80 5a 00 c0 04 
40.748500 1 25b Rx d 8 d3 80 06 05 6a 86 60 09 
40.749800 1 318 Rx d 8 1a 08 32 05 1b 35 29 ed 
40.753300 1 228 Rx d 8 03 11 00 40 80 00 81 7f 
40.756100 1 266 Rx d 8 00 00 01 18 00 00 9f 01 
40.756800 1 1e5 Rx d 8 02 ec 00 00 00 00 00 d4 
40.757300 1 609 Rx d 8 28 00 00 00 00 00 00 00 
40.760500 1 2e1 Rx d 8 10 21 04 00 12 00 20 08 
40.760600 1 229 Rx d 3 4c 08 00 
40.765500 1 2e8 Rx d 8 02 11 10 10 06 80 22 c5 
40.766000 1 266 Rx d 8 00 00 01 18 00 00 9f 01 
40.766900 1 1e5 Rx d 8 02 ec 00 00 00 00 20 f4 
40.767100 1 3e3 Rx d 4 01 00 00 00 
40.770900 1 545 Rx d 8 02 00 0b 00 00 00 a0 f7 
40.772200 1 609 Rx d 8 29 00 00 00 00 00 00 00 
40.773000 1 39d Rx d 5 4c 61 ca 81 00 
40.776000 1 266 Rx d 8 00 00 01 18 00 00 9f 01 
40.776200 1 2e1 Rx d 8 39 8d 55 af 1f 28 00 00 
40.776700 1 1e5 Rx d 8 02 ec 00 00 00 00 40 14 
40.777900 1 441 Rx d 8 2d 00 b6 c3 58 00 05 6c 
40.783700 1 609 Rx d 8 2a 00 00 00 00 00 00 00 
40.785800 1 266 Rx d 8 00 00 01 18 00 00 9f 01 
40.787000 1 1e5 Rx d 8 02 ec 00 00 00 00 60 34 
40.787900 1 268 Rx d 5 0d 01 f6 00 80 
40.791900 1 2e1 Rx d 8 02 6c 7f 02 3e 61 00 00 
40.793100 1 400 Rx d 7 d7 e0 03 be ef fb 00 
40.794700 1 609 Rx d 8 2b 00 00 00 00 00 00 00 
40.796200 1 266 Rx d 8 00 00 01 18 00 00 9f 01 
40.797000 1 315 Rx d 8 18 4c 47 4c 50 47 c7 7d 
40.797200 1 1e5 Rx d 8 02 ec 00 00 00 00 00 d4 
40.797400 1 315 Rx d 8 01 47 47 00 4c 47 00 00 
40.797700 1 3a8 Rx d 8 04 00 04 e8 01 00 00 00 
40.797900 1 315 Rx d 8 02 00 ac 0e 00 00 00 00 
40.798400 1 315 Rx d 8 73 1c 18 5a 98 00 70 04 
40.798900 1 315 Rx d 8 04 24 2b c6 00 47 47 4d 
40.802400 1 335 Rx d 8 0b 00 1e 4b 02 00 00 00 
40.804100 1 545 Rx d 8 40 04 53 20 97 66 b9 b7 
40.806200 1 266 Rx d 8 00 00 01 18 00 00 9f 01 
40.806500 1 609 Rx d 8 2c 00 00 00 00 00 00 00 
40.806900 1 310 Rx d 8 0b 00 04 02 05 00 02 00 
40.807700 1 1e5 Rx d 8 02 ec 00 00 00 00 20 f4 
40.807900 1 7d5 Rx d 8 2b 00 00 00 00 00 00 00 
40.808200 1 2e1 Rx d 8 fb 19 71 69 94 60 19 00 
40.808400 1 7d5 Rx d 8 2c 00 3f 00 00 00 00 00 
40.808700 1 7d5 Rx d 8 32 00 00 00 00 00 00 00 
40.811200 1 330 Rx d 8 0b 00 03 01 00 00 00 00 
40.811800 1 7d5 Rx d 8 42 00 00 c5 00 00 1c 00 
40.812300 1 7d5 Rx d 8 43 bb c2 a5 6a 3b 00 00 
40.812500 1 7d5 Rx d 8 44 7a 46 53 54 36 00 47 
40.812700 1 7d5 Rx d 8 46 47 47 4c 47 47 47 47 
40.813000 1 7d5 Rx d 8 48 4c 4c 00 00 00 13 58 
40.813200 1 39d Rx d 5 4d 62 ca 81 00 
40.815400 1 288 Rx d 8 03 11 00 40 80 00 91 ef 
40.816200 1 266 Rx d 8 00 00 01 18 00 00 9f 01 
40.816900 1 1e5 Rx d 8 02 ec 00 00 00 00 40 14 
40.822200 1 609 Rx d 8 2d 00 00 00 00 00 00 00 
40.824100 1 2e1 Rx d 8 04 00 00 80 48 44 26 00 
40.824500 1 102 Rx d 8 22 b3 88 04 8a 0c 21 08 
40.825800 1 266 Rx d 8 00 00 01 18 00 00 9f 01 
40.826700 1 1e5 Rx d 8 02 ec 00 00 00 00 60 34 
40.827400 1 2a8 Rx d 8 02 11 10 10 06 80 42 a5 
40.827900 1 441 Rx d 8 28 85 89 00 32 00 08 d9 
40.833800 1 609 Rx d 8 2e 00 00 00 00 00 00 00 
40.834100 1 319 Rx d 8 0a 01 07 00 03 00 0c 00 
40.836500 1 266 Rx d 8 00 00 01 18 00 00 9f 01 
40.837000 1 1e5 Rx d 8 02 ec 00 00 00 00 00 d4 
40.837900 1 2b4 Rx d 6 29 05 9c 0d 47 01 
40.838100 1 545 Rx d 8 01 00 00 00 00 10 c0 1b 
40.839900 1 2e1 Rx d 8 65 80 09 00 ee d0 8f 6a 
40.844600 1 609 Rx d 8 2f 00 00 00 00 00 00 00 
40.846300 1 266 Rx d 8 00 00 01 18 00 00 9f 01 
40.847300 1 318 Rx d 8 1a 08 32 05 1b 35 2b ef 
40.847600 1 1e5 Rx d 8 02 ec 00 00 00 00 20 f4 
40.848500 1 25b Rx d 8 d3 80 06 05 6a 86 70 19 
40.853000 1 39d Rx d 5 2e 63 aa 81 00 
40.853300 1 228 Rx d 8 03 11 00 40 80 00 91 8f 
40.856200 1 2e1 Rx d 8 10 21 04 00 12 00 20 08 
40.856400 1 266 Rx d 8 00 00 01 18 00 00 9f 01 
40.857400 1 1e5 Rx d 8 02 ec 00 00 00 00 40 14 
40.857800 1 609 Rx d 8 20 00 00 00 00 00 00 00 
40.860600 1 229 Rx d 3 a5 09 00 
40.865500 1 2e8 Rx d 8 02 11 10 10 06 80 32 d5 
40.866000 1 266 Rx d 8 00 00 01 18 00 00 9f 01 
40.866900 1 1e5 Rx d 8 02 ec 00 00 00 00 60 34 
40.870000 1 545 Rx d 8 02 00 0a 00 00 00 d0 26 
40.872200 1 2e1 Rx d 8 39 8d 55 af 1f 28 00 00 
40.872400 1 609 Rx d 8 21 00 00 00 00 00 00 00 
40.876000 1 266 Rx d 8 00 00 01 18 00 00 9f 01 
40.876700 1 1e5 Rx d 8 02 ec 00 00 00 00 00 d4 
40.877900 1 441 Rx d 8 2d 00 b6 c3 58 00 0d 74 
40.883700 1 609 Rx d 8 22 00 00 00 aa aa aa aa 
40.885800 1 266 Rx d 8 00 00 01 18 00 00 9f 01 
40.887100 1 1e5 Rx d 8 02 ec 00 00 00 00 20 f4 
40.887700 1 268 Rx d 5 0e 01 f7 00 9c 
40.888500 1 2e1 Rx d 8 02 6c 7f 02 3e 61 00 00 
40.893100 1 39d Rx d 5 2f 64 aa 81 00 
40.893300 1 400 Rx d 7 d7 e0 03 be ef fb 00 
40.896500 1 266 Rx d 8 00 00 01 18 00 00 9f 01 
40.897500 1 1e5 Rx d 8 02 ec 00 00 00 00 40 14 
40.899100 1 609 Rx d 8 14 00 76 31 00 00 00 00 
40.900500 1 7d5 Rx d 8 2b 00 00 00 00 00 00 00 
40.900800 1 7d5 Rx d 8 2c 00 3f 00 00 00 00 00 
40.901000 1 7d5 Rx d 8 32 00 00 00 00 00 00 00 
40.903200 1 545 Rx d 8 b0 03 49 20 97 6a e9 50 
40.903900 1 2e1 Rx d 8 fb 19 70 79 94 5f 19 00 
40.905900 1 266 Rx d 8 00 00 01 18 00 00 9f 01 
40.907000 1 1e5 Rx d 8 02 ec 00 00 00 00 60 34 
40.911900 1 609 Rx d 8 21 00 00 00 00 00 00 00 
40.915400 1 288 Rx d 8 03 11 00 40 80 00 a1 ff 
40.916000 1 266 Rx d 8 00 00 01 18 00 00 9f 01 
40.916700 1 1e5 Rx d 8 02 ec 00 00 00 00 00 d4 
40.920700 1 2e1 Rx d 8 04 00 00 80 48 44 26 00 
40.922700 1 609 Rx d 8 22 00 00 00 00 00 00 00 
40.924600 1 102 Rx d 8 22 b3 88 04 8a 0c 21 08 
40.925800 1 266 Rx d 8 00 00 01 18 00 00 9f 01 
40.926700 1 1e5 Rx d 8 02 ec 00 00 00 00 20 f4 
40.927400 1 2a8 Rx d 8 02 11 10 10 06 80 52 b5 
40.928400 1 441 Rx d 8 28 85 89 00 32 00 10 e1 
40.933000 1 39d Rx d 5 10 65 8a 81 00 
40.933800 1 609 Rx d 8 23 00 00 00 00 00 00 00 
40.936300 1 266 Rx d 8 00 00 01 18 00 00 9f 01 
40.936800 1 1e5 Rx d 8 02 ec 00 00 00 00 40 14 
40.937600 1 2b4 Rx d 6 28 05 9c 0d 4f 01 
40.938300 1 2e1 Rx d 8 65 80 09 00 ee d0 8f 6a 
40.938800 1 3c4 Rx d 8 12 67 db 31 70 ee c3 47 
40.939000 1 545 Rx d 8 01 00 00 00 00 10 f0 4b 
40.939300 1 709 Rx d 8 94 82 0c 32 20 20 00 00 
40.944700 1 609 Rx d 8 24 00 00 00 00 00 00 00 
40.946300 1 266 Rx d 8 00 00 01 18 00 00 9f 01 
40.947300 1 318 Rx d 8 1a 08 32 05 1b 35 2d f1 
40.947500 1 1e5 Rx d 8 02 ec 00 00 00 00 60 34 
40.948500 1 25b Rx d 8 d3 80 06 05 6a 86 80 29 
40.948700 1 3e2 Rx d 7 01 00 80 5a 00 c0 04 
40.952000 1 2e1 Rx d 8 10 21 04 00 12 00 20 08 
40.953300 1 228 Rx d 8 03 11 00 40 80 00 a1 9f 
40.956200 1 266 Rx d 8 00 00 01 18 00 00 9f 01 
40.956700 1 1e5 Rx d 8 02 ec 00 00 00 00 00 d4 
40.960600 1 229 Rx d 3 f6 0a 00 
40.965500 1 2e8 Rx d 8 02 11 10 10 06 80 42 e5 
40.966000 1 266 Rx d 8 00 00 01 18 00 00 9f 01 
40.966900 1 3e3 Rx d 4 01 00 00 00 
40.967100 1 1e5 Rx d 8 02 ec 00 00 00 00 20 f4 
40.968600 1 2e1 Rx d 8 39 8d 55 af 1f 28 00 00 
40.969200 1 545 Rx d 8 02 00 0a 00 00 00 00 56 
40.973000 1 39d Rx d 5 f1 66 6a 81 00 
40.976300 1 266 Rx d 8 00 00 01 18 00 00 9f 01 
40.976700 1 1e5 Rx d 8 02 ec 00 00 00 00 40 14 
40.977900 1 441 Rx d 8 2d 00 b6 c3 58 00 15 7c 
40.980900 1 361 Rx d 5 34 0e 1f 03 01 
40.984000 1 2e1 Rx d 8 02 6c 7f 02 3e 61 00 00 
40.986000 1 266 Rx d 8 00 00 01 18 00 00 9f 01 
40.987100 1 1e5 Rx d 8 02 ec 00 00 00 00 60 34 
40.988000 1 268 Rx d 5 0f 01 f7 00 b8 
40.993200 1 400 Rx d 7 d7 e0 03 be ef fb 00 
40.996300 1 266 Rx d 8 00 00 01 18 00 00 9f 01 
40.997200 1 1e5 Rx d 8 02 ec 00 00 00 00 00 d4 
40.997500 1 3a8 Rx d 8 00 ff 01 7f 00 00 00 00 
40.998200 1 7d5 Rx d 8 2b 00 00 00 00 00 00 00 
40.998500 1 7d5 Rx d 8 2c 00 3f 00 00 00 00 00 
40.998700 1 7d5 Rx d 8 32 00 00 00 00 00 00 00 
41.000000 1 2e1 Rx d 8 fb 19 70 79 94 64 19 00 
44.500700 1 545 Rx d 8 01 00 00 00 00 10 b0 0b 
44.504200 1 2e1 Rx d 8 10 21 04 00 12 00 20 08 
44.506000 1 266 Rx d 8 00 00 01 1e 00 00 9f 01 
44.506700 1 1e5 Rx d 8 02 ec 00 00 00 00 60 34 
44.515700 1 288 Rx d 8 03 11 00 40 80 00 e1 3f 
44.516600 1 266 Rx d 8 00 00 01 1e 00 00 9f 01 
44.516800 1 1e5 Rx d 8 02 ec 00 00 00 00 00 d4 
44.520700 1 2e1 Rx d 8 39 8d 55 af 1f 28 00 00 
44.524800 1 102 Rx d 8 22 b3 88 04 8a 0c 21 08 
44.525600 1 266 Rx d 8 00 00 01 1e 00 00 9f 01 
44.526400 1 1e5 Rx d 8 02 ec 00 00 00 00 20 f4 
44.527700 1 2a8 Rx d 8 02 11 10 10 06 80 92 f5 
44.528400 1 441 Rx d 8 29 85 89 00 32 00 30 02 
44.533100 1 545 Rx d 8 02 00 02 00 00 00 c0 0e 
44.533300 1 39d Rx d 5 77 6f ea 7e 00 
44.537100 1 266 Rx d 8 00 00 01 1e 00 00 9f 01 
44.537400 1 1e5 Rx d 8 02 ec 00 00 00 00 40 14 
44.537800 1 2b4 Rx d 6 2c 05 9c 0d 44 01 
44.538100 1 2e1 Rx d 8 02 6c 7f 02 3e 61 00 00 
44.545500 1 266 Rx d 8 00 00 01 1e 00 00 9f 01 
44.546700 1 1e5 Rx d 8 02 ec 00 00 00 00 60 34 
44.547400 1 318 Rx d 8 1a 08 36 05 1b 35 35 fd 
44.548300 1 3e2 Rx d 7 01 00 80 5a 00 c0 04 
44.548700 1 25b Rx d 8 d3 80 06 05 6a 86 c0 69 
44.550500 1 23a Rx d 8 42 a9 8b 08 89 9f 24 00 
44.552200 1 2e1 Rx d 8 fb 19 73 89 94 63 19 00 
44.554000 1 228 Rx d 8 03 11 00 40 80 00 e1 df 
44.556700 1 266 Rx d 8 00 00 01 1e 00 00 9f 01 
44.556900 1 1e5 Rx d 8 02 ec 00 00 00 00 00 d4 
44.560700 1 229 Rx d 3 31 0e 00 
44.561800 1 330 Rx d 8 10 00 39 2e 32 52 00 00 
44.565600 1 266 Rx d 8 00 00 01 1e 00 00 9f 01 
44.566000 1 2e8 Rx d 8 02 11 10 10 06 80 82 25 
44.566800 1 1e5 Rx d 8 02 ec 00 00 00 00 20 f4 
44.567200 1 3e3 Rx d 4 01 00 00 00 
44.568100 1 545 Rx d 8 f0 03 49 50 97 68 d9 ae 
44.568500 1 2e1 Rx d 8 04 00 00 80 48 44 26 00 
44.573100 1 39d Rx d 5 68 60 ea 7e 00 
44.576800 1 266 Rx d 8 00 00 01 1e 00 00 9f 01 
44.577100 1 1e5 Rx d 8 02 ec 00 00 00 00 40 14 
44.578200 1 441 Rx d 8 2d 00 b6 c3 58 00 35 9c 
44.584100 1 2e1 Rx d 8 65 80 09 00 f2 d0 8f 6a 
44.585600 1 266 Rx d 8 00 00 01 1e 00 00 9f 01 
44.586800 1 1e5 Rx d 8 02 ec 00 00 00 00 60 34 
44.587400 1 268 Rx d 5 1e 01 f8 00 c1 
44.593300 1 400 Rx d 7 d7 e0 0b be ef fb 00 
44.597100 1 266 Rx d 8 00 00 01 1e 00 00 9f 01 
44.597600 1 1e5 Rx d 8 02 ec 00 00 00 00 00 d4 
44.597800 1 3a8 Rx d 8 03 00 00 00 00 00 00 00 
44.598600 1 7d5 Rx d 8 2b 00 00 00 00 00 00 00 
44.598800 1 7d5 Rx d 8 2c 00 3f 00 00 00 00 00 
44.599300 1 545 Rx d 8 01 00 00 00 00 10 e0 3b 
44.599500 1 7d5 Rx d 8 32 00 00 00 00 00 00 00 
44.600700 1 2e1 Rx d 8 10 21 04 00 12 00 20 08 
44.605600 1 266 Rx d 8 00 00 01 1e 00 00 9f 01 
44.606500 1 1e5 Rx d 8 02 ec 00 00 00 00 20 f4 
44.613500 1 39d Rx d 5 69 61 ea 7e 00 
44.615700 1 288 Rx d 8 03 11 00 40 80 00 f1 4f 
44.616900 1 266 Rx d 8 00 00 01 1e 00 00 9f 01 
44.617200 1 1e5 Rx d 8 02 ec 00 00 00 00 40 14 
44.617900 1 2e1 Rx d 8 39 8d 55 af 1f 28 00 00 
44.624800 1 102 Rx d 8 22 b3 88 04 8a 0c 21 08 
44.625600 1 266 Rx d 8 00 00 01 1e 00 00 9f 01 
44.626400 1 1e5 Rx d 8 02 ec 00 00 00 00 60 34 
44.627700 1 2a8 Rx d 8 02 11 10 10 06 80 a2 05 
44.628200 1 441 Rx d 8 29 85 89 00 32 00 38 0a 
44.632200 1 2e1 Rx d 8 02 6c 7f 02 3e 61 00 00 
44.632700 1 545 Rx d 8 02 00 02 00 00 00 f0 3e 
44.637200 1 266 Rx d 8 00 00 01 1e 00 00 9f 01 
44.637400 1 1e5 Rx d 8 02 ec 00 00 00 00 00 d4 
44.637800 1 2b4 Rx d 6 28 05 9c 0d 3b 01 
44.645500 1 266 Rx d 8 00 00 01 1e 00 00 9f 01 
44.646700 1 1e5 Rx d 8 02 ec 00 00 00 00 20 f4 
44.648300 1 2e1 Rx d 8 fb 19 70 89 94 5e 19 00 
44.648700 1 25b Rx d 8 d3 80 06 05 6a 86 d0 79 
44.651200 1 318 Rx d 8 1a 08 36 05 1b 35 37 ff 
44.653200 1 39d Rx d 5 6a 62 ea 7e 00 
44.653600 1 228 Rx d 8 03 11 00 40 80 00 f1 ef 
44.656900 1 266 Rx d 8 00 00 01 1e 00 00 9f 01 
44.657100 1 1e5 Rx d 8 02 ec 00 00 00 00 40 14 
44.660700 1 229 Rx d 3 3b 0f 00 
44.664200 1 2e1 Rx d 8 04 00 00 80 48 44 26 00 
44.665200 1 545 Rx d 8 f0 03 4e 10 97 64 09 9f 
44.665700 1 2e8 Rx d 8 02 11 10 10 06 80 92 35 
44.665900 1 266 Rx d 8 00 00 01 1e 00 00 9f 01 
44.667200 1 1e5 Rx d 8 02 ec 00 00 00 00 60 34 
44.676600 1 266 Rx d 8 00 00 01 1e 00 00 9f 01 
44.676800 1 1e5 Rx d 8 02 ec 00 00 00 00 00 d4 
44.678100 1 441 Rx d 8 2e 00 b6 c3 58 00 3d a5 
44.680200 1 321 Rx d 8 3d e6 a8 8c 01 8a 90 96 
44.681200 1 2e1 Rx d 8 65 80 09 00 f2 d0 8f 6a 
44.682800 1 709 Rx d 8 20 00 00 00 00 00 00 00 
44.685500 1 266 Rx d 8 00 00 01 1e 00 00 9f 01 
44.686800 1 1e5 Rx d 8 02 ec 00 00 00 00 20 f4 
44.687400 1 268 Rx d 5 1e 01 f8 00 c1 
44.693200 1 39d Rx d 5 6b 63 ea 7e 00 
44.693400 1 400 Rx d 7 d7 e0 0b be ef fb 00 
44.696800 1 2e1 Rx d 8 10 21 04 00 12 00 20 08 
44.697100 1 266 Rx d 8 00 00 01 1e 00 00 9f 01 
44.697500 1 1e5 Rx d 8 02 ec 00 00 00 00 40 14 
44.699000 1 545 Rx d 8 01 00 00 00 00 10 10 6b 
44.699200 1 7d5 Rx d 8 2b 00 00 00 00 00 00 00 
44.699500 1 7d5 Rx d 8 2c 00 3f 00 00 00 00 00 
44.699700 1 7d5 Rx d 8 32 00 00 00 00 00 00 00 
44.705600 1 266 Rx d 8 00 00 01 1e 00 00 9f 01 
44.706800 1 1e5 Rx d 8 02 ec 00 00 00 00 60 34 
44.712200 1 2e1 Rx d 8 39 8d 55 af 1f 28 00 00 
44.715700 1 288 Rx d 8 03 11 00 40 80 00 01 5f 
44.716600 1 266 Rx d 8 00 00 01 1e 00 00 9f 01 
44.716800 1 1e5 Rx d 8 02 ec 00 00 00 00 00 d4 
44.724800 1 102 Rx d 8 22 b3 88 04 8c 0c 21 08 
44.725500 1 266 Rx d 8 00 00 01 1e 00 00 9f 01 
44.726400 1 1e5 Rx d 8 02 ec 00 00 00 00 20 f4 
44.727700 1 2a8 Rx d 8 02 11 10 10 06 80 b2 15 
44.728200 1 2e1 Rx d 8 02 6c 7f 02 3e 61 00 00 
44.728400 1 441 Rx d 8 29 85 89 00 32 00 00 d2 
44.731000 1 70b Rx d 8 06 8a 8c 97 2d 3d 00 00 
44.731700 1 545 Rx d 8 02 00 01 00 00 00 20 6d 
44.733100 1 39d Rx d 5 4c 64 ca 7e 00 
44.737600 1 266 Rx d 8 00 00 01 1e 00 00 9f 01 
44.737900 1 1e5 Rx d 8 02 ec 00 00 00 00 40 14 
44.738100 1 2b4 Rx d 6 29 05 9c 0d 4c 01 
44.744100 1 2e1 Rx d 8 fb 19 72 89 94 63 19 00 
44.745500 1 266 Rx d 8 00 00 01 1e 00 00 9f 01 
44.746700 1 1e5 Rx d 8 02 ec 00 00 00 00 60 34 
44.747400 1 318 Rx d 8 1a 08 36 05 1b 35 39 01 
44.748700 1 25b Rx d 8 d3 80 06 05 6a 86 e0 89 
44.748900 1 3e2 Rx d 7 01 00 80 5a 00 c0 04 
44.753600 1 228 Rx d 8 03 11 00 40 80 00 01 ff 
44.756900 1 266 Rx d 8 00 00 01 1e 00 00 9f 01 
44.757200 1 1e5 Rx d 8 02 ec 00 00 00 00 00 d4 
44.760700 1 229 Rx d 3 46 00 00 
44.761300 1 2e1 Rx d 8 04 00 00 80 48 44 26 00 
44.764200 1 545 Rx d 8 f0 03 49 90 97 6c 39 52 
44.765500 1 266 Rx d 8 00 00 01 1e 00 00 9f 01 
44.766000 1 2e8 Rx d 8 02 11 10 10 06 80 a2 45 
44.766500 1 1e5 Rx d 8 02 ec 00 00 00 00 20 f4 
44.767700 1 3e3 Rx d 4 01 00 00 00 
44.773100 1 39d Rx d 5 0d 65 8a 7e 00 
44.776300 1 2e1 Rx d 8 65 80 09 00 f2 d0 8f 6a 
44.777000 1 266 Rx d 8 00 00 01 1e 00 00 9f 01 
44.777300 1 1e5 Rx d 8 02 ec 00 00 00 00 40 14 
44.778200 1 441 Rx d 8 2f 00 b6 c3 58 00 05 6e 
44.785500 1 266 Rx d 8 00 00 01 1e 00 00 9f 01 
44.786700 1 1e5 Rx d 8 02 ec 00 00 00 00 60 34 
44.787400 1 268 Rx d 5 1e 01 f8 00 c1 
44.792200 1 2e1 Rx d 8 10 21 04 00 12 00 20 08 
44.793300 1 400 Rx d 7 d7 e0 0b be ef fb 00 
44.797000 1 266 Rx d 8 00 00 01 1e 00 00 9f 01 
44.797300 1 315 Rx d 8 18 4c 47 4c 50 47 c7 7d 
44.797500 1 1e5 Rx d 8 02 ec 00 00 00 00 00 d4 
44.797800 1 315 Rx d 8 01 47 47 00 4c 48 00 00 
44.798000 1 3a8 Rx d 8 04 20 05 dd 01 00 00 00 
44.798200 1 315 Rx d 8 02 00 ac 0e 00 00 00 00 
44.798700 1 315 Rx d 8 73 1c 18 5a 98 00 70 04 
44.799200 1 315 Rx d 8 04 24 2b c6 00 47 47 4d 
44.802200 1 545 Rx d 8 01 00 00 00 00 10 40 9b 
44.802900 1 335 Rx d 8 11 00 00 00 00 00 00 00 
44.804900 1 7d5 Rx d 8 2b 00 00 00 00 00 00 00 
44.806100 1 266 Rx d 8 00 00 01 1e 00 00 9f 01 
44.807500 1 1e5 Rx d 8 02 ec 00 00 00 00 20 f4 
44.808300 1 2e1 Rx d 8 39 8d 55 af 1f 28 00 00 
44.808500 1 7d5 Rx d 8 2c 00 3f 00 00 00 00 00 
44.808800 1 7d5 Rx d 8 32 00 00 00 00 00 00 00 
44.809500 1 7d5 Rx d 8 42 f8 00 bb 00 00 1e 00 
44.811200 1 7d5 Rx d 8 43 b8 c0 b0 b7 3b 00 00 
44.811700 1 7d5 Rx d 8 44 85 46 5a 54 38 00 47 
44.812100 1 7d5 Rx d 8 46 48 47 4c 47 47 47 47 
44.812800 1 7d5 Rx d 8 48 4c 4c 00 00 00 d3 57 
44.813100 1 39d Rx d 5 8e 66 0a 7e 00 
44.815700 1 288 Rx d 8 03 11 00 40 80 00 11 6f 
44.817100 1 266 Rx d 8 00 00 01 1e 00 00 9f 01 
44.817300 1 1e5 Rx d 8 02 ec 00 00 00 00 40 14 
44.824300 1 2e1 Rx d 8 02 6c 7f 02 3e 61 00 00 
44.824800 1 102 Rx d 8 22 b3 88 04 8a 0c 21 08 
44.825600 1 266 Rx d 8 00 00 01 1e 00 00 9f 01 
44.826500 1 1e5 Rx d 8 02 ec 00 00 00 00 60 34 
44.827700 1 2a8 Rx d 8 02 11 10 10 06 80 c2 25 
44.828200 1 441 Rx d 8 29 85 89 00 32 00 08 da 
44.830800 1 545 Rx d 8 02 00 01 00 00 00 50 9d 
44.834100 1 319 Rx d 8 12 60 5c 1d 2b 1a df ce 
44.837000 1 266 Rx d 8 00 00 01 1e 00 00 9f 01 
44.837400 1 1e5 Rx d 8 02 ec 00 00 00 00 00 d4 
44.837800 1 2b4 Rx d 6 29 05 9c 0d 4f 01 
44.840200 1 2e1 Rx d 8 fb 19 72 89 94 62 19 00 
44.845500 1 266 Rx d 8 00 00 01 1e 00 00 9f 01 
44.846700 1 1e5 Rx d 8 02 ec 00 00 00 00 20 f4 
44.847400 1 318 Rx d 8 1a 08 36 05 1b 35 3b 03 
44.848700 1 25b Rx d 8 d3 80 06 05 6a 86 f0 99 
44.853100 1 39d Rx d 5 0e 67 8a 7d 00 
44.853700 1 228 Rx d 8 03 11 00 40 80 00 11 0f 
44.856200 1 2e1 Rx d 8 04 00 00 80 48 44 26 00 
44.857400 1 266 Rx d 8 00 00 01 1e 00 00 9f 01 
44.857900 1 1e5 Rx d 8 02 ec 00 00 00 00 40 14 
44.860700 1 229 Rx d 3 44 01 00 
44.863200 1 545 Rx d 8 b0 03 49 20 97 66 69 cc 
44.865600 1 266 Rx d 8 00 00 01 1e 00 00 9f 01 
44.865800 1 2e8 Rx d 8 02 11 10 10 06 80 b2 55 
44.866500 1 1e5 Rx d 8 02 ec 00 00 00 00 60 34 
44.872300 1 2e1 Rx d 8 65 80 09 00 f2 d0 8f 6a 
44.876600 1 266 Rx d 8 00 00 01 1e 00 00 9f 01 
44.876800 1 1e5 Rx d 8 02 ec 00 00 00 00 00 d4 
44.878200 1 441 Rx d 8 2f 00 b6 c3 58 00 0d 76 
44.885500 1 266 Rx d 8 00 00 01 1e 00 00 9f 01 
44.886700 1 1e5 Rx d 8 02 ec 00 00 00 00 20 f4 
44.887500 1 268 Rx d 5 1e 01 f8 00 c1 
44.888900 1 2e1 Rx d 8 10 21 04 00 12 00 20 08 
44.893200 1 39d Rx d 5 0e 68 8a 7c 00 
44.893400 1 400 Rx d 7 c7 e0 0b be ef fb 00 
44.897100 1 266 Rx d 8 00 00 01 1f 00 00 9f 01 
44.897600 1 1e5 Rx d 8 02 ec 00 00 00 00 40 14 
44.899200 1 545 Rx d 8 01 00 00 00 00 10 70 cb 
44.900900 1 7d5 Rx d 8 2b 00 00 00 00 00 00 00 
44.901100 1 7d5 Rx d 8 2c 00 3f 00 00 00 00 00 
44.901400 1 7d5 Rx d 8 32 00 00 00 00 00 00 00 
