date Thu Aug 27 01:58:58 PM 2026
base hex timestamps absolute
// version 7.0.0
0.000000 1 118 Rx d 8 f4 61 32 00 00 48 00 00 
0.000400 1 266 Rx d 8 00 00 01 22 00 00 9f 01 
0.000600 1 257 Rx d 8 6b 41 1f 00 02 a0 0f 01 
0.001200 1 1d8 Rx d 8 29 00 00 00 00 00 60 62 
0.001400 1 1e5 Rx d 8 02 ac 04 00 00 00 60 f8 
0.003900 1 132 Rx d 6 e1 87 f4 ff 20 40 
0.005100 1 310 Rx d 8 0b 00 04 02 05 00 02 00 
0.010900 1 118 Rx d 8 f5 62 32 00 00 48 00 00 
0.011100 1 266 Rx d 8 00 00 01 22 00 00 9f 01 
0.011400 1 1d8 Rx d 8 29 00 00 00 00 00 80 82 
0.011600 1 1e5 Rx d 8 02 ac 04 00 00 00 00 98 
0.014000 1 132 Rx d 6 e4 87 f5 ff 22 40 
0.015500 1 2b4 Rx d 6 24 05 9d 0d 0c 01 
0.019900 1 22b Rx d 8 ff ff ff ff ff ff ff ff 
0.020100 1 118 Rx d 8 f6 63 32 00 00 48 00 00 
0.020700 1 266 Rx d 8 00 00 01 22 00 00 9f 01 
0.021000 1 257 Rx d 8 6c 42 1f 00 02 a0 0f 01 
0.021200 1 1d8 Rx d 8 29 00 00 00 00 00 a0 a2 
0.021500 1 1e5 Rx d 8 02 ac 04 00 00 00 20 b8 
0.022400 1 545 Rx d 8 01 00 00 00 00 10 d0 2b 
0.023900 1 25b Rx d 8 d3 c0 02 05 6a 86 40 25 
0.024100 1 132 Rx d 6 ed 87 f5 ff 22 40 
0.029800 1 344 Rx d 8 00 00 00 00 00 00 60 a7 
0.031000 1 118 Rx d 8 f7 64 32 00 00 48 00 00 
0.031400 1 1d8 Rx d 8 29 00 00 00 00 00 c0 c2 
0.031900 1 266 Rx d 8 00 00 01 22 00 00 9f 01 
0.032400 1 1e5 Rx d 8 02 ac 04 00 00 00 40 d8 
0.032700 1 788 Rx d 8 bc c4 81 63 00 00 8a 00 
0.033900 1 132 Rx d 6 e5 87 f5 ff 20 40 
0.036500 1 288 Rx d 8 03 11 00 40 80 00 91 ef 
0.039000 1 340 Rx d 8 03 01 00 00 00 00 00 00 
0.039200 1 211 Rx d 6 98 16 71 0d 00 f1 
0.040100 1 118 Rx d 8 f8 65 32 00 00 48 00 00 
0.040300 1 266 Rx d 8 00 00 01 22 00 00 9f 01 
0.040600 1 257 Rx d 8 6d 43 1f 00 02 a0 0f 01 
0.041200 1 1d8 Rx d 8 29 00 00 00 00 00 e0 e2 
0.041800 1 1e5 Rx d 8 02 ac 04 00 00 00 60 f8 
0.043900 1 132 Rx d 6 df 87 f6 ff 24 40 
0.048800 1 2a8 Rx d 8 02 11 00 00 06 80 50 93 
0.050800 1 118 Rx d 8 f9 66 32 00 00 48 00 00 
0.051000 1 266 Rx d 8 00 00 01 22 00 00 9f 01 
0.051200 1 1d8 Rx d 8 29 00 00 00 00 00 00 02 
0.051500 1 1e5 Rx d 8 02 ac 04 00 00 00 00 98 
0.053600 1 545 Rx d 8 02 00 02 00 00 00 e0 2e 
0.053900 1 132 Rx d 6 e9 87 f4 ff 20 40 
0.055200 1 428 Rx d 7 00 00 10 10 00 00 00 
0.055700 1 272 Rx d 8 09 80 63 00 00 00 00 00 
0.058900 1 393 Rx d 8 09 80 63 00 00 00 00 00 
0.060000 1 118 Rx d 8 fa 67 32 00 00 48 00 00 
0.061000 1 266 Rx d 8 00 00 01 22 00 00 9f 01 
0.061200 1 108 Rx d 8 20 07 00 02 00 01 00 0d 
0.061500 1 1d8 Rx d 8 29 00 00 00 00 00 20 22 
0.061700 1 126 Rx d 5 01 b0 1d 38 2d 
0.061900 1 257 Rx d 8 6e 44 1f 00 02 a0 0f 01 
0.062100 1 128 Rx d 5 80 02 e4 0a 02 
0.062300 1 1e5 Rx d 8 02 ac 04 00 00 00 20 b8 
0.062600 1 1d6 Rx d 8 00 08 04 00 0a 0c 0b 05 
0.063400 1 268 Rx d 5 01 01 f8 00 c0 
0.064100 1 132 Rx d 6 ed 87 f5 ff 24 40 
0.064700 1 2b6 Rx d 3 00 03 00 
0.065100 1 229 Rx d 3 44 01 00 
0.068800 1 22b Rx d 8 ff ff ff ff ff ff ff ff 
0.070200 1 7a8 Rx d 8 b8 bc 71 63 00 00 82 00 
0.070800 1 118 Rx d 8 fb 68 32 00 00 48 00 00 
0.071200 1 266 Rx d 8 00 00 01 22 00 00 9f 01 
0.071600 1 1d8 Rx d 8 29 00 00 00 00 00 40 42 
0.071800 1 3f5 Rx d 8 00 00 c8 08 82 04 00 00 
0.072100 1 1e5 Rx d 8 02 ac 04 00 00 00 40 d8 
0.073300 1 228 Rx d 8 03 11 00 40 80 00 91 8f 
0.073800 1 7d7 Rx d 8 32 01 00 00 00 00 00 00 
0.074000 1 132 Rx d 6 e3 87 f5 ff 25 40 
0.080000 1 118 Rx d 8 fc 69 32 00 00 48 00 00 
0.080300 1 266 Rx d 8 00 00 01 22 00 00 9f 01 
0.080600 1 257 Rx d 8 6f 45 1f 00 02 a0 0f 01 
0.081100 1 1d8 Rx d 8 29 00 00 00 00 00 60 62 
0.081300 1 1e5 Rx d 8 02 ac 04 00 00 00 60 f8 
0.083500 1 4e2 Rx d 8 04 20 20 02 0c c0 00 00 
0.083900 1 132 Rx d 6 d9 87 f5 ff 20 40 
0.085300 1 2e8 Rx d 8 02 11 00 00 06 80 30 b3 
0.087700 1 545 Rx d 8 20 02 2c 30 97 67 f9 bf 
0.090700 1 118 Rx d 8 fd 6a 32 00 00 48 00 00 
0.091000 1 266 Rx d 8 00 00 01 22 00 00 9f 01 
0.091200 1 1d8 Rx d 8 29 00 00 00 00 00 80 82 
0.091500 1 1e5 Rx d 8 02 ac 04 00 00 00 00 98 
0.091700 1 448 Rx d 7 00 00 10 10 00 00 00 
0.093900 1 132 Rx d 6 d9 87 f5 ff 20 40 
0.100200 1 118 Rx d 8 fe 6b 32 00 00 48 00 00 
0.100400 1 266 Rx d 8 00 00 01 22 00 00 9f 01 
0.100600 1 257 Rx d 8 70 46 1f 00 02 a0 0f 01 
0.101200 1 1d8 Rx d 8 29 00 00 00 00 00 a0 a2 
0.101400 1 1e5 Rx d 8 02 ac 04 00 00 00 20 b8 
0.103900 1 132 Rx d 6 e6 87 f4 ff 22 40 
0.110800 1 118 Rx d 8 ff 6c 32 00 00 48 00 00 
0.111300 1 266 Rx d 8 00 00 01 22 00 00 9f 01 
0.111600 1 1d8 Rx d 8 29 00 00 00 00 00 c0 c2 
0.111800 1 1e5 Rx d 8 02 ac 04 00 00 00 40 d8 
0.114000 1 132 Rx d 6 e4 87 f5 ff 23 40 
0.115300 1 2b4 Rx d 6 27 05 9c 0d 0e 01 
0.116200 1 3c4 Rx d 8 12 67 db 31 70 ee c3 47 
0.117600 1 666 Rx d 4 00 00 a0 00 
0.118800 1 22b Rx d 8 ff ff ff ff ff ff ff ff 
0.119900 1 545 Rx d 8 01 00 00 00 00 10 00 5b 
0.120100 1 118 Rx d 8 00 6d 32 00 00 48 00 00 
0.120700 1 266 Rx d 8 00 00 01 22 00 00 9f 01 
0.121000 1 257 Rx d 8 71 47 1f 00 02 a0 0f 01 
0.121200 1 1d8 Rx d 8 29 00 00 00 00 00 e0 e2 
0.121500 1 1e5 Rx d 8 02 ac 04 00 00 00 60 f8 
0.123900 1 132 Rx d 6 e4 87 f5 ff 22 40 
0.124300 1 25b Rx d 8 d3 c0 02 05 6a 86 50 35 
0.130500 1 788 Rx d 8 01 00 00 00 ff a1 e8 12 
0.130700 1 118 Rx d 8 01 6e 32 00 00 48 00 00 
0.131200 1 266 Rx d 8 00 00 01 22 00 00 9f 01 
0.131500 1 1d8 Rx d 8 29 00 00 00 00 00 00 02 
0.131700 1 1e5 Rx d 8 02 ac 04 00 00 00 00 98 
0.133900 1 132 Rx d 6 d9 87 f5 ff 24 40 
0.136500 1 288 Rx d 8 03 11 00 40 80 00 a1 ff 
0.139000 1 340 Rx d 8 04 00 00 00 00 00 00 00 
0.139200 1 211 Rx d 6 99 17 71 0d 00 f1 
0.140000 1 118 Rx d 8 02 6f 32 00 00 48 00 00 
0.140300 1 266 Rx d 8 00 00 01 22 00 00 9f 01 
0.140800 1 257 Rx d 8 72 48 1f 00 02 a0 0f 01 
0.141300 1 1d8 Rx d 8 29 00 00 00 00 00 20 22 
0.141900 1 1e5 Rx d 8 02 ac 04 00 00 00 20 b8 
0.143900 1 132 Rx d 6 dc 87 f4 ff 1f 40 
0.148900 1 2a8 Rx d 8 02 11 00 00 06 80 60 a3 
0.150900 1 118 Rx d 8 f3 60 32 00 00 48 00 00 
0.151100 1 266 Rx d 8 00 00 01 22 00 00 9f 01 
0.151400 1 1d8 Rx d 8 29 00 00 00 00 00 40 42 
0.151600 1 1e5 Rx d 8 02 ac 04 00 00 00 40 d8 
0.152600 1 545 Rx d 8 02 00 02 00 00 00 10 5e 
0.153900 1 132 Rx d 6 ea 87 f5 ff 22 40 
0.154500 1 428 Rx d 7 00 00 10 10 00 00 00 
0.155600 1 272 Rx d 8 06 00 f1 88 07 48 06 08 
0.159000 1 393 Rx d 8 06 00 f1 88 07 48 06 08 
0.160000 1 118 Rx d 8 f4 61 32 00 00 48 00 00 
0.160300 1 266 Rx d 8 00 00 01 22 00 00 9f 01 
0.160500 1 257 Rx d 8 73 49 1f 00 02 a0 0f 01 
0.161000 1 108 Rx d 8 1e 08 00 02 00 ff ff 0d 
0.161200 1 1d8 Rx d 8 29 00 00 00 00 00 60 62 
0.161400 1 126 Rx d 5 01 b0 1d 40 35 
0.161600 1 1e5 Rx d 8 02 ac 04 00 00 00 60 f8 
0.161800 1 128 Rx d 5 80 02 e4 0a 02 
0.162200 1 1d6 Rx d 8 00 08 04 00 0a 0c 0e 05 
0.162900 1 268 Rx d 5 01 01 f8 00 c0 
0.163700 1 2b6 Rx d 3 00 03 00 
0.164200 1 132 Rx d 6 ea 87 f4 ff 22 40 
0.165200 1 229 Rx d 3 52 02 00 
0.167400 1 3e2 Rx d 7 00 00 80 2a 00 c0 04 
0.168600 1 7a8 Rx d 8 01 00 00 00 ff a1 e8 12 
0.168800 1 22b Rx d 8 ff ff ff ff ff ff ff ff 
0.170900 1 118 Rx d 8 f5 62 32 00 00 48 00 00 
0.171500 1 1d8 Rx d 8 29 00 00 00 00 00 80 82 
0.172000 1 266 Rx d 8 00 00 01 22 00 00 9f 01 
0.172200 1 3f5 Rx d 8 00 00 c8 08 82 04 00 00 
0.172500 1 1e5 Rx d 8 02 ac 04 00 00 00 00 98 
0.173500 1 228 Rx d 8 03 11 00 40 80 00 a1 9f 
0.173700 1 7d7 Rx d 8 32 01 00 00 00 00 00 00 
0.173900 1 132 Rx d 6 dc 87 f5 ff 20 40 
0.180200 1 118 Rx d 8 f6 63 32 00 00 48 00 00 
0.180500 1 266 Rx d 8 00 00 01 22 00 00 9f 01 
0.180700 1 257 Rx d 8 74 4a 1f 00 02 a0 0f 01 
0.181100 1 1d8 Rx d 8 29 00 00 00 00 00 a0 a2 
0.181300 1 1e5 Rx d 8 02 ac 04 00 00 00 20 b8 
0.183500 1 4e2 Rx d 8 ad 03 66 41 02 00 00 00 
0.183900 1 132 Rx d 6 db 87 f5 ff 22 40 
0.185300 1 2e8 Rx d 8 02 11 00 00 06 80 40 c3 
0.186500 1 545 Rx d 8 20 02 2c 00 97 67 29 bf 
0.191000 1 118 Rx d 8 f7 64 32 00 00 48 00 00 
0.191200 1 1d8 Rx d 8 29 00 00 00 00 00 c0 c2 
0.191700 1 266 Rx d 8 00 00 01 22 00 00 9f 01 
0.191900 1 1e5 Rx d 8 02 ac 04 00 00 00 40 d8 
0.192200 1 448 Rx d 7 00 00 10 10 00 00 00 
0.193900 1 132 Rx d 6 de 87 f5 ff 1f 40 
0.200000 1 118 Rx d 8 f8 65 32 00 00 48 00 00 
0.200300 1 266 Rx d 8 00 00 01 22 00 00 9f 01 
0.200600 1 257 Rx d 8 75 4b 1f 00 02 a0 0f 01 
0.201200 1 1d8 Rx d 8 29 00 00 00 00 00 e0 e2 
0.201400 1 1e5 Rx d 8 02 ac 04 00 00 00 60 f8 
0.204000 1 132 Rx d 6 e5 87 f5 ff 23 40 
0.210900 1 118 Rx d 8 f9 66 32 00 00 48 00 00 
0.211100 1 266 Rx d 8 00 00 01 22 00 00 9f 01 
0.211400 1 1d8 Rx d 8 29 00 00 00 00 00 00 02 
0.211600 1 1e5 Rx d 8 02 ac 04 00 00 00 00 98 
0.214000 1 132 Rx d 6 da 87 f5 ff 22 40 
0.215300 1 2b4 Rx d 6 25 05 9c 0d 0c 01 
0.215500 1 2a4 Rx d 8 aa 77 7d eb 6b 7f 7d 42 
0.218800 1 22b Rx d 8 ff ff ff ff ff ff ff ff 
0.219100 1 545 Rx d 8 01 00 00 00 00 10 30 8b 
0.220000 1 118 Rx d 8 fa 67 32 00 00 48 00 00 
0.220300 1 266 Rx d 8 00 00 01 22 00 00 9f 01 
0.221100 1 257 Rx d 8 76 4c 1f 00 02 a0 0f 01 
0.221400 1 1d8 Rx d 8 29 00 00 00 00 00 20 22 
0.221600 1 1e5 Rx d 8 02 ac 04 00 00 00 20 b8 
0.223900 1 25b Rx d 8 d3 c0 02 05 6a 86 60 45 
0.224100 1 132 Rx d 6 d9 87 f5 ff 23 40 
0.230500 1 788 Rx d 8 02 40 cd b7 4c 03 00 00 
0.230700 1 118 Rx d 8 fb 68 32 00 00 48 00 00 
0.231000 1 266 Rx d 8 00 00 01 22 00 00 9f 01 
0.231200 1 1d8 Rx d 8 29 00 00 00 00 00 40 42 
0.231500 1 1e5 Rx d 8 02 ac 04 00 00 00 40 d8 
0.233900 1 132 Rx d 6 e8 87 f5 ff 22 40 
0.236500 1 288 Rx d 8 03 11 00 40 80 00 b1 0f 
0.239000 1 340 Rx d 8 05 00 00 00 00 00 00 00 
0.239200 1 211 Rx d 6 9a 18 71 0d 00 f1 
0.240200 1 118 Rx d 8 fc 69 32 00 00 48 00 00 
0.240500 1 266 Rx d 8 00 00 01 22 00 00 9f 01 
0.240700 1 257 Rx d 8 77 4d 1f 00 02 a0 0f 01 
0.241200 1 1d8 Rx d 8 29 00 00 00 00 00 60 62 
0.241800 1 1e5 Rx d 8 02 ac 04 00 00 00 60 f8 
0.243900 1 132 Rx d 6 e2 87 f5 ff 20 40 
0.248800 1 2a8 Rx d 8 02 11 00 00 06 80 70 b3 
0.250700 1 118 Rx d 8 fd 6a 32 00 00 48 00 00 
0.251000 1 266 Rx d 8 00 00 01 22 00 00 9f 01 
0.251200 1 1d8 Rx d 8 29 00 00 00 00 00 80 82 
0.251500 1 1e5 Rx d 8 02 ac 04 00 00 00 00 98 
0.251700 1 545 Rx d 8 02 00 02 00 00 00 40 8e 
0.253900 1 132 Rx d 6 e7 87 f5 ff 22 40 
0.254500 1 428 Rx d 7 00 00 10 10 00 00 00 
0.255700 1 272 Rx d 8 09 80 63 00 00 00 00 00 
0.258900 1 393 Rx d 8 09 80 63 00 00 00 00 00 
0.260000 1 118 Rx d 8 fe 6b 32 00 00 48 00 00 
0.260300 1 266 Rx d 8 00 00 01 22 00 00 9f 01 
0.261100 1 257 Rx d 8 78 4e 1f 00 02 a0 0f 01 
0.261300 1 108 Rx d 8 1f 09 00 02 00 ff ff 0d 
0.261500 1 1d8 Rx d 8 29 00 00 00 00 00 a0 a2 
0.261700 1 126 Rx d 5 01 b0 1d 48 3d 
0.262000 1 1e5 Rx d 8 02 ac 04 00 00 00 20 b8 
0.262200 1 128 Rx d 5 80 02 e4 0a 02 
0.262400 1 1d6 Rx d 8 00 08 04 00 0a 8c 16 05 
0.263100 1 268 Rx d 5 01 01 f8 00 c0 
0.263900 1 2b6 Rx d 3 00 03 00 
0.264100 1 132 Rx d 6 dd 87 f5 ff 20 40 
0.265200 1 229 Rx d 3 6d 03 00 
0.268900 1 22b Rx d 8 ff ff ff ff ff ff ff ff 
0.270500 1 7a8 Rx d 8 02 40 d0 37 4d 07 00 00 
0.270700 1 118 Rx d 8 ff 6c 32 00 00 48 00 00 
0.271200 1 266 Rx d 8 00 00 01 22 00 00 9f 01 
0.271600 1 1d8 Rx d 8 29 00 00 00 00 00 c0 c2 
0.272000 1 1e5 Rx d 8 02 ac 04 00 00 00 40 d8 
0.272300 1 3f5 Rx d 8 00 00 c8 08 82 04 00 00 
0.273400 1 228 Rx d 8 03 11 00 40 80 00 b1 af 
0.273900 1 7d7 Rx d 8 32 01 00 00 00 00 00 00 
0.274100 1 132 Rx d 6 e3 87 f5 ff 23 40 
0.280100 1 118 Rx d 8 00 6d 32 00 00 48 00 00 
0.280300 1 266 Rx d 8 00 00 01 22 00 00 9f 01 
0.280500 1 257 Rx d 8 79 4f 1f 00 02 a0 0f 01 
0.281000 1 1d8 Rx d 8 29 00 00 00 00 00 e0 e2 
0.281300 1 1e5 Rx d 8 02 ac 04 00 00 00 60 f8 
0.283500 1 4e2 Rx d 8 06 00 00 00 00 00 00 00 
0.284100 1 132 Rx d 6 e9 87 f5 ff 22 40 
0.285000 1 545 Rx d 8 20 02 2c 80 97 6b 59 73 
0.285600 1 2e8 Rx d 8 02 11 00 00 06 80 50 d3 
0.290700 1 118 Rx d 8 01 6e 32 00 00 48 00 00 
0.291000 1 266 Rx d 8 00 00 01 22 00 00 9f 01 
0.291200 1 1d8 Rx d 8 29 00 00 00 00 00 00 02 
0.291500 1 1e5 Rx d 8 02 ac 04 00 00 00 00 98 
0.291900 1 448 Rx d 7 00 00 10 10 00 00 00 
0.293900 1 132 Rx d 6 d6 87 f4 ff 20 40 
0.300000 1 118 Rx d 8 02 6f 32 00 00 48 00 00 
0.300200 1 266 Rx d 8 00 00 01 22 00 00 9f 01 
0.300600 1 257 Rx d 8 6a 40 1f 00 02 a0 0f 01 
0.301200 1 1d8 Rx d 8 29 00 00 00 00 00 20 22 
0.301400 1 1e5 Rx d 8 02 ac 04 00 00 00 20 b8 
0.304000 1 132 Rx d 6 e1 87 f4 ff 23 40 
0.310900 1 118 Rx d 8 f3 60 32 00 00 48 00 00 
0.311300 1 266 Rx d 8 00 00 01 22 00 00 9f 01 
0.311600 1 1d8 Rx d 8 29 00 00 00 00 00 40 42 
0.311800 1 1e5 Rx d 8 02 ac 04 00 00 00 40 d8 
0.314000 1 132 Rx d 6 d6 87 f5 ff 23 40 
0.315300 1 2b4 Rx d 6 26 05 9d 0d 05 01 
0.317600 1 545 Rx d 8 01 00 00 00 00 10 60 bb 
0.318900 1 22b Rx d 8 ff ff ff ff ff ff ff ff 
0.320000 1 118 Rx d 8 f4 61 32 00 00 48 00 00 
0.320200 1 266 Rx d 8 00 00 01 22 00 00 9f 01 
0.320500 1 257 Rx d 8 6b 41 1f 00 02 a0 0f 01 
0.321100 1 1d8 Rx d 8 29 00 00 00 00 00 60 62 
0.321400 1 1e5 Rx d 8 02 ac 04 00 00 00 60 f8 
0.323900 1 132 Rx d 6 d8 87 f4 ff 20 40 
0.325400 1 25b Rx d 8 d3 c0 02 05 6a 86 70 55 
0.330500 1 788 Rx d 8 bc c4 81 63 00 00 8a 00 
0.330700 1 118 Rx d 8 f5 62 32 00 00 48 00 00 
0.331000 1 266 Rx d 8 00 00 01 22 00 00 9f 01 
0.331200 1 1d8 Rx d 8 29 00 00 00 00 00 80 82 
0.331500 1 1e5 Rx d 8 02 ac 04 00 00 00 00 98 
0.333900 1 132 Rx d 6 dc 87 f5 ff 24 40 
0.336700 1 288 Rx d 8 03 11 00 40 80 00 c1 1f 
0.338800 1 340 Rx d 8 06 00 00 00 00 00 00 00 
0.339200 1 211 Rx d 6 9b 19 71 0d 00 f1 
0.340000 1 118 Rx d 8 f6 63 32 00 00 48 00 00 
0.340800 1 266 Rx d 8 00 00 01 22 00 00 9f 01 
0.341200 1 257 Rx d 8 6c 42 1f 00 02 a0 0f 01 
0.341900 1 1d8 Rx d 8 29 00 00 00 00 00 a0 a2 
0.342100 1 1e5 Rx d 8 02 ac 04 00 00 00 20 b8 
0.343900 1 132 Rx d 6 e8 87 f5 ff 22 40 
0.348800 1 2a8 Rx d 8 02 11 00 00 06 80 80 c3 
0.350900 1 118 Rx d 8 f7 64 32 00 00 48 00 00 
0.351100 1 1d8 Rx d 8 29 00 00 00 00 00 c0 c2 
0.351300 1 266 Rx d 8 00 00 01 22 00 00 9f 01 
0.351800 1 1e5 Rx d 8 02 ac 04 00 00 00 40 d8 
0.352100 1 545 Rx d 8 02 00 02 00 00 00 70 be 
0.353900 1 132 Rx d 6 da 87 f5 ff 22 40 
0.355000 1 428 Rx d 7 00 00 10 10 00 00 00 
0.355600 1 272 Rx d 8 06 00 f1 88 07 48 06 08 
0.359000 1 393 Rx d 8 06 00 f0 88 07 48 06 08 
0.360000 1 118 Rx d 8 f8 65 32 00 00 48 00 00 
0.360300 1 266 Rx d 8 00 00 01 22 00 00 9f 01 
0.360600 1 257 Rx d 8 6d 43 1f 00 02 a0 0f 01 
0.361000 1 108 Rx d 8 22 0a 00 02 00 00 00 0d 
0.361300 1 1d8 Rx d 8 29 00 00 00 00 00 e0 e2 
0.361500 1 126 Rx d 5 01 b0 1d 50 45 
0.361700 1 1e5 Rx d 8 02 ac 04 00 00 00 60 f8 
0.361900 1 128 Rx d 5 80 02 e4 0a 02 
0.362100 1 1d6 Rx d 8 00 08 04 00 0a 0c 1d 05 
0.362800 1 268 Rx d 5 01 01 f8 00 c0 
0.363600 1 2b6 Rx d 3 00 03 00 
0.364100 1 132 Rx d 6 ee 87 f5 ff 20 40 
0.365300 1 229 Rx d 3 43 04 00 
0.366900 1 3e2 Rx d 7 00 00 80 2a 00 c0 04 
0.367900 1 7a8 Rx d 8 b8 bc 71 63 00 00 82 00 
0.369000 1 22b Rx d 8 ff ff ff ff ff ff ff ff 
0.370900 1 118 Rx d 8 f9 66 32 00 00 48 00 00 
0.371300 1 266 Rx d 8 00 00 01 22 00 00 9f 01 
0.371700 1 1d8 Rx d 8 29 00 00 00 00 00 00 02 
0.371900 1 3f5 Rx d 8 00 00 c8 08 82 04 00 00 
0.372200 1 1e5 Rx d 8 02 ac 04 00 00 00 00 98 
0.372400 1 666 Rx d 4 00 00 a0 00 
0.372800 1 708 Rx d 5 35 25 0e 00 00 
0.373500 1 228 Rx d 8 03 11 00 40 80 00 c1 bf 
0.374000 1 132 Rx d 6 d9 87 f5 ff 23 40 
0.374500 1 7d7 Rx d 8 32 01 00 00 00 00 00 00 
0.380300 1 118 Rx d 8 fa 67 32 00 00 48 00 00 
0.380500 1 266 Rx d 8 00 00 01 22 00 00 9f 01 
0.381000 1 257 Rx d 8 6e 44 1f 00 02 a0 0f 01 
0.381200 1 1d8 Rx d 8 29 00 00 00 00 00 20 22 
0.381500 1 1e5 Rx d 8 02 ac 04 00 00 00 20 b8 
0.383600 1 4e2 Rx d 8 2f 20 00 00 00 00 00 00 
0.383800 1 545 Rx d 8 20 02 2c 20 97 66 89 3e 
0.384000 1 132 Rx d 6 e5 87 f5 ff 22 40 
0.385300 1 2e8 Rx d 8 02 11 00 00 06 80 60 e3 
0.390900 1 118 Rx d 8 fb 68 32 00 00 48 00 00 
0.391200 1 1d8 Rx d 8 29 00 00 00 00 00 40 42 
0.391700 1 266 Rx d 8 00 00 01 22 00 00 9f 01 
0.391900 1 1e5 Rx d 8 02 ac 04 00 00 00 40 d8 
0.392100 1 448 Rx d 7 00 00 10 10 00 00 00 
0.393900 1 132 Rx d 6 d8 87 f5 ff 23 40 
0.400000 1 118 Rx d 8 fc 69 32 00 00 48 00 00 
0.400200 1 266 Rx d 8 00 00 01 22 00 00 9f 01 
0.400500 1 257 Rx d 8 6f 45 1f 00 02 a0 0f 01 
0.401200 1 1d8 Rx d 8 29 00 00 00 00 00 60 62 
0.401400 1 1e5 Rx d 8 02 ac 04 00 00 00 60 f8 
0.404000 1 132 Rx d 6 e2 87 f5 ff 24 40 
0.410900 1 118 Rx d 8 fd 6a 32 00 00 48 00 00 
0.411100 1 1d8 Rx d 8 29 00 00 00 00 00 80 82 
0.411400 1 266 Rx d 8 00 00 01 22 00 00 9f 01 
0.411600 1 1e5 Rx d 8 02 ac 04 00 00 00 00 98 
0.414000 1 132 Rx d 6 e3 87 f5 ff 23 40 
0.415600 1 2b4 Rx d 6 27 05 9c 0d 0a 01 
0.416700 1 545 Rx d 8 01 00 00 00 00 10 90 eb 
0.418900 1 22b Rx d 8 ff ff ff ff ff ff ff ff 
0.420000 1 118 Rx d 8 fe 6b 32 00 00 48 00 00 
0.420500 1 266 Rx d 8 00 00 01 22 00 00 9f 01 
0.420900 1 257 Rx d 8 70 46 1f 00 02 a0 0f 01 
0.421400 1 1d8 Rx d 8 29 00 00 00 00 00 a0 a2 
0.421600 1 1e5 Rx d 8 02 ac 04 00 00 00 20 b8 
0.423900 1 132 Rx d 6 e5 87 f5 ff 22 40 
0.424900 1 25b Rx d 8 d3 c0 02 05 6a 86 80 65 
0.430500 1 788 Rx d 8 01 00 00 00 ff a1 e8 12 
0.430800 1 118 Rx d 8 ff 6c 32 00 00 48 00 00 
0.431200 1 266 Rx d 8 00 00 01 22 00 00 9f 01 
0.431500 1 1d8 Rx d 8 29 00 00 00 00 00 c0 c2 
0.431700 1 1e5 Rx d 8 02 ac 04 00 00 00 40 d8 
0.433900 1 132 Rx d 6 e6 87 f5 ff 23 40 
0.436600 1 288 Rx d 8 03 11 00 40 80 00 d1 2f 
0.439000 1 340 Rx d 8 07 00 00 00 00 00 00 00 
0.439200 1 211 Rx d 6 9c 1a 71 0d 00 f1 
0.440200 1 118 Rx d 8 00 6d 32 00 00 48 00 00 
0.440500 1 266 Rx d 8 00 00 01 22 00 00 9f 01 
0.440700 1 257 Rx d 8 71 47 1f 00 02 a0 0f 01 
0.441200 1 1d8 Rx d 8 29 00 00 00 00 00 e0 e2 
0.441900 1 1e5 Rx d 8 02 ac 04 00 00 00 60 f8 
0.443900 1 132 Rx d 6 e6 87 f5 ff 20 40 
0.448800 1 2a8 Rx d 8 02 11 00 00 06 80 90 d3 
0.449900 1 545 Rx d 8 02 00 02 00 00 00 a0 ee 
0.450700 1 118 Rx d 8 01 6e 32 00 00 48 00 00 
0.451000 1 266 Rx d 8 00 00 01 22 00 00 9f 01 
0.451200 1 1d8 Rx d 8 29 00 00 00 00 00 00 02 
0.451500 1 1e5 Rx d 8 02 ac 04 00 00 00 00 98 
0.453900 1 132 Rx d 6 dc 87 f5 ff 22 40 
0.455200 1 428 Rx d 7 00 00 10 10 00 00 00 
0.455700 1 272 Rx d 8 09 80 63 00 00 00 00 00 
0.459000 1 393 Rx d 8 09 80 63 00 00 00 00 00 
0.460000 1 118 Rx d 8 02 6f 32 00 00 48 00 00 
0.460300 1 39b Rx d 8 01 0a df e0 b0 44 01 5d 
0.461000 1 266 Rx d 8 00 00 01 22 00 00 9f 01 
0.461200 1 108 Rx d 8 24 0b 00 02 00 01 00 0d 
0.461500 1 1d8 Rx d 8 29 00 00 00 00 00 20 22 
0.461600 1 126 Rx d 5 01 b0 1d 58 4d 
0.461900 1 257 Rx d 8 72 48 1f 00 02 a0 0f 01 
0.462100 1 128 Rx d 5 80 02 e4 0a 02 
0.462300 1 1e5 Rx d 8 02 ac 04 00 00 00 20 b8 
0.462500 1 1d6 Rx d 8 00 08 04 00 0a 4c 0e 05 
0.463400 1 268 Rx d 5 01 01 f8 00 c0 
0.464100 1 132 Rx d 6 df 87 f6 ff 24 40 
0.464700 1 2b6 Rx d 3 00 03 00 
0.465100 1 229 Rx d 3 41 05 00 
0.469000 1 22b Rx d 8 ff ff ff ff ff ff ff ff 
0.469200 1 7a8 Rx d 8 01 00 00 00 ff a1 e8 12 
0.470900 1 118 Rx d 8 f3 60 32 00 00 48 00 00 
0.471500 1 1d8 Rx d 8 29 00 00 00 00 00 40 42 
0.471800 1 3f5 Rx d 8 00 00 c8 08 82 04 00 00 
0.472000 1 266 Rx d 8 00 00 01 22 00 00 9f 01 
0.472500 1 1e5 Rx d 8 02 ac 04 00 00 00 40 d8 
0.473300 1 7d7 Rx d 8 32 01 00 00 00 00 00 00 
0.473500 1 228 Rx d 8 03 11 00 40 80 00 d1 cf 
0.473900 1 132 Rx d 6 d2 87 f5 ff 22 40 
0.480100 1 118 Rx d 8 f4 61 32 00 00 48 00 00 
0.480300 1 266 Rx d 8 00 00 01 22 00 00 9f 01 
0.480600 1 257 Rx d 8 73 49 1f 00 02 a0 0f 01 
0.481000 1 1d8 Rx d 8 29 00 00 00 00 00 60 62 
0.481300 1 1e5 Rx d 8 02 ac 04 00 00 00 60 f8 
0.482800 1 545 Rx d 8 20 02 2c 30 97 6b b9 83 
0.483600 1 4e2 Rx d 8 20 50 02 00 00 00 28 18 
0.483900 1 132 Rx d 6 ef 87 f5 ff 25 40 
0.485300 1 2e8 Rx d 8 02 11 00 00 06 80 70 f3 
0.485800 1 295 Rx d 8 1d 2c 00 00 00 00 00 00 
0.490700 1 118 Rx d 8 f5 62 32 00 00 48 00 00 
0.491000 1 266 Rx d 8 00 00 01 22 00 00 9f 01 
0.491200 1 1d8 Rx d 8 29 00 00 00 00 00 80 82 
0.491500 1 1e5 Rx d 8 02 ac 04 00 00 00 00 98 
0.491900 1 448 Rx d 7 00 00 10 10 00 00 00 
0.493900 1 132 Rx d 6 df 87 f4 ff 20 40 
0.500000 1 118 Rx d 8 f6 63 32 00 00 48 00 00 
0.500300 1 266 Rx d 8 00 00 01 22 00 00 9f 01 
0.500500 1 257 Rx d 8 74 4a 1f 00 02 a0 0f 01 
0.501200 1 1d8 Rx d 8 29 00 00 00 00 00 a0 a2 
0.501400 1 1e5 Rx d 8 02 ac 04 00 00 00 20 b8 
0.504100 1 132 Rx d 6 dc 87 f4 ff 1f 40 
0.510900 1 118 Rx d 8 f7 64 32 00 00 48 00 00 
0.511100 1 1d8 Rx d 8 29 00 00 00 00 00 c0 c2 
0.511600 1 266 Rx d 8 00 00 01 22 00 00 9f 01 
0.511800 1 1e5 Rx d 8 02 ac 04 00 00 00 40 d8 
0.514000 1 132 Rx d 6 d3 87 f4 ff 22 40 
0.515300 1 2b4 Rx d 6 28 05 9c 0d 05 01 
0.516300 1 545 Rx d 8 01 00 00 00 00 10 c0 1b 
0.518800 1 22b Rx d 8 ff ff ff ff ff ff ff ff 
0.520000 1 118 Rx d 8 f8 65 32 00 00 48 00 00 
0.520200 1 266 Rx d 8 00 00 01 22 00 00 9f 01 
0.520500 1 257 Rx d 8 75 4b 1f 00 02 a0 0f 01 
0.521100 1 1d8 Rx d 8 29 00 00 00 00 00 e0 e2 
0.521600 1 1e5 Rx d 8 02 ac 04 00 00 00 60 f8 
0.523900 1 132 Rx d 6 df 87 f5 ff 20 40 
0.524200 1 25b Rx d 8 d3 c0 02 05 6a 86 90 75 
0.530500 1 788 Rx d 8 02 40 ce b7 4c 03 00 00 
0.530800 1 118 Rx d 8 f9 66 32 00 00 48 00 00 
0.531000 1 266 Rx d 8 00 00 01 22 00 00 9f 01 
0.531200 1 1d8 Rx d 8 29 00 00 00 00 00 00 02 
0.531500 1 1e5 Rx d 8 02 ac 04 00 00 00 00 98 
0.533900 1 132 Rx d 6 e7 87 f5 ff 23 40 
0.536200 1 295 Rx d 8 3c 00 a1 ff 00 00 00 01 
0.536700 1 288 Rx d 8 03 11 00 40 80 00 e1 3f 
0.538800 1 340 Rx d 8 08 00 00 00 00 00 00 00 
0.539300 1 211 Rx d 6 9d 1b 71 0d 00 f1 
0.540200 1 118 Rx d 8 fa 67 32 00 00 48 00 00 
0.540700 1 266 Rx d 8 00 00 01 22 00 00 9f 01 
0.540900 1 257 Rx d 8 76 4c 1f 00 02 a0 0f 01 
0.541400 1 1d8 Rx d 8 29 00 00 00 00 00 20 22 
0.542000 1 1e5 Rx d 8 02 ac 04 00 00 00 20 b8 
0.543900 1 132 Rx d 6 e1 87 f5 ff 22 40 
0.548900 1 2a8 Rx d 8 02 11 00 00 06 80 a0 e3 
0.549100 1 545 Rx d 8 02 00 02 00 00 00 d0 1e 
0.550900 1 118 Rx d 8 fb 68 32 00 00 48 00 00 
0.551200 1 1d8 Rx d 8 29 00 00 00 00 00 40 42 
0.551400 1 266 Rx d 8 00 00 01 22 00 00 9f 01 
0.551600 1 1e5 Rx d 8 02 ac 04 00 00 00 40 d8 
0.553900 1 132 Rx d 6 e8 87 f5 ff 20 40 
0.555000 1 428 Rx d 7 00 00 10 10 00 00 00 
0.555600 1 272 Rx d 8 06 00 f1 88 07 48 06 08 
0.559000 1 393 Rx d 8 06 00 f1 88 07 48 06 08 
0.560000 1 118 Rx d 8 fc 69 32 00 00 48 00 00 
0.560300 1 266 Rx d 8 00 00 01 22 00 00 9f 01 
0.560600 1 257 Rx d 8 77 4d 1f 00 02 a0 0f 01 
0.561000 1 108 Rx d 8 24 0c 00 02 00 00 00 0d 
0.561300 1 1d8 Rx d 8 29 00 00 00 00 00 60 62 
0.561500 1 126 Rx d 5 01 b0 1d 60 55 
0.561700 1 1e5 Rx d 8 02 ac 04 00 00 00 60 f8 
0.561900 1 128 Rx d 5 80 02 e4 0a 02 
0.562100 1 1d6 Rx d 8 00 08 04 00 0a 4c 1d 05 
0.562800 1 268 Rx d 5 01 01 f8 00 c0 
0.563600 1 2b6 Rx d 3 00 03 00 
0.564200 1 132 Rx d 6 e5 87 f5 ff 22 40 
0.565200 1 229 Rx d 3 dd 06 00 
0.568100 1 3e2 Rx d 7 00 00 80 2a 00 c0 04 
0.568800 1 22b Rx d 8 ff ff ff ff ff ff ff ff 
0.569300 1 7a8 Rx d 8 02 40 d0 37 4d 07 00 00 
0.570700 1 118 Rx d 8 fd 6a 32 00 00 48 00 00 
0.571200 1 266 Rx d 8 00 00 01 22 00 00 9f 01 
0.571600 1 1d8 Rx d 8 29 00 00 00 00 00 80 82 
0.571800 1 3f5 Rx d 8 00 00 c8 08 82 04 00 00 
0.572100 1 1e5 Rx d 8 02 ac 04 00 00 00 00 98 
0.573000 1 7d7 Rx d 8 32 01 00 00 00 00 00 00 
0.573300 1 228 Rx d 8 03 11 00 40 80 00 e1 df 
0.573900 1 132 Rx d 6 d8 87 f5 ff 24 40 
0.580200 1 118 Rx d 8 fe 6b 32 00 00 48 00 00 
0.580500 1 266 Rx d 8 00 00 01 22 00 00 9f 01 
0.580700 1 257 Rx d 8 78 4e 1f 00 02 a0 0f 01 
0.581100 1 1d8 Rx d 8 29 00 00 00 00 00 a0 a2 
0.581300 1 1e5 Rx d 8 02 ac 04 00 00 00 20 b8 
0.581700 1 545 Rx d 8 20 02 31 30 97 67 e9 b4 
0.583500 1 4e2 Rx d 8 01 c9 06 ff 0f 00 a8 28 
0.583900 1 132 Rx d 6 d7 87 f4 ff 20 40 
0.585600 1 2e8 Rx d 8 02 11 00 00 06 80 80 03 
0.587200 1 295 Rx d 8 50 00 bf ff 00 00 00 02 
0.590700 1 118 Rx d 8 ff 6c 32 00 00 48 00 00 
0.591200 1 266 Rx d 8 00 00 01 22 00 00 9f 01 
0.591400 1 448 Rx d 7 00 00 10 10 00 00 00 
0.591700 1 1d8 Rx d 8 29 00 00 00 00 00 c0 c2 
0.592200 1 1e5 Rx d 8 02 ac 04 00 00 00 40 d8 
0.593900 1 132 Rx d 6 e5 87 f5 ff 22 40 
0.600000 1 118 Rx d 8 00 6d 32 00 00 48 00 00 
0.600300 1 266 Rx d 8 00 00 01 22 00 00 9f 01 
0.600500 1 257 Rx d 8 79 4f 1f 00 02 a0 0f 01 
0.601200 1 1d8 Rx d 8 29 00 00 00 00 00 e0 e2 
0.601400 1 1e5 Rx d 8 02 ac 04 00 00 00 60 f8 
0.604100 1 132 Rx d 6 e4 87 f5 ff 1f 40 
0.606100 1 53e Rx d 8 0d 01 00 00 70 44 a9 31 
0.607700 1 3dd Rx d 8 64 ab 04 00 00 00 00 00 
0.610900 1 118 Rx d 8 01 6e 32 00 00 48 00 00 
0.611100 1 1d8 Rx d 8 29 00 00 00 00 00 00 02 
0.611400 1 266 Rx d 8 00 00 01 22 00 00 9f 01 
0.611600 1 1e5 Rx d 8 02 ac 04 00 00 00 00 98 
0.614000 1 132 Rx d 6 de 87 f5 ff 23 40 
0.615300 1 2b4 Rx d 6 27 05 9c 0d 06 01 
0.617300 1 3c4 Rx d 8 14 06 00 00 dc 15 c0 53 
0.618900 1 22b Rx d 8 ff ff ff ff ff ff ff ff 
0.620100 1 118 Rx d 8 02 6f 32 00 00 48 00 00 
0.620700 1 266 Rx d 8 00 00 01 22 00 00 9f 01 
0.621200 1 257 Rx d 8 6a 40 1f 00 02 a0 0f 01 
0.621700 1 1d8 Rx d 8 29 00 00 00 00 00 20 22 
0.621900 1 1e5 Rx d 8 02 ac 04 00 00 00 20 b8 
0.622600 1 545 Rx d 8 01 00 00 00 00 10 f0 4b 
0.623400 1 666 Rx d 4 00 00 a0 00 
0.624100 1 132 Rx d 6 e0 87 f5 ff 20 40 
0.624400 1 25b Rx d 8 d3 c0 02 05 6a 86 a0 85 
0.630500 1 788 Rx d 8 bc c4 81 63 00 00 8a 00 
0.630800 1 118 Rx d 8 f3 60 32 00 00 48 00 00 
0.631000 1 266 Rx d 8 00 00 01 22 00 00 9f 01 
0.631300 1 1d8 Rx d 8 29 00 00 00 00 00 40 42 
0.631700 1 1e5 Rx d 8 02 ac 04 00 00 00 40 d8 
0.633900 1 132 Rx d 6 df 87 f5 ff 22 40 
0.636600 1 288 Rx d 8 03 11 00 40 80 00 f1 4f 
0.638000 1 295 Rx d 8 1d 2c 00 00 00 00 00 03 
0.639000 1 340 Rx d 8 09 00 00 00 00 00 00 00 
0.639200 1 211 Rx d 6 9e 1c 71 0d 00 f1 
0.640100 1 118 Rx d 8 f4 61 32 00 00 48 00 00 
0.640400 1 266 Rx d 8 00 00 01 22 00 00 9f 01 
0.640600 1 257 Rx d 8 6b 41 1f 00 02 a0 0f 01 
0.641200 1 1d8 Rx d 8 29 00 00 00 00 00 60 62 
0.641900 1 1e5 Rx d 8 02 ac 04 00 00 00 60 f8 
0.643900 1 132 Rx d 6 e4 87 f5 ff 23 40 
0.648100 1 545 Rx d 8 02 00 02 00 00 00 00 4e 
0.648900 1 2a8 Rx d 8 02 11 00 00 06 80 b0 f3 
0.650700 1 118 Rx d 8 f5 62 32 00 00 48 00 00 
0.651000 1 266 Rx d 8 00 00 01 22 00 00 9f 01 
0.651200 1 1d8 Rx d 8 29 00 00 00 00 00 80 82 
0.651500 1 1e5 Rx d 8 02 ac 04 00 00 00 00 98 
0.653900 1 132 Rx d 6 e7 87 f5 ff 23 40 
0.655200 1 428 Rx d 7 00 00 10 10 00 00 00 
0.655700 1 272 Rx d 8 09 80 63 00 00 00 00 00 
0.659000 1 393 Rx d 8 09 80 63 00 00 00 00 00 
0.660000 1 118 Rx d 8 f6 63 32 00 00 48 00 00 
0.660300 1 266 Rx d 8 00 00 01 22 00 00 9f 01 
0.661000 1 257 Rx d 8 6c 42 1f 00 02 a0 0f 01 
0.661300 1 108 Rx d 8 25 0d 00 02 00 00 00 0d 
0.661500 1 1d8 Rx d 8 29 00 00 00 00 00 a0 a2 
0.661700 1 126 Rx d 5 01 b0 1d 68 5d 
0.661900 1 1e5 Rx d 8 02 ac 04 00 00 00 20 b8 
0.662100 1 128 Rx d 5 80 02 e4 0a 02 
0.662400 1 1d6 Rx d 8 00 08 04 00 0a 8c 17 05 
0.663000 1 268 Rx d 5 01 01 f8 00 c0 
0.663900 1 2b6 Rx d 3 00 03 00 
0.664300 1 132 Rx d 6 dd 87 f5 ff 22 40 
0.665200 1 229 Rx d 3 f9 07 00 
0.669000 1 22b Rx d 8 ff ff ff ff ff ff ff ff 
0.669400 1 7a8 Rx d 8 b8 bc 71 63 00 00 82 00 
0.670900 1 118 Rx d 8 f7 64 32 00 00 48 00 00 
0.671400 1 1d8 Rx d 8 29 00 00 00 00 00 c0 c2 
0.671800 1 266 Rx d 8 00 00 01 22 00 00 9f 01 
0.672000 1 3f5 Rx d 8 00 00 c8 08 82 04 00 00 
0.672300 1 1e5 Rx d 8 02 ac 04 00 00 00 40 d8 
0.673500 1 228 Rx d 8 03 11 00 40 80 00 f1 ef 
0.673700 1 7d7 Rx d 8 32 01 00 00 00 00 00 00 
0.673900 1 132 Rx d 6 e1 87 f5 ff 22 40 
0.680100 1 118 Rx d 8 f8 65 32 00 00 48 00 00 
0.680300 1 266 Rx d 8 00 00 01 22 00 00 9f 01 
0.680600 1 257 Rx d 8 6d 43 1f 00 02 a0 0f 01 
0.680800 1 545 Rx d 8 20 02 27 20 97 6a 19 cd 
0.681000 1 1d8 Rx d 8 29 00 00 00 00 00 e0 e2 
0.681300 1 1e5 Rx d 8 02 ac 04 00 00 00 60 f8 
0.683500 1 4e2 Rx d 8 02 a6 03 00 00 00 28 1a 
0.683900 1 132 Rx d 6 d4 87 f5 ff 22 40 
0.685400 1 2e8 Rx d 8 02 11 00 00 06 80 90 13 
0.689200 1 295 Rx d 8 3c 00 a1 ff 00 00 00 04 
0.690700 1 118 Rx d 8 f9 66 32 00 00 48 00 00 
0.691000 1 266 Rx d 8 00 00 01 22 00 00 9f 01 
0.691200 1 1d8 Rx d 8 29 00 00 00 00 00 00 02 
0.691500 1 1e5 Rx d 8 02 ac 04 00 00 00 00 98 
0.691900 1 448 Rx d 7 00 00 10 10 00 00 00 
0.693900 1 132 Rx d 6 d1 87 f5 ff 23 40 
0.700100 1 118 Rx d 8 fa 67 32 00 00 48 00 00 
0.700500 1 266 Rx d 8 00 00 01 22 00 00 9f 01 
0.700800 1 257 Rx d 8 6e 44 1f 00 02 a0 0f 01 
0.701100 1 1d8 Rx d 8 29 00 00 00 00 00 20 22 
0.701400 1 1e5 Rx d 8 02 ac 04 00 00 00 20 b8 
0.704000 1 132 Rx d 6 db 87 f5 ff 24 40 
0.710900 1 118 Rx d 8 fb 68 32 00 00 48 00 00 
0.711100 1 1d8 Rx d 8 29 00 00 00 00 00 40 42 
0.711600 1 266 Rx d 8 00 00 01 22 00 00 9f 01 
0.711800 1 1e5 Rx d 8 02 ac 04 00 00 00 40 d8 
0.714000 1 132 Rx d 6 d9 87 f5 ff 22 40 
0.715300 1 2b4 Rx d 6 26 05 9c 0d 06 01 
0.716300 1 545 Rx d 8 01 00 00 00 00 10 20 7b 
0.718900 1 22b Rx d 8 ff ff ff ff ff ff ff ff 
0.720000 1 118 Rx d 8 fc 69 32 00 00 48 00 00 
0.720200 1 266 Rx d 8 00 00 01 22 00 00 9f 01 
0.720500 1 257 Rx d 8 6f 45 1f 00 02 a0 0f 01 
0.721100 1 1d8 Rx d 8 29 00 00 00 00 00 60 62 
0.721300 1 1e5 Rx d 8 02 ac 04 00 00 00 60 f8 
0.723900 1 132 Rx d 6 e4 87 f5 ff 22 40 
0.724400 1 25b Rx d 8 d3 c0 02 05 6a 86 b0 95 
0.730500 1 788 Rx d 8 01 00 00 00 ff a1 e8 12 
0.730800 1 118 Rx d 8 fd 6a 32 00 00 48 00 00 
0.731000 1 266 Rx d 8 00 00 01 22 00 00 9f 01 
0.731300 1 1d8 Rx d 8 29 00 00 00 00 00 80 82 
0.731500 1 1e5 Rx d 8 02 ac 04 00 00 00 00 98 
0.733900 1 132 Rx d 6 dd 87 f5 ff 22 40 
0.736900 1 288 Rx d 8 03 11 00 40 80 00 01 5f 
0.738800 1 340 Rx d 8 0a 04 00 00 00 00 00 00 
0.739000 1 211 Rx d 6 9f 1d 71 0d 00 f1 
0.740000 1 295 Rx d 8 50 00 bf ff 00 00 00 05 
0.740200 1 118 Rx d 8 fe 6b 32 00 00 48 00 00 
0.740700 1 266 Rx d 8 00 00 01 22 00 00 9f 01 
0.740900 1 257 Rx d 8 70 46 1f 00 02 a0 0f 01 
0.741600 1 1d8 Rx d 8 29 00 00 00 00 00 a0 a2 
0.742100 1 1e5 Rx d 8 02 ac 04 00 00 00 20 b8 
0.743900 1 132 Rx d 6 e3 87 f6 ff 23 40 
0.748100 1 545 Rx d 8 02 00 02 00 00 00 30 7e 
0.748900 1 2a8 Rx d 8 02 11 00 00 06 80 c0 03 
0.750900 1 118 Rx d 8 ff 6c 32 00 00 48 00 00 
0.751100 1 1d8 Rx d 8 29 00 00 00 00 00 c0 c2 
0.751400 1 266 Rx d 8 00 00 01 22 00 00 9f 01 
0.751600 1 1e5 Rx d 8 02 ac 04 00 00 00 40 d8 
0.753900 1 132 Rx d 6 e5 87 f6 ff 22 40 
0.755000 1 428 Rx d 7 00 00 10 10 00 00 00 
0.755600 1 272 Rx d 8 06 00 f1 88 07 48 06 08 
0.759000 1 393 Rx d 8 06 00 f0 88 07 48 06 08 
0.760000 1 118 Rx d 8 00 6d 32 00 00 48 00 00 
0.760300 1 266 Rx d 8 00 00 01 22 00 00 9f 01 
0.760600 1 257 Rx d 8 71 47 1f 00 02 a0 0f 01 
0.761000 1 108 Rx d 8 27 0e 00 02 00 01 00 0d 
0.761300 1 1d8 Rx d 8 29 00 00 00 00 00 e0 e2 
0.761500 1 126 Rx d 5 01 b0 1d 70 65 
0.761700 1 1e5 Rx d 8 02 ac 04 00 00 00 60 f8 
0.761900 1 128 Rx d 5 80 02 e4 0a 02 
0.762400 1 1d6 Rx d 8 00 08 04 00 0a 0c 1f 05 
0.762800 1 268 Rx d 5 01 01 f8 00 c0 
0.763600 1 2b6 Rx d 3 00 03 00 
0.764200 1 132 Rx d 6 d8 87 f4 ff 1f 40 
0.765200 1 229 Rx d 3 4c 08 00 
0.768600 1 3e2 Rx d 7 00 00 80 2a 00 c0 04 
0.770000 1 22b Rx d 8 ff ff ff ff ff ff ff ff 
0.770500 1 7a8 Rx d 8 01 00 00 00 ff a1 e8 12 
0.770900 1 118 Rx d 8 01 6e 32 00 00 48 00 00 
0.771500 1 1d8 Rx d 8 29 00 00 00 00 00 00 02 
0.771800 1 3f5 Rx d 8 00 00 c8 08 82 04 00 00 
0.772000 1 266 Rx d 8 00 00 01 22 00 00 9f 01 
0.772500 1 1e5 Rx d 8 02 ac 04 00 00 00 00 98 
0.773400 1 228 Rx d 8 03 11 00 40 80 00 01 ff 
0.773600 1 7d7 Rx d 8 32 01 00 00 00 00 00 00 
0.774100 1 132 Rx d 6 df 87 f5 ff 23 40 
0.779700 1 545 Rx d 8 20 02 27 00 97 67 49 da 
0.780200 1 118 Rx d 8 02 6f 32 00 00 48 00 00 
0.780700 1 266 Rx d 8 00 00 01 22 00 00 9f 01 
0.780900 1 257 Rx d 8 72 48 1f 00 02 a0 0f 01 
0.781100 1 1d8 Rx d 8 29 00 00 00 00 00 20 22 
0.781500 1 1e5 Rx d 8 02 ac 04 00 00 00 20 b8 
0.783700 1 4e2 Rx d 8 03 00 00 00 00 00 a8 0c 
0.783900 1 132 Rx d 6 d8 87 f4 ff 22 40 
0.785400 1 2e8 Rx d 8 02 11 00 00 06 80 a0 23 
0.790700 1 118 Rx d 8 f3 60 32 00 00 48 00 00 
0.791000 1 266 Rx d 8 00 00 01 22 00 00 9f 01 
0.791200 1 295 Rx d 8 2b 48 00 00 00 00 00 06 
0.791500 1 1d8 Rx d 8 29 00 00 00 00 00 40 42 
0.791700 1 1e5 Rx d 8 02 ac 04 00 00 00 40 d8 
0.792400 1 448 Rx d 7 00 00 10 10 00 00 00 
0.793900 1 132 Rx d 6 e0 87 f5 ff 24 40 
0.800000 1 118 Rx d 8 f4 61 32 00 00 48 00 00 
0.800200 1 266 Rx d 8 00 00 01 22 00 00 9f 01 
0.800500 1 257 Rx d 8 73 49 1f 00 02 a0 0f 01 
0.801200 1 1d8 Rx d 8 29 00 00 00 00 00 60 62 
0.801400 1 1e5 Rx d 8 02 ac 04 00 00 00 60 f8 
0.803900 1 132 Rx d 6 df 87 f5 ff 20 40 
0.810900 1 118 Rx d 8 f5 62 32 00 00 48 00 00 
0.811200 1 1d8 Rx d 8 29 00 00 00 00 00 80 82 
0.811400 1 266 Rx d 8 00 00 01 22 00 00 9f 01 
0.811600 1 1e5 Rx d 8 02 ac 04 00 00 00 00 98 
0.812700 1 545 Rx d 8 01 00 00 00 00 10 50 ab 
0.814000 1 132 Rx d 6 de 87 f5 ff 22 40 
0.815600 1 2b4 Rx d 6 28 05 9c 0d 08 01 
0.818900 1 22b Rx d 8 ff ff ff ff ff ff ff ff 
0.820000 1 118 Rx d 8 f6 63 32 00 00 48 00 00 
0.820500 1 266 Rx d 8 00 00 01 22 00 00 9f 01 
0.820800 1 257 Rx d 8 74 4a 1f 00 02 a0 0f 01 
0.821100 1 1d8 Rx d 8 29 00 00 00 00 00 a0 a2 
0.821600 1 1e5 Rx d 8 02 ac 04 00 00 00 20 b8 
0.823900 1 132 Rx d 6 e7 87 f5 ff 23 40 
0.824100 1 25b Rx d 8 d3 c0 02 05 6a 86 c0 a5 
0.830500 1 788 Rx d 8 02 40 d0 b7 4c 03 00 00 
0.830800 1 118 Rx d 8 f7 64 32 00 00 48 00 00 
0.831300 1 266 Rx d 8 00 00 01 22 00 00 9f 01 
0.831500 1 1d8 Rx d 8 29 00 00 00 00 00 c0 c2 
0.831700 1 1e5 Rx d 8 02 ac 04 00 00 00 40 d8 
0.833900 1 132 Rx d 6 e1 87 f5 ff 24 40 
0.836700 1 288 Rx d 8 03 11 00 40 80 00 11 6f 
0.839000 1 340 Rx d 8 0b 40 00 00 00 00 00 00 
0.839200 1 211 Rx d 6 a0 1e 71 0d 00 f1 
0.840300 1 118 Rx d 8 f8 65 32 00 00 48 00 00 
0.840500 1 266 Rx d 8 00 00 01 22 00 00 9f 01 
0.840700 1 257 Rx d 8 75 4b 1f 00 02 a0 0f 01 
0.841200 1 1d8 Rx d 8 29 00 00 00 00 00 e0 e2 
0.841900 1 1e5 Rx d 8 02 ac 04 00 00 00 60 f8 
0.842400 1 295 Rx d 8 96 00 a1 ff 00 00 00 07 
0.843900 1 132 Rx d 6 f4 87 f5 ff 22 40 
0.845700 1 545 Rx d 8 02 00 02 00 00 00 60 ae 
0.848800 1 2a8 Rx d 8 02 11 00 00 06 80 d0 13 
0.850700 1 118 Rx d 8 f9 66 32 00 00 48 00 00 
0.851000 1 266 Rx d 8 00 00 01 22 00 00 9f 01 
0.851200 1 1d8 Rx d 8 29 00 00 00 00 00 00 02 
0.851500 1 1e5 Rx d 8 02 ac 04 00 00 00 00 98 
0.853900 1 132 Rx d 6 da 87 f5 ff 24 40 
0.855800 1 272 Rx d 8 09 80 63 00 00 00 00 00 
0.856000 1 428 Rx d 7 00 00 10 10 00 00 00 
0.859000 1 393 Rx d 8 09 80 63 00 00 00 00 00 
0.860300 1 118 Rx d 8 fa 67 32 00 00 48 00 00 
0.861000 1 266 Rx d 8 00 00 01 22 00 00 9f 01 
0.861200 1 108 Rx d 8 27 0f 00 02 00 00 00 0d 
0.861500 1 1d8 Rx d 8 29 00 00 00 00 00 20 22 
0.861600 1 126 Rx d 5 01 b0 1d 78 6d 
0.861900 1 257 Rx d 8 76 4c 1f 00 02 a0 0f 01 
0.862100 1 128 Rx d 5 80 02 e4 0a 02 
0.862300 1 1e5 Rx d 8 02 ac 04 00 00 00 20 b8 
0.862600 1 1d6 Rx d 8 00 08 04 00 0a 0c 0d 05 
0.863400 1 268 Rx d 5 01 01 f8 00 c0 
0.864100 1 132 Rx d 6 e1 87 f5 ff 20 40 
0.864700 1 2b6 Rx d 3 00 03 00 
0.864900 1 229 Rx d 3 a5 09 00 
0.868800 1 22b Rx d 8 ff ff ff ff ff ff ff ff 
0.870600 1 666 Rx d 4 00 00 a0 00 
0.870800 1 118 Rx d 8 fb 68 32 00 00 48 00 00 
0.871300 1 266 Rx d 8 00 00 01 22 00 00 9f 01 
0.871700 1 1d8 Rx d 8 29 00 00 00 00 00 40 42 
0.871900 1 3f5 Rx d 8 00 00 c8 08 82 04 00 00 
0.872200 1 1e5 Rx d 8 02 ac 04 00 00 00 40 d8 
0.873100 1 7a8 Rx d 8 02 40 d0 37 4d 07 00 00 
0.873300 1 228 Rx d 8 03 11 00 40 80 00 11 0f 
0.874000 1 132 Rx d 6 e4 87 f5 ff 20 40 
0.875100 1 7d7 Rx d 8 32 01 00 00 00 00 00 00 
0.878900 1 545 Rx d 8 20 02 2c 20 97 6a 79 32 
0.880100 1 118 Rx d 8 fc 69 32 00 00 48 00 00 
0.880600 1 266 Rx d 8 00 00 01 22 00 00 9f 01 
0.880900 1 257 Rx d 8 77 4d 1f 00 02 a0 0f 01 
0.881100 1 1d8 Rx d 8 29 00 00 00 00 00 60 62 
0.881400 1 1e5 Rx d 8 02 ac 04 00 00 00 60 f8 
0.883600 1 4e2 Rx d 8 04 20 20 02 0c c0 00 00 
0.883900 1 132 Rx d 6 de 87 f5 ff 22 40 
0.885400 1 2e8 Rx d 8 02 11 00 00 06 80 b0 33 
0.890700 1 118 Rx d 8 fd 6a 32 00 00 48 00 00 
0.891000 1 266 Rx d 8 00 00 01 22 00 00 9f 01 
0.891200 1 1d8 Rx d 8 29 00 00 00 00 00 80 82 
0.891700 1 1e5 Rx d 8 02 ac 04 00 00 00 00 98 
0.892200 1 448 Rx d 7 00 00 10 10 00 00 00 
0.892500 1 295 Rx d 8 c8 00 ab ff 00 00 00 08 
0.893900 1 132 Rx d 6 e9 87 f5 ff 23 40 
0.900000 1 118 Rx d 8 fe 6b 32 00 00 48 00 00 
0.900300 1 266 Rx d 8 00 00 01 22 00 00 9f 01 
0.900500 1 257 Rx d 8 78 4e 1f 00 02 a0 0f 01 
0.901000 1 1d8 Rx d 8 29 00 00 00 00 00 a0 a2 
0.901200 1 1e5 Rx d 8 02 ac 04 00 00 00 20 b8 
0.904100 1 132 Rx d 6 db 87 f5 ff 1f 40 
0.910900 1 118 Rx d 8 ff 6c 32 00 00 48 00 00 
0.911100 1 1d8 Rx d 8 29 00 00 00 00 00 c0 c2 
0.911600 1 266 Rx d 8 00 00 01 22 00 00 9f 01 
0.911900 1 1e5 Rx d 8 02 ac 04 00 00 00 40 d8 
0.912100 1 545 Rx d 8 01 00 00 00 00 10 80 db 
0.914000 1 132 Rx d 6 e1 87 f5 ff 22 40 
0.915300 1 2b4 Rx d 6 26 05 9c 0d 07 01 
0.918900 1 22b Rx d 8 ff ff ff ff ff ff ff ff 
0.920000 1 118 Rx d 8 00 6d 32 00 00 48 00 00 
0.920200 1 266 Rx d 8 00 00 01 22 00 00 9f 01 
0.920500 1 257 Rx d 8 79 4f 1f 00 02 a0 0f 01 
0.921100 1 1d8 Rx d 8 29 00 00 00 00 00 e0 e2 
0.921300 1 1e5 Rx d 8 02 ac 04 00 00 00 60 f8 
0.923900 1 132 Rx d 6 e0 87 f5 ff 23 40 
0.924800 1 25b Rx d 8 d3 c0 02 05 6a 86 d0 b5 
0.930800 1 118 Rx d 8 01 6e 32 00 00 48 00 00 
0.931000 1 266 Rx d 8 00 00 01 22 00 00 9f 01 
0.931200 1 1d8 Rx d 8 29 00 00 00 00 00 00 02 
0.931500 1 1e5 Rx d 8 02 ac 04 00 00 00 00 98 
0.931700 1 788 Rx d 8 bc c4 81 63 00 00 8a 00 
0.933900 1 132 Rx d 6 df 87 f5 ff 20 40 
0.936600 1 288 Rx d 8 03 11 00 40 80 00 21 7f 
0.938800 1 340 Rx d 8 00 00 00 00 00 00 00 00 
0.939200 1 211 Rx d 6 a1 1f 71 0d 00 f1 
0.940000 1 118 Rx d 8 02 6f 32 00 00 48 00 00 
0.940700 1 266 Rx d 8 00 00 01 22 00 00 9f 01 
0.940900 1 257 Rx d 8 6a 40 1f 00 02 a0 0f 01 
0.941400 1 1d8 Rx d 8 29 00 00 00 00 00 20 22 
0.942000 1 1e5 Rx d 8 02 ac 04 00 00 00 20 b8 
0.943500 1 295 Rx d 8 2b 48 00 00 00 00 00 09 
0.943900 1 132 Rx d 6 d7 87 f5 ff 1f 40 
0.945000 1 545 Rx d 8 02 00 02 00 00 00 90 de 
0.947700 1 70b Rx d 8 03 db d8 e9 ec f2 f1 d4 
0.948900 1 2a8 Rx d 8 02 11 00 00 06 80 e0 23 
0.950900 1 118 Rx d 8 f3 60 32 00 00 48 00 00 
0.951200 1 1d8 Rx d 8 29 00 00 00 00 00 40 42 
0.951400 1 266 Rx d 8 00 00 01 22 00 00 9f 01 
0.951600 1 1e5 Rx d 8 02 ac 04 00 00 00 40 d8 
0.953900 1 132 Rx d 6 dc 87 f5 ff 23 40 
0.955100 1 39b Rx d 8 01 0a df e0 b0 44 11 6d 
0.955300 1 428 Rx d 7 00 00 10 10 00 00 00 
0.955800 1 272 Rx d 8 06 00 f1 88 07 48 06 08 
0.959000 1 393 Rx d 8 06 00 f0 88 07 48 06 08 
0.960000 1 118 Rx d 8 f4 61 32 00 00 48 00 00 
0.960300 1 266 Rx d 8 00 00 01 22 00 00 9f 01 
0.960500 1 257 Rx d 8 6b 41 1f 00 02 a0 0f 01 
0.961000 1 108 Rx d 8 18 00 00 02 00 00 00 0d 
0.961300 1 1d8 Rx d 8 29 00 00 00 00 00 60 62 
0.961400 1 126 Rx d 5 01 b0 1d 00 f5 
0.961700 1 1e5 Rx d 8 02 ac 04 00 00 00 60 f8 
0.961900 1 128 Rx d 5 80 02 e4 0a 02 
0.962200 1 1d6 Rx d 8 00 08 04 00 0a 8c 17 05 
0.962900 1 268 Rx d 5 01 01 f8 00 c0 
0.963800 1 2b6 Rx d 3 00 03 00 
0.964200 1 132 Rx d 6 e8 87 f5 ff 20 40 
0.965200 1 229 Rx d 3 f6 0a 00 
0.967900 1 3e2 Rx d 7 00 00 80 2a 00 c0 04 
0.968800 1 22b Rx d 8 ff ff ff ff ff ff ff ff 
0.970100 1 7a8 Rx d 8 b8 bc 71 63 00 00 82 00 
0.970700 1 118 Rx d 8 f5 62 32 00 00 48 00 00 
0.971200 1 266 Rx d 8 00 00 01 22 00 00 9f 01 
0.971600 1 1d8 Rx d 8 29 00 00 00 00 00 80 82 
0.972000 1 1e5 Rx d 8 02 ac 04 00 00 00 00 98 
0.972500 1 3f5 Rx d 8 00 00 c8 08 82 04 00 00 
0.973500 1 228 Rx d 8 03 11 00 40 80 00 21 1f 
0.973900 1 132 Rx d 6 dd 87 f5 ff 20 40 
0.974100 1 3b6 Rx d 8 b2 6d a2 03 00 00 80 fd 
0.975800 1 3fe Rx d 8 c8 78 c4 11 46 18 01 1b 
0.976500 1 7d7 Rx d 8 32 01 00 00 00 00 00 00 
0.979100 1 545 Rx d 8 20 02 2c 60 97 6a a9 a2 
0.980300 1 118 Rx d 8 f6 63 32 00 00 48 00 00 
0.980800 1 266 Rx d 8 00 00 01 22 00 00 9f 01 
0.981300 1 1d8 Rx d 8 29 00 00 00 00 00 a0 a2 
0.981800 1 257 Rx d 8 6c 42 1f 00 02 a0 0f 01 
0.982200 1 1e5 Rx d 8 02 ac 04 00 00 00 20 b8 
0.983700 1 4e2 Rx d 8 ad 03 66 41 02 00 00 00 
0.983900 1 132 Rx d 6 db 87 f5 ff 22 40 
0.985600 1 2e8 Rx d 8 02 11 00 00 06 80 c0 43 
0.990800 1 118 Rx d 8 f7 64 32 00 00 48 00 00 
0.991200 1 266 Rx d 8 00 00 01 22 00 00 9f 01 
0.991500 1 448 Rx d 7 00 00 10 10 00 00 00 
0.991700 1 1d8 Rx d 8 29 00 00 00 00 00 c0 c2 
0.992200 1 1e5 Rx d 8 02 ac 04 00 00 00 40 d8 
0.993600 1 295 Rx d 8 96 00 a1 ff 00 00 00 0a 
0.994000 1 132 Rx d 6 da 87 f6 ff 23 40 
1.000000 1 118 Rx d 8 f8 65 32 00 00 48 00 00 
1.000300 1 266 Rx d 8 00 00 01 22 00 00 9f 01 
1.000500 1 257 Rx d 8 6d 43 1f 00 02 a0 0f 01 
1.001200 1 1d8 Rx d 8 29 00 00 00 00 00 e0 e2 
1.001500 1 1e5 Rx d 8 02 ac 04 00 00 00 60 f8 
1.004000 1 132 Rx d 6 db 87 f4 ff 22 40 
1.005100 1 310 Rx d 8 0d 03 00 00 18 f1 00 aa 
1.010700 1 545 Rx d 8 01 00 00 00 00 10 b0 0b 
1.010900 1 118 Rx d 8 f9 66 32 00 00 48 00 00 
1.011400 1 1d8 Rx d 8 29 00 00 00 00 00 00 02 
1.011600 1 266 Rx d 8 00 00 01 22 00 00 9f 01 
1.011900 1 1e5 Rx d 8 02 ac 04 00 00 00 00 98 
1.014100 1 132 Rx d 6 dc 87 f5 ff 20 40 
1.015400 1 2b4 Rx d 6 28 05 9c 0d 09 01 
1.019900 1 22b Rx d 8 ff ff ff ff ff ff ff ff 
1.020200 1 118 Rx d 8 fa 67 32 00 00 48 00 00 
1.020800 1 266 Rx d 8 00 00 01 22 00 00 9f 01 
1.021000 1 1d8 Rx d 8 29 00 00 00 00 00 20 22 
1.021300 1 257 Rx d 8 6e 44 1f 00 02 a0 0f 01 
1.021800 1 1e5 Rx d 8 02 ac 04 00 00 00 20 b8 
1.023900 1 132 Rx d 6 d8 87 f5 ff 22 40 
1.024100 1 25b Rx d 8 d3 c0 02 05 6a 86 e0 c5 
1.029800 1 344 Rx d 8 00 00 00 00 00 00 00 47 
1.030900 1 118 Rx d 8 fb 68 32 00 00 48 00 00 
1.031400 1 1d8 Rx d 8 29 00 00 00 00 00 40 42 
1.031900 1 266 Rx d 8 00 00 01 22 00 00 9f 01 
1.032400 1 1e5 Rx d 8 02 ac 04 00 00 00 40 d8 
1.032900 1 788 Rx d 8 01 00 00 00 ff a1 e8 12 
1.033900 1 132 Rx d 6 dd 87 f6 ff 25 40 
1.036600 1 288 Rx d 8 03 11 00 40 80 00 31 8f 
1.039100 1 340 Rx d 8 01 00 00 00 00 00 00 00 
1.039300 1 211 Rx d 6 92 10 71 0d 00 f1 
1.040000 1 118 Rx d 8 fc 69 32 00 00 48 00 00 
1.040200 1 266 Rx d 8 00 00 01 22 00 00 9f 01 
1.040500 1 257 Rx d 8 6f 45 1f 00 02 a0 0f 01 
1.041000 1 1d8 Rx d 8 29 00 00 00 00 00 60 62 
1.041900 1 1e5 Rx d 8 02 ac 04 00 00 00 60 f8 
1.043700 1 545 Rx d 8 02 00 02 00 00 00 c0 0e 
1.043900 1 132 Rx d 6 d8 87 f5 ff 20 40 
1.045100 1 295 Rx d 8 c8 00 ab ff 00 00 00 0b 
1.048900 1 2a8 Rx d 8 02 11 00 00 06 80 f0 33 
1.050700 1 118 Rx d 8 fd 6a 32 00 00 48 00 00 
1.050900 1 266 Rx d 8 00 00 01 22 00 00 9f 01 
1.051200 1 1d8 Rx d 8 29 00 00 00 00 00 80 82 
1.051400 1 1e5 Rx d 8 02 ac 04 00 00 00 00 98 
1.053900 1 132 Rx d 6 e3 87 f5 ff 22 40 
1.055300 1 428 Rx d 7 00 00 10 10 00 00 00 
1.055700 1 272 Rx d 8 09 80 63 00 00 00 00 00 
1.059000 1 393 Rx d 8 09 80 63 00 00 00 00 00 
1.060300 1 118 Rx d 8 fe 6b 32 00 00 48 00 00 
1.061000 1 266 Rx d 8 00 00 01 22 00 00 9f 01 
1.061200 1 108 Rx d 8 17 01 00 02 00 ff ff 0d 
1.061500 1 1d8 Rx d 8 29 00 00 00 00 00 a0 a2 
1.061600 1 126 Rx d 5 01 b0 1d 08 fd 
1.061900 1 257 Rx d 8 70 46 1f 00 02 a0 0f 01 
1.062100 1 128 Rx d 5 80 02 e4 0a 02 
1.062300 1 1e5 Rx d 8 02 ac 04 00 00 00 20 b8 
1.062500 1 1d6 Rx d 8 00 08 04 00 0a 4c 0c 05 
1.063200 1 268 Rx d 5 01 01 f8 00 c0 
1.064100 1 132 Rx d 6 e1 87 f5 ff 20 40 
1.064300 1 2b6 Rx d 3 00 03 00 
1.065500 1 229 Rx d 3 8c 0b 00 
1.069000 1 7a8 Rx d 8 01 00 00 00 ff a1 e8 12 
1.070000 1 22b Rx d 8 ff ff ff ff ff ff ff ff 
1.070700 1 118 Rx d 8 ff 6c 32 00 00 48 00 00 
1.071200 1 266 Rx d 8 00 00 01 22 00 00 9f 01 
1.071600 1 1d8 Rx d 8 29 00 00 00 00 00 c0 c2 
1.072100 1 1e5 Rx d 8 02 ac 04 00 00 00 40 d8 
1.072300 1 3f5 Rx d 8 00 00 c8 08 82 04 00 00 
1.073500 1 228 Rx d 8 03 11 00 40 80 00 31 2f 
1.073800 1 7d7 Rx d 8 32 01 00 00 00 00 00 00 
1.074000 1 132 Rx d 6 e2 87 f5 ff 23 40 
1.077500 1 545 Rx d 8 20 02 2c 50 97 6c d9 c4 
1.080000 1 118 Rx d 8 00 6d 32 00 00 48 00 00 
1.080300 1 266 Rx d 8 00 00 01 22 00 00 9f 01 
1.080500 1 257 Rx d 8 71 47 1f 00 02 a0 0f 01 
1.081000 1 1d8 Rx d 8 29 00 00 00 00 00 e0 e2 
1.081200 1 1e5 Rx d 8 02 ac 04 00 00 00 60 f8 
1.083600 1 4e2 Rx d 8 06 00 00 00 00 00 00 00 
1.083900 1 132 Rx d 6 e4 87 f5 ff 23 40 
1.085400 1 2e8 Rx d 8 02 11 00 00 06 80 d0 53 
1.090800 1 118 Rx d 8 01 6e 32 00 00 48 00 00 
1.091000 1 266 Rx d 8 00 00 01 22 00 00 9f 01 
1.091300 1 1d8 Rx d 8 29 00 00 00 00 00 00 02 
1.091500 1 1e5 Rx d 8 02 ac 04 00 00 00 00 98 
1.091700 1 448 Rx d 7 00 00 10 10 00 00 00 
1.093900 1 132 Rx d 6 e4 87 f5 ff 22 40 
1.100200 1 118 Rx d 8 02 6f 32 00 00 48 00 00 
1.100400 1 266 Rx d 8 00 00 01 22 00 00 9f 01 
1.100700 1 257 Rx d 8 72 48 1f 00 02 a0 0f 01 
1.101000 1 1d8 Rx d 8 29 00 00 00 00 00 20 22 
1.101300 1 1e5 Rx d 8 02 ac 04 00 00 00 20 b8 
1.103900 1 132 Rx d 6 e8 87 f5 ff 22 40 
1.109700 1 545 Rx d 8 01 00 00 00 00 10 e0 3b 
1.110900 1 118 Rx d 8 f3 60 32 00 00 48 00 00 
1.111200 1 1d8 Rx d 8 29 00 00 00 00 00 40 42 
1.111600 1 266 Rx d 8 00 00 01 22 00 00 9f 01 
1.111900 1 1e5 Rx d 8 02 ac 04 00 00 00 40 d8 
1.114100 1 132 Rx d 6 ea 87 f5 ff 25 40 
1.115400 1 2b4 Rx d 6 25 05 9c 0d 04 01 
1.116300 1 3c4 Rx d 8 19 31 31 33 35 35 35 38 
1.116700 1 666 Rx d 4 00 00 a0 00 
1.118900 1 22b Rx d 8 ff ff ff ff ff ff ff ff 
1.120000 1 118 Rx d 8 f4 61 32 00 00 48 00 00 
1.120200 1 266 Rx d 8 00 00 01 22 00 00 9f 01 
1.120400 1 257 Rx d 8 73 49 1f 00 02 a0 0f 01 
1.121100 1 1d8 Rx d 8 29 00 00 00 00 00 60 62 
1.121300 1 1e5 Rx d 8 02 ac 04 00 00 00 60 f8 
1.123900 1 132 Rx d 6 e2 87 f5 ff 22 40 
1.124400 1 25b Rx d 8 d3 c0 02 05 6a 86 f0 d5 
1.130600 1 788 Rx d 8 02 40 ce b7 4c 03 00 00 
1.130800 1 118 Rx d 8 f5 62 32 00 00 48 00 00 
1.131100 1 1d8 Rx d 8 29 00 00 00 00 00 80 82 
1.131300 1 266 Rx d 8 00 00 01 22 00 00 9f 01 
1.131500 1 1e5 Rx d 8 02 ac 04 00 00 00 00 98 
1.133900 1 132 Rx d 6 e9 87 f5 ff 23 40 
1.136600 1 288 Rx d 8 03 11 00 40 80 00 41 9f 
1.138800 1 340 Rx d 8 02 00 00 00 00 00 00 00 
1.139100 1 211 Rx d 6 93 11 71 0d 00 f1 
1.140000 1 118 Rx d 8 f6 63 32 00 00 48 00 00 
1.140700 1 266 Rx d 8 00 00 01 22 00 00 9f 01 
1.140900 1 257 Rx d 8 74 4a 1f 00 02 a0 0f 01 
1.141400 1 1d8 Rx d 8 29 00 00 00 00 00 a0 a2 
1.142000 1 1e5 Rx d 8 02 ac 04 00 00 00 20 b8 
1.143600 1 545 Rx d 8 02 00 03 00 00 00 f0 3f 
1.143900 1 132 Rx d 6 ed 87 f4 ff 20 40 
1.148900 1 2a8 Rx d 8 02 11 00 00 06 80 00 43 
1.150900 1 118 Rx d 8 f7 64 32 00 00 48 00 00 
1.151200 1 1d8 Rx d 8 29 00 00 00 00 00 c0 c2 
1.151400 1 266 Rx d 8 00 00 01 22 00 00 9f 01 
1.151600 1 1e5 Rx d 8 02 ac 04 00 00 00 40 d8 
1.153900 1 132 Rx d 6 ea 87 f5 ff 22 40 
1.155000 1 428 Rx d 7 00 00 10 10 00 00 00 
1.155600 1 272 Rx d 8 06 00 f1 88 07 48 06 08 
1.159000 1 393 Rx d 8 06 00 f0 88 07 48 06 08 
1.160300 1 118 Rx d 8 f8 65 32 00 00 48 00 00 
1.160500 1 266 Rx d 8 00 00 01 22 00 00 9f 01 
1.160700 1 257 Rx d 8 75 4b 1f 00 02 a0 0f 01 
1.161000 1 108 Rx d 8 1a 02 00 02 00 00 00 0d 
1.161200 1 1d8 Rx d 8 29 00 00 00 00 00 e0 e2 
1.161400 1 126 Rx d 5 01 b0 1d 10 05 
1.161700 1 1e5 Rx d 8 02 ac 04 00 00 00 60 f8 
1.161800 1 128 Rx d 5 80 02 e4 0a 02 
1.162300 1 1d6 Rx d 8 00 08 04 00 0a 8c 1d 05 
1.163000 1 268 Rx d 5 01 01 f8 00 c0 
1.163800 1 2b6 Rx d 3 00 03 00 
1.164300 1 132 Rx d 6 e4 87 f5 ff 23 40 
1.165300 1 229 Rx d 3 49 0c 00 
1.168300 1 3e2 Rx d 7 00 00 80 2a 00 c0 04 
1.168800 1 22b Rx d 8 ff ff ff ff ff ff ff ff 
1.170200 1 7a8 Rx d 8 02 40 ca 37 4d 07 00 00 
1.170800 1 118 Rx d 8 f9 66 32 00 00 48 00 00 
1.171200 1 266 Rx d 8 00 00 01 22 00 00 9f 01 
1.171600 1 1d8 Rx d 8 29 00 00 00 00 00 00 02 
1.171800 1 3f5 Rx d 8 00 00 c8 08 82 04 00 00 
1.172100 1 1e5 Rx d 8 02 ac 04 00 00 00 00 98 
1.173300 1 7d7 Rx d 8 32 01 00 00 00 00 00 00 
1.173600 1 228 Rx d 8 03 11 00 40 80 00 41 3f 
1.173900 1 132 Rx d 6 e2 87 f5 ff 23 40 
1.175700 1 545 Rx d 8 20 02 2c 50 97 68 09 f0 
1.180000 1 118 Rx d 8 fa 67 32 00 00 48 00 00 
1.180500 1 266 Rx d 8 00 00 01 22 00 00 9f 01 
1.180700 1 257 Rx d 8 76 4c 1f 00 02 a0 0f 01 
1.181000 1 1d8 Rx d 8 29 00 00 00 00 00 20 22 
1.181200 1 1e5 Rx d 8 02 ac 04 00 00 00 20 b8 
1.183600 1 4e2 Rx d 8 2f 20 00 00 00 00 00 00 
1.183900 1 132 Rx d 6 df 87 f5 ff 22 40 
1.185700 1 2e8 Rx d 8 02 11 00 00 06 80 e0 63 
1.190800 1 118 Rx d 8 fb 68 32 00 00 48 00 00 
1.191000 1 266 Rx d 8 00 00 01 22 00 00 9f 01 
1.191300 1 1d8 Rx d 8 29 00 00 00 00 00 40 42 
1.191700 1 1e5 Rx d 8 02 ac 04 00 00 00 40 d8 
1.192200 1 448 Rx d 7 00 00 10 10 00 00 00 
1.193900 1 132 Rx d 6 e2 87 f5 ff 22 40 
1.200000 1 118 Rx d 8 fc 69 32 00 00 48 00 00 
1.200300 1 266 Rx d 8 00 00 01 22 00 00 9f 01 
1.200500 1 257 Rx d 8 77 4d 1f 00 02 a0 0f 01 
1.201000 1 1d8 Rx d 8 29 00 00 00 00 00 60 62 
1.201200 1 1e5 Rx d 8 02 ac 04 00 00 00 60 f8 
1.204100 1 132 Rx d 6 db 87 f5 ff 22 40 
1.208700 1 545 Rx d 8 01 00 00 00 00 10 10 6b 
1.210700 1 118 Rx d 8 fd 6a 32 00 00 48 00 00 
1.211200 1 266 Rx d 8 00 00 01 22 00 00 9f 01 
1.211400 1 1d8 Rx d 8 29 00 00 00 00 00 80 82 
1.211700 1 1e5 Rx d 8 02 ac 04 00 00 00 00 98 
1.214100 1 132 Rx d 6 e2 87 f5 ff 22 40 
1.215600 1 2a4 Rx d 8 aa 77 7d eb 6b 6f 7d 42 
1.215800 1 2b4 Rx d 6 26 05 9d 0d 08 01 
1.218900 1 22b Rx d 8 ff ff ff ff ff ff ff ff 
1.220000 1 118 Rx d 8 fe 6b 32 00 00 48 00 00 
1.220400 1 266 Rx d 8 00 00 01 22 00 00 9f 01 
1.220800 1 257 Rx d 8 78 4e 1f 00 02 a0 0f 01 
1.221100 1 1d8 Rx d 8 29 00 00 00 00 00 a0 a2 
1.221300 1 1e5 Rx d 8 02 ac 04 00 00 00 20 b8 
1.223900 1 132 Rx d 6 e6 87 f5 ff 23 40 
1.224100 1 25b Rx d 8 d3 c0 02 05 6a 86 00 e5 
1.230600 1 788 Rx d 8 b8 c4 81 63 00 00 8a 00 
1.230800 1 118 Rx d 8 ff 6c 32 00 00 48 00 00 
1.231300 1 1d8 Rx d 8 29 00 00 00 00 00 c0 c2 
1.231600 1 266 Rx d 8 00 00 01 22 00 00 9f 01 
1.231800 1 1e5 Rx d 8 02 ac 04 00 00 00 40 d8 
1.233900 1 132 Rx d 6 eb 87 f5 ff 23 40 
1.236600 1 288 Rx d 8 03 11 00 40 80 00 51 af 
1.239100 1 340 Rx d 8 03 01 00 00 00 00 00 00 
1.239300 1 211 Rx d 6 94 12 71 0d 00 f1 
1.240200 1 118 Rx d 8 00 6d 32 00 00 48 00 00 
1.240500 1 266 Rx d 8 00 00 01 22 00 00 9f 01 
1.240700 1 257 Rx d 8 79 4f 1f 00 02 a0 0f 01 
1.241000 1 1d8 Rx d 8 29 00 00 00 00 00 e0 e2 
1.241900 1 1e5 Rx d 8 02 ac 04 00 00 00 60 f8 
1.242400 1 545 Rx d 8 02 00 03 00 00 00 20 6f 
1.243900 1 132 Rx d 6 f2 87 f5 ff 23 40 
1.248900 1 2a8 Rx d 8 02 11 00 00 06 80 10 53 
1.250900 1 118 Rx d 8 01 6e 32 00 00 48 00 00 
1.251200 1 1d8 Rx d 8 29 00 00 00 00 00 00 02 
1.251400 1 266 Rx d 8 00 00 01 22 00 00 9f 01 
1.251700 1 1e5 Rx d 8 02 ac 04 00 00 00 00 98 
1.253900 1 132 Rx d 6 e2 87 f5 ff 23 40 
1.255300 1 428 Rx d 7 00 00 10 10 00 00 00 
1.255700 1 272 Rx d 8 09 80 63 00 00 00 00 00 
1.259000 1 393 Rx d 8 09 80 63 00 00 00 00 00 
1.260000 1 118 Rx d 8 02 6f 32 00 00 48 00 00 
1.260400 1 266 Rx d 8 00 00 01 22 00 00 9f 01 
1.261100 1 257 Rx d 8 6a 40 1f 00 02 a0 0f 01 
1.261400 1 108 Rx d 8 19 03 00 02 00 ff ff 0d 
1.261600 1 1d8 Rx d 8 29 00 00 00 00 00 20 22 
1.261800 1 126 Rx d 5 01 b0 1d 18 0d 
1.262000 1 1e5 Rx d 8 02 ac 04 00 00 00 20 b8 
1.262200 1 128 Rx d 5 80 02 e4 0a 02 
1.262500 1 1d6 Rx d 8 00 08 04 00 0a 8c 22 05 
1.263300 1 268 Rx d 5 01 01 f8 00 c0 
1.264300 1 132 Rx d 6 dd 87 f5 ff 24 40 
1.264400 1 2b6 Rx d 3 00 03 00 
1.265300 1 229 Rx d 3 2f 0d 00 
1.270000 1 22b Rx d 8 ff ff ff ff ff ff ff ff 
1.270800 1 118 Rx d 8 f3 60 32 00 00 48 00 00 
1.271300 1 266 Rx d 8 00 00 01 22 00 00 9f 01 
1.271600 1 1d8 Rx d 8 29 00 00 00 00 00 40 42 
1.271900 1 3f5 Rx d 8 00 00 c8 08 82 04 00 00 
1.272100 1 1e5 Rx d 8 02 ac 04 00 00 00 40 d8 
1.272600 1 7a8 Rx d 8 b8 bc 71 63 00 00 82 00 
1.273400 1 228 Rx d 8 03 11 00 40 80 00 51 4f 
1.273900 1 132 Rx d 6 ec 87 f5 ff 20 40 
1.274100 1 7d7 Rx d 8 32 01 00 00 00 00 00 00 
1.275100 1 545 Rx d 8 20 02 2c 00 97 67 39 cf 
1.279900 1 118 Rx d 8 f4 61 32 00 00 48 00 00 
1.280200 1 266 Rx d 8 00 00 01 22 00 00 9f 01 
1.280500 1 257 Rx d 8 6b 41 1f 00 02 a0 0f 01 
1.281000 1 1d8 Rx d 8 29 00 00 00 00 00 60 62 
1.281200 1 1e5 Rx d 8 02 ac 04 00 00 00 60 f8 
1.283600 1 4e2 Rx d 8 20 50 02 00 00 00 28 18 
1.284100 1 132 Rx d 6 e9 87 f5 ff 22 40 
1.285700 1 2e8 Rx d 8 02 11 00 00 06 80 f0 73 
1.290800 1 118 Rx d 8 f5 62 32 00 00 48 00 00 
1.291000 1 266 Rx d 8 00 00 01 22 00 00 9f 01 
1.291300 1 1d8 Rx d 8 29 00 00 00 00 00 80 82 
1.291500 1 1e5 Rx d 8 02 ac 04 00 00 00 00 98 
1.291700 1 448 Rx d 7 00 00 10 10 00 00 00 
1.294000 1 132 Rx d 6 db 87 f5 ff 23 40 
1.300200 1 118 Rx d 8 f6 63 32 00 00 48 00 00 
1.300400 1 266 Rx d 8 00 00 01 22 00 00 9f 01 
1.300600 1 257 Rx d 8 6c 42 1f 00 02 a0 0f 01 
1.301000 1 1d8 Rx d 8 29 00 00 00 00 00 a0 a2 
1.301200 1 1e5 Rx d 8 02 ac 04 00 00 00 20 b8 
1.304100 1 132 Rx d 6 de 87 f5 ff 20 40 
1.308100 1 545 Rx d 8 01 00 00 00 00 10 40 9b 
1.310700 1 118 Rx d 8 f7 64 32 00 00 48 00 00 
1.311400 1 266 Rx d 8 00 00 01 22 00 00 9f 01 
1.311600 1 1d8 Rx d 8 29 00 00 00 00 00 c0 c2 
1.311900 1 1e5 Rx d 8 02 ac 04 00 00 00 40 d8 
1.314100 1 132 Rx d 6 eb 87 f4 ff 20 40 
1.315400 1 2b4 Rx d 6 28 05 9c 0d 0b 01 
1.318900 1 22b Rx d 8 ff ff ff ff ff ff ff ff 
1.319900 1 118 Rx d 8 f8 65 32 00 00 48 00 00 
1.320200 1 266 Rx d 8 00 00 01 22 00 00 9f 01 
1.320400 1 257 Rx d 8 6d 43 1f 00 02 a0 0f 01 
1.321100 1 1d8 Rx d 8 29 00 00 00 00 00 e0 e2 
1.321300 1 1e5 Rx d 8 02 ac 04 00 00 00 60 f8 
1.323900 1 132 Rx d 6 d9 87 f5 ff 22 40 
1.325500 1 25b Rx d 8 d3 c0 02 05 6a 86 10 f5 
1.330600 1 788 Rx d 8 01 00 00 00 ff a1 e8 12 
1.330800 1 118 Rx d 8 f9 66 32 00 00 48 00 00 
1.331100 1 1d8 Rx d 8 29 00 00 00 00 00 00 02 
1.331300 1 266 Rx d 8 00 00 01 22 00 00 9f 01 
1.331600 1 1e5 Rx d 8 02 ac 04 00 00 00 00 98 
1.333900 1 132 Rx d 6 e8 87 f5 ff 23 40 
1.336800 1 288 Rx d 8 03 11 00 40 80 00 61 bf 
1.338800 1 340 Rx d 8 04 00 00 00 00 00 00 00 
1.339000 1 211 Rx d 6 95 13 71 0d 00 f1 
1.340100 1 118 Rx d 8 fa 67 32 00 00 48 00 00 
1.340600 1 266 Rx d 8 00 00 01 22 00 00 9f 01 
1.340900 1 257 Rx d 8 6e 44 1f 00 02 a0 0f 01 
1.341300 1 1d8 Rx d 8 29 00 00 00 00 00 20 22 
1.342000 1 1e5 Rx d 8 02 ac 04 00 00 00 20 b8 
1.342500 1 545 Rx d 8 02 00 03 00 00 00 50 9f 
1.343900 1 132 Rx d 6 f0 87 f4 ff 20 40 
1.348900 1 2a8 Rx d 8 02 11 00 00 06 80 20 63 
1.350900 1 118 Rx d 8 fb 68 32 00 00 48 00 00 
1.351200 1 1d8 Rx d 8 29 00 00 00 00 00 40 42 
1.351400 1 266 Rx d 8 00 00 01 22 00 00 9f 01 
1.351700 1 1e5 Rx d 8 02 ac 04 00 00 00 40 d8 
1.353900 1 132 Rx d 6 e7 87 f4 ff 20 40 
1.355000 1 428 Rx d 7 00 00 10 10 00 00 00 
1.355600 1 272 Rx d 8 06 00 f1 88 07 48 06 08 
1.359200 1 393 Rx d 8 06 00 f1 88 07 48 06 08 
1.359900 1 118 Rx d 8 fc 69 32 00 00 48 00 00 
1.360200 1 266 Rx d 8 00 00 01 22 00 00 9f 01 
1.360500 1 257 Rx d 8 6f 45 1f 00 02 a0 0f 01 
1.361000 1 108 Rx d 8 1c 04 00 02 00 00 00 0d 
1.361200 1 1d8 Rx d 8 29 00 00 00 00 00 60 62 
1.361400 1 126 Rx d 5 01 b0 1d 20 15 
1.361700 1 1e5 Rx d 8 02 ac 04 00 00 00 60 f8 
1.361800 1 128 Rx d 5 80 02 e4 0a 02 
1.362100 1 1d6 Rx d 8 00 08 04 00 0a 8c 1a 05 
1.363000 1 268 Rx d 5 01 01 f8 00 c0 
1.363800 1 2b6 Rx d 3 00 03 00 
1.364300 1 132 Rx d 6 ec 87 f5 ff 20 40 
1.364900 1 229 Rx d 3 31 0e 00 
1.367600 1 3e2 Rx d 7 00 00 80 2a 00 c0 04 
1.368500 1 7a8 Rx d 8 01 00 00 00 ff a1 e8 12 
1.368800 1 22b Rx d 8 ff ff ff ff ff ff ff ff 
1.370900 1 118 Rx d 8 fd 6a 32 00 00 48 00 00 
1.371400 1 1d8 Rx d 8 29 00 00 00 00 00 80 82 
1.371700 1 266 Rx d 8 00 00 01 22 00 00 9f 01 
1.372000 1 3f5 Rx d 8 00 00 c8 08 82 04 00 00 
1.372200 1 1e5 Rx d 8 02 ac 04 00 00 00 00 98 
1.372800 1 666 Rx d 4 00 00 a0 00 
1.373000 1 708 Rx d 5 35 25 0e 00 00 
1.373500 1 228 Rx d 8 03 11 00 40 80 00 61 5f 
1.373900 1 132 Rx d 6 e8 87 f5 ff 23 40 
1.374100 1 545 Rx d 8 20 02 31 20 97 6a 69 27 
1.375600 1 7d7 Rx d 8 32 01 00 00 00 00 00 00 
1.380000 1 118 Rx d 8 fe 6b 32 00 00 48 00 00 
1.380200 1 266 Rx d 8 00 00 01 22 00 00 9f 01 
1.380700 1 257 Rx d 8 70 46 1f 00 02 a0 0f 01 
1.381000 1 1d8 Rx d 8 29 00 00 00 00 00 a0 a2 
1.381200 1 1e5 Rx d 8 02 ac 04 00 00 00 20 b8 
1.383600 1 4e2 Rx d 8 01 c9 06 00 00 00 a8 28 
1.383900 1 132 Rx d 6 e9 87 f5 ff 22 40 
1.385700 1 2e8 Rx d 8 02 11 00 00 06 80 00 83 
1.390800 1 118 Rx d 8 ff 6c 32 00 00 48 00 00 
1.391300 1 266 Rx d 8 00 00 01 22 00 00 9f 01 
1.391500 1 1d8 Rx d 8 29 00 00 00 00 00 c0 c2 
1.391700 1 448 Rx d 7 00 00 10 10 00 00 00 
1.392000 1 1e5 Rx d 8 02 ac 04 00 00 00 40 d8 
1.393900 1 132 Rx d 6 e8 87 f5 ff 22 40 
1.400000 1 118 Rx d 8 00 6d 32 00 00 48 00 00 
1.400200 1 266 Rx d 8 00 00 01 22 00 00 9f 01 
1.400400 1 257 Rx d 8 71 47 1f 00 02 a0 0f 01 
1.401000 1 1d8 Rx d 8 29 00 00 00 00 00 e0 e2 
1.401200 1 1e5 Rx d 8 02 ac 04 00 00 00 60 f8 
1.404100 1 132 Rx d 6 e0 87 f5 ff 24 40 
1.407600 1 545 Rx d 8 01 00 00 00 00 10 70 cb 
1.410600 1 118 Rx d 8 01 6e 32 00 00 48 00 00 
1.411100 1 266 Rx d 8 00 00 01 22 00 00 9f 01 
1.411400 1 1d8 Rx d 8 29 00 00 00 00 00 00 02 
1.411600 1 1e5 Rx d 8 02 ac 04 00 00 00 00 98 
1.414100 1 132 Rx d 6 e0 87 f5 ff 22 40 
1.415400 1 2b4 Rx d 6 26 05 9c 0d 01 01 
1.418900 1 22b Rx d 8 ff ff ff ff ff ff ff ff 
1.419900 1 118 Rx d 8 02 6f 32 00 00 48 00 00 
1.420200 1 266 Rx d 8 00 00 01 22 00 00 9f 01 
1.420800 1 257 Rx d 8 72 48 1f 00 02 a0 0f 01 
1.421100 1 1d8 Rx d 8 29 00 00 00 00 00 20 22 
1.421300 1 1e5 Rx d 8 02 ac 04 00 00 00 20 b8 
1.423900 1 132 Rx d 6 f2 87 f5 ff 23 40 
1.424100 1 25b Rx d 8 d3 c0 02 05 6a 86 20 05 
1.430600 1 788 Rx d 8 02 40 cf b7 4c 03 00 00 
1.430800 1 118 Rx d 8 f3 60 32 00 00 48 00 00 
1.431100 1 1d8 Rx d 8 29 00 00 00 00 00 40 42 
1.431600 1 266 Rx d 8 00 00 01 22 00 00 9f 01 
1.432000 1 1e5 Rx d 8 02 ac 04 00 00 00 40 d8 
1.433900 1 132 Rx d 6 e3 87 f5 ff 20 40 
1.436600 1 288 Rx d 8 03 11 00 40 80 00 71 cf 
1.439100 1 340 Rx d 8 05 00 00 00 00 00 00 00 
1.439300 1 211 Rx d 6 96 14 71 0d 00 f1 
1.439900 1 545 Rx d 8 02 00 02 00 00 00 80 ce 
1.440200 1 118 Rx d 8 f4 61 32 00 00 48 00 00 
1.440400 1 266 Rx d 8 00 00 01 22 00 00 9f 01 
1.440600 1 257 Rx d 8 73 49 1f 00 02 a0 0f 01 
1.441000 1 1d8 Rx d 8 29 00 00 00 00 00 60 62 
1.441900 1 1e5 Rx d 8 02 ac 04 00 00 00 60 f8 
1.443900 1 132 Rx d 6 e6 87 f5 ff 22 40 
1.448900 1 2a8 Rx d 8 02 11 00 00 06 80 30 73 
1.450000 1 39b Rx d 8 01 0a df e0 b0 44 21 7d 
1.450700 1 118 Rx d 8 f5 62 32 00 00 48 00 00 
1.450900 1 266 Rx d 8 00 00 01 22 00 00 9f 01 
1.451200 1 1d8 Rx d 8 29 00 00 00 00 00 80 82 
1.451400 1 1e5 Rx d 8 02 ac 04 00 00 00 00 98 
1.453900 1 132 Rx d 6 d9 87 f5 ff 22 40 
1.455300 1 428 Rx d 7 00 00 10 10 00 00 00 
1.455800 1 272 Rx d 8 09 80 63 00 00 00 00 00 
1.459000 1 393 Rx d 8 09 80 63 00 00 00 00 00 
1.460000 1 118 Rx d 8 f6 63 32 00 00 48 00 00 
1.460200 1 266 Rx d 8 00 00 01 22 00 00 9f 01 
1.460500 1 257 Rx d 8 74 4a 1f 00 02 a0 0f 01 
1.461000 1 108 Rx d 8 1e 05 00 02 00 01 00 0d 
1.461200 1 1d8 Rx d 8 29 00 00 00 00 00 a0 a2 
1.461400 1 126 Rx d 5 01 b0 1d 28 1d 
1.461600 1 1e5 Rx d 8 02 ac 04 00 00 00 20 b8 
1.461800 1 128 Rx d 5 80 02 e4 0a 02 
1.462300 1 1d6 Rx d 8 00 08 04 00 0a cc 0a 05 
1.463200 1 268 Rx d 5 01 01 f8 00 c0 
1.464000 1 2b6 Rx d 3 00 03 00 
1.464200 1 132 Rx d 6 dd 87 f5 ff 23 40 
1.465300 1 229 Rx d 3 3b 0f 00 
1.469200 1 7a8 Rx d 8 02 40 cd 37 4d 07 00 00 
1.470300 1 22b Rx d 8 ff ff ff ff ff ff ff ff 
1.470700 1 118 Rx d 8 f7 64 32 00 00 48 00 00 
1.471100 1 266 Rx d 8 00 00 01 22 00 00 9f 01 
1.471700 1 1d8 Rx d 8 29 00 00 00 00 00 c0 c2 
1.472000 1 3f5 Rx d 8 00 00 c8 08 82 04 00 00 
1.472200 1 1e5 Rx d 8 02 ac 04 00 00 00 40 d8 
1.473000 1 545 Rx d 8 20 02 2c 80 97 6b 99 b3 
1.473400 1 228 Rx d 8 03 11 00 40 80 00 71 6f 
1.473700 1 7d7 Rx d 8 32 01 00 00 00 00 00 00 
1.473900 1 132 Rx d 6 e1 87 f5 ff 24 40 
1.480000 1 118 Rx d 8 f8 65 32 00 00 48 00 00 
1.480200 1 266 Rx d 8 00 00 01 22 00 00 9f 01 
1.480500 1 257 Rx d 8 75 4b 1f 00 02 a0 0f 01 
1.481000 1 1d8 Rx d 8 29 00 00 00 00 00 e0 e2 
1.481200 1 1e5 Rx d 8 02 ac 04 00 00 00 60 f8 
1.483700 1 4e2 Rx d 8 02 a6 03 00 00 00 28 1a 
1.483900 1 132 Rx d 6 d8 87 f5 ff 23 40 
1.485700 1 2e8 Rx d 8 02 11 00 00 06 80 10 93 
1.490800 1 118 Rx d 8 f9 66 32 00 00 48 00 00 
1.491000 1 1d8 Rx d 8 29 00 00 00 00 00 00 02 
1.491300 1 266 Rx d 8 00 00 01 22 00 00 9f 01 
1.491500 1 448 Rx d 7 00 00 10 10 00 00 00 
1.491800 1 1e5 Rx d 8 02 ac 04 00 00 00 00 98 
1.493900 1 132 Rx d 6 dc 87 f5 ff 22 40 
1.499900 1 118 Rx d 8 fa 67 32 00 00 48 00 00 
9.500100 1 257 Rx d 8 76 4c 1f 00 02 a0 0f 01 
9.500600 1 1d8 Rx d 8 29 00 00 00 00 00 20 22 
9.500900 1 1e5 Rx d 8 02 ac 04 00 00 00 20 b8 
9.504300 1 132 Rx d 6 ee 87 f5 ff 22 40 
9.510100 1 118 Rx d 8 fb 68 32 00 00 48 00 00 
9.510400 1 266 Rx d 8 00 00 01 22 00 00 9f 01 
9.510600 1 1d8 Rx d 8 29 00 00 00 00 00 40 42 
9.510900 1 1e5 Rx d 8 02 ac 04 00 00 00 40 d8 
9.514200 1 132 Rx d 6 fe 87 f4 ff 22 40 
9.514600 1 2b4 Rx d 6 29 05 9c 0d 0e 01 
9.515900 1 39b Rx d 8 01 0a df e0 b0 44 31 8d 
9.519100 1 22b Rx d 8 ff ff ff ff ff ff ff ff 
9.519800 1 118 Rx d 8 fc 69 32 00 00 48 00 00 
9.520100 1 266 Rx d 8 00 00 01 22 00 00 9f 01 
9.520500 1 257 Rx d 8 77 4d 1f 00 02 a0 0f 01 
9.520800 1 1d8 Rx d 8 29 00 00 00 00 00 60 62 
9.521000 1 1e5 Rx d 8 02 ac 04 00 00 00 60 f8 
9.524100 1 132 Rx d 6 01 88 f4 ff 22 40 
9.524600 1 25b Rx d 8 d3 c0 02 05 6a 86 30 15 
9.525200 1 545 Rx d 8 01 00 00 00 00 10 d0 2b 
9.530100 1 118 Rx d 8 fd 6a 32 00 00 48 00 00 
9.530400 1 266 Rx d 8 00 00 01 22 00 00 9f 01 
9.530600 1 1d8 Rx d 8 29 00 00 00 00 00 80 82 
9.530900 1 1e5 Rx d 8 02 ac 04 00 00 00 00 98 
9.531800 1 788 Rx d 8 02 40 cf b7 4c 03 00 00 
9.534000 1 132 Rx d 6 ed 87 f5 ff 22 40 
9.537300 1 288 Rx d 8 03 11 00 40 80 00 81 df 
9.539400 1 340 Rx d 8 02 00 00 00 00 00 00 00 
9.539600 1 211 Rx d 6 97 15 71 0d 00 f1 
9.539800 1 118 Rx d 8 fe 6b 32 00 00 48 00 00 
9.540200 1 266 Rx d 8 00 00 01 22 00 00 9f 01 
9.540500 1 1d8 Rx d 8 29 00 00 00 00 00 a0 a2 
9.541400 1 257 Rx d 8 78 4e 1f 00 02 a0 0f 01 
9.541900 1 1e5 Rx d 8 02 ac 04 00 00 00 20 b8 
9.544100 1 132 Rx d 6 fb 87 f6 ff 24 40 
9.549500 1 2a8 Rx d 8 02 11 00 00 06 80 40 83 
9.550200 1 118 Rx d 8 ff 6c 32 00 00 48 00 00 
9.550700 1 1d8 Rx d 8 29 00 00 00 00 00 c0 c2 
9.550900 1 266 Rx d 8 00 00 01 22 00 00 9f 01 
9.551200 1 1e5 Rx d 8 02 ac 04 00 00 00 40 d8 
9.554000 1 132 Rx d 6 f4 87 f5 ff 23 40 
9.555400 1 428 Rx d 7 00 00 10 10 00 00 00 
9.556300 1 272 Rx d 8 06 00 f1 88 07 48 06 08 
9.558500 1 545 Rx d 8 02 00 03 00 00 00 e0 2f 
9.559400 1 118 Rx d 8 00 6d 32 00 00 48 00 00 
9.559700 1 393 Rx d 8 06 00 f1 88 07 48 06 08 
9.559900 1 266 Rx d 8 00 00 01 22 00 00 9f 01 
9.560100 1 257 Rx d 8 79 4f 1f 00 02 a0 0f 01 
9.560400 1 108 Rx d 8 1e 06 00 02 00 00 00 0d 
9.560600 1 1d8 Rx d 8 29 00 00 00 00 00 e0 e2 
9.560800 1 126 Rx d 5 01 b0 1d 30 25 
9.561100 1 1e5 Rx d 8 02 ac 04 00 00 00 60 f8 
9.561200 1 128 Rx d 5 80 02 e4 0a 02 
9.561500 1 1d6 Rx d 8 00 08 04 00 0a 8c 14 05 
9.562400 1 268 Rx d 5 01 01 f8 00 c0 
9.563000 1 2b6 Rx d 3 00 03 00 
9.564400 1 132 Rx d 6 f8 87 f5 ff 20 40 
9.565300 1 229 Rx d 3 46 00 00 
9.566800 1 3e2 Rx d 7 00 00 80 2a 00 c0 04 
9.568200 1 7a8 Rx d 8 02 40 cc 37 4d 07 00 00 
9.569300 1 22b Rx d 8 ff ff ff ff ff ff ff ff 
9.570300 1 118 Rx d 8 01 6e 32 00 00 48 00 00 
9.570800 1 1d8 Rx d 8 29 00 00 00 00 00 00 02 
9.571300 1 266 Rx d 8 00 00 01 22 00 00 9f 01 
9.571700 1 1e5 Rx d 8 02 ac 04 00 00 00 00 98 
9.572300 1 3f5 Rx d 8 00 00 c8 08 82 04 00 00 
9.572800 1 7d7 Rx d 8 32 01 00 00 00 00 00 00 
9.574000 1 228 Rx d 8 03 11 00 40 80 00 81 7f 
9.574200 1 132 Rx d 6 ee 87 f5 ff 20 40 
9.579700 1 118 Rx d 8 02 6f 32 00 00 48 00 00 
9.579900 1 266 Rx d 8 00 00 01 22 00 00 9f 01 
9.580100 1 257 Rx d 8 6a 40 1f 00 02 a0 0f 01 
9.580600 1 1d8 Rx d 8 29 00 00 00 00 00 20 22 
9.580900 1 1e5 Rx d 8 02 ac 04 00 00 00 20 b8 
9.584000 1 132 Rx d 6 eb 87 f5 ff 20 40 
9.584300 1 4e2 Rx d 8 03 00 00 00 00 00 a8 0c 
9.586200 1 2e8 Rx d 8 02 11 00 00 06 80 20 a3 
9.590200 1 118 Rx d 8 f3 60 32 00 00 48 00 00 
9.590400 1 266 Rx d 8 00 00 01 22 00 00 9f 01 
9.590600 1 1d8 Rx d 8 29 00 00 00 00 00 40 42 
9.590900 1 1e5 Rx d 8 02 ac 04 00 00 00 40 d8 
9.591600 1 545 Rx d 8 20 02 2c f0 96 62 f9 79 
9.592100 1 448 Rx d 7 00 00 10 10 00 00 00 
9.594100 1 132 Rx d 6 fb 87 f4 ff 22 40 
9.599700 1 118 Rx d 8 f4 61 32 00 00 48 00 00 
9.599900 1 266 Rx d 8 00 00 01 22 00 00 9f 01 
9.600100 1 257 Rx d 8 6b 41 1f 00 02 a0 0f 01 
9.600600 1 1d8 Rx d 8 29 00 00 00 00 00 60 62 
9.600900 1 1e5 Rx d 8 02 ac 04 00 00 00 60 f8 
9.604100 1 132 Rx d 6 ff 87 f5 ff 20 40 
9.606800 1 53e Rx d 8 0b 00 0d 04 01 00 ff ff 
9.608200 1 3dd Rx d 8 64 ab 04 00 00 00 00 00 
9.610300 1 118 Rx d 8 f5 62 32 00 00 48 00 00 
9.610600 1 1d8 Rx d 8 29 00 00 00 00 00 80 82 
9.610800 1 266 Rx d 8 00 00 01 22 00 00 9f 01 
9.611100 1 1e5 Rx d 8 02 ac 04 00 00 00 00 98 
9.614200 1 132 Rx d 6 fd 87 f5 ff 22 40 
9.614600 1 2b4 Rx d 6 28 05 9c 0d 09 01 
9.617100 1 3c4 Rx d 8 11 00 00 00 00 00 00 00 
9.619800 1 118 Rx d 8 f6 63 32 00 00 48 00 00 
9.620000 1 266 Rx d 8 00 00 01 22 00 00 9f 01 
9.620200 1 22b Rx d 8 ff ff ff ff ff ff ff ff 
9.620700 1 257 Rx d 8 6c 42 1f 00 02 a0 0f 01 
9.621000 1 1d8 Rx d 8 29 00 00 00 00 00 a0 a2 
9.621400 1 1e5 Rx d 8 02 ac 04 00 00 00 20 b8 
9.622700 1 666 Rx d 4 00 00 a0 00 
9.624100 1 132 Rx d 6 03 88 f5 ff 23 40 
9.624600 1 545 Rx d 8 01 00 00 00 00 10 00 5b 
9.625600 1 25b Rx d 8 d3 c0 02 05 6a 86 40 25 
9.630100 1 118 Rx d 8 f7 64 32 00 00 48 00 00 
9.630400 1 266 Rx d 8 00 00 01 22 00 00 9f 01 
9.630600 1 1d8 Rx d 8 29 00 00 00 00 00 c0 c2 
9.630900 1 1e5 Rx d 8 02 ac 04 00 00 00 40 d8 
9.631600 1 788 Rx d 8 bc c4 81 63 00 00 8a 00 
9.634100 1 132 Rx d 6 f8 87 f5 ff 23 40 
9.637300 1 288 Rx d 8 03 11 00 40 80 00 91 ef 
9.639600 1 340 Rx d 8 03 01 00 00 00 00 00 00 
9.639900 1 118 Rx d 8 f8 65 32 00 00 48 00 00 
9.640000 1 211 Rx d 6 98 16 71 0d 00 f1 
9.640300 1 266 Rx d 8 00 00 01 22 00 00 9f 01 
9.640800 1 1d8 Rx d 8 29 00 00 00 00 00 e0 e2 
9.641200 1 257 Rx d 8 6d 43 1f 00 02 a0 0f 01 
9.641900 1 1e5 Rx d 8 02 ac 04 00 00 00 60 f8 
9.644000 1 132 Rx d 6 f3 87 f5 ff 23 40 
9.649500 1 2a8 Rx d 8 02 11 00 00 06 80 50 93 
9.650200 1 118 Rx d 8 f9 66 32 00 00 48 00 00 
9.650500 1 1d8 Rx d 8 29 00 00 00 00 00 00 02 
9.650900 1 266 Rx d 8 00 00 01 22 00 00 9f 01 
9.651200 1 1e5 Rx d 8 02 ac 04 00 00 00 00 98 
9.654000 1 132 Rx d 6 05 88 f5 ff 22 40 
9.655700 1 428 Rx d 7 00 00 10 10 00 00 00 
9.656200 1 272 Rx d 8 09 80 63 00 00 00 00 00 
9.657200 1 545 Rx d 8 02 00 03 00 00 00 10 5f 
9.659600 1 393 Rx d 8 09 80 63 00 00 00 00 00 
9.659800 1 118 Rx d 8 fa 67 32 00 00 48 00 00 
9.660100 1 266 Rx d 8 00 00 01 22 00 00 9f 01 
9.660300 1 108 Rx d 8 20 07 00 02 00 01 00 0d 
9.660500 1 257 Rx d 8 6e 44 1f 00 02 a0 0f 01 
9.660700 1 126 Rx d 5 01 b0 1d 38 2d 
9.661000 1 1d8 Rx d 8 29 00 00 00 00 00 20 22 
9.661200 1 128 Rx d 5 80 02 e4 0a 02 
9.661400 1 1e5 Rx d 8 02 ac 04 00 00 00 20 b8 
9.661600 1 1d6 Rx d 8 00 08 04 00 0a 4c 0d 05 
9.662300 1 268 Rx d 5 01 01 f8 00 c0 
9.662700 1 2b6 Rx d 3 00 03 00 
9.664400 1 132 Rx d 6 f5 87 f5 ff 22 40 
9.665200 1 229 Rx d 3 44 01 00 
9.669100 1 22b Rx d 8 ff ff ff ff ff ff ff ff 
9.669600 1 7a8 Rx d 8 b8 bc 71 63 00 00 82 00 
9.670300 1 118 Rx d 8 fb 68 32 00 00 48 00 00 
9.670700 1 1d8 Rx d 8 29 00 00 00 00 00 40 42 
9.671200 1 266 Rx d 8 00 00 01 22 00 00 9f 01 
9.671600 1 1e5 Rx d 8 02 ac 04 00 00 00 40 d8 
9.672200 1 3f5 Rx d 8 00 00 c8 08 82 04 00 00 
9.673200 1 7d7 Rx d 8 32 01 00 00 00 00 00 00 
9.674000 1 228 Rx d 8 03 11 00 40 80 00 91 8f 
9.674200 1 132 Rx d 6 01 88 f5 ff 22 40 
9.679600 1 118 Rx d 8 fc 69 32 00 00 48 00 00 
9.679900 1 266 Rx d 8 00 00 01 22 00 00 9f 01 
9.680100 1 257 Rx d 8 6f 45 1f 00 02 a0 0f 01 
9.680600 1 1d8 Rx d 8 29 00 00 00 00 00 60 62 
9.680800 1 1e5 Rx d 8 02 ac 04 00 00 00 60 f8 
9.684000 1 132 Rx d 6 f3 87 f5 ff 23 40 
9.684800 1 4e2 Rx d 8 04 20 20 02 0c c0 00 00 
9.686200 1 2e8 Rx d 8 02 11 00 00 06 80 30 b3 
9.690100 1 118 Rx d 8 fd 6a 32 00 00 48 00 00 
9.690400 1 266 Rx d 8 00 00 01 22 00 00 9f 01 
9.690600 1 545 Rx d 8 20 02 2c 30 97 6b 29 f3 
9.690900 1 1d8 Rx d 8 29 00 00 00 00 00 80 82 
9.691300 1 1e5 Rx d 8 02 ac 04 00 00 00 00 98 
9.692100 1 448 Rx d 7 00 00 10 10 00 00 00 
9.694100 1 132 Rx d 6 fe 87 f5 ff 22 40 
9.699700 1 118 Rx d 8 fe 6b 32 00 00 48 00 00 
9.700000 1 266 Rx d 8 00 00 01 22 00 00 9f 01 
9.700200 1 257 Rx d 8 70 46 1f 00 02 a0 0f 01 
9.700500 1 1d8 Rx d 8 29 00 00 00 00 00 a0 a2 
9.700700 1 1e5 Rx d 8 02 ac 04 00 00 00 20 b8 
9.704100 1 132 Rx d 6 f6 87 f5 ff 25 40 
9.710100 1 118 Rx d 8 ff 6c 32 00 00 48 00 00 
9.710400 1 266 Rx d 8 00 00 01 22 00 00 9f 01 
9.710600 1 1d8 Rx d 8 29 00 00 00 00 00 c0 c2 
9.710900 1 1e5 Rx d 8 02 ac 04 00 00 00 40 d8 
9.714200 1 132 Rx d 6 ff 87 f5 ff 22 40 
9.714600 1 2b4 Rx d 6 29 05 9d 0d 0a 01 
9.719100 1 22b Rx d 8 ff ff ff ff ff ff ff ff 
9.719900 1 118 Rx d 8 00 6d 32 00 00 48 00 00 
9.720100 1 266 Rx d 8 00 00 01 22 00 00 9f 01 
9.720600 1 257 Rx d 8 71 47 1f 00 02 a0 0f 01 
9.720800 1 1d8 Rx d 8 29 00 00 00 00 00 e0 e2 
9.721100 1 1e5 Rx d 8 02 ac 04 00 00 00 60 f8 
9.723200 1 545 Rx d 8 01 00 00 00 00 10 30 8b 
9.724100 1 132 Rx d 6 ed 87 f5 ff 23 40 
9.724600 1 25b Rx d 8 d3 c0 02 05 6a 86 50 35 
9.730100 1 118 Rx d 8 01 6e 32 00 00 48 00 00 
9.730400 1 266 Rx d 8 00 00 01 22 00 00 9f 01 
9.730600 1 1d8 Rx d 8 29 00 00 00 00 00 00 02 
9.730900 1 1e5 Rx d 8 02 ac 04 00 00 00 00 98 
9.731500 1 788 Rx d 8 01 00 00 00 ff a1 e8 12 
9.734000 1 132 Rx d 6 ee 87 f5 ff 1f 40 
9.737300 1 288 Rx d 8 03 11 00 40 80 00 a1 ff 
9.739400 1 340 Rx d 8 04 00 00 00 00 00 00 00 
9.739800 1 118 Rx d 8 02 6f 32 00 00 48 00 00 
9.740000 1 211 Rx d 6 99 17 71 0d 00 f1 
9.740300 1 266 Rx d 8 00 00 01 22 00 00 9f 01 
9.740500 1 1d8 Rx d 8 29 00 00 00 00 00 20 22 
9.740700 1 257 Rx d 8 72 48 1f 00 02 a0 0f 01 
9.741000 1 1e5 Rx d 8 02 ac 04 00 00 00 20 b8 
9.744100 1 132 Rx d 6 05 88 f5 ff 22 40 
9.749500 1 2a8 Rx d 8 02 11 00 00 06 80 60 a3 
9.750200 1 118 Rx d 8 f3 60 32 00 00 48 00 00 
9.750500 1 1d8 Rx d 8 29 00 00 00 00 00 40 42 
9.750900 1 266 Rx d 8 00 00 01 22 00 00 9f 01 
9.751200 1 1e5 Rx d 8 02 ac 04 00 00 00 40 d8 
9.754100 1 132 Rx d 6 04 88 f5 ff 20 40 
9.755400 1 428 Rx d 7 00 00 10 10 00 00 00 
9.756300 1 272 Rx d 8 06 00 f1 88 07 48 06 08 
9.756500 1 545 Rx d 8 02 00 03 00 00 00 40 8f 
9.759600 1 393 Rx d 8 06 00 f0 88 07 48 06 08 
9.759800 1 118 Rx d 8 f4 61 32 00 00 48 00 00 
9.760100 1 266 Rx d 8 00 00 01 22 00 00 9f 01 
9.760300 1 108 Rx d 8 20 08 00 02 00 00 00 0d 
9.760600 1 257 Rx d 8 73 49 1f 00 02 a0 0f 01 
9.760700 1 126 Rx d 5 01 b0 1d 40 35 
9.761000 1 1d8 Rx d 8 29 00 00 00 00 00 60 62 
9.761200 1 128 Rx d 5 80 02 e4 0a 02 
9.761400 1 1e5 Rx d 8 02 ac 04 00 00 00 60 f8 
9.761600 1 1d6 Rx d 8 00 08 04 00 0a 4c 0c 05 
9.762100 1 268 Rx d 5 01 01 f8 00 c0 
9.763400 1 2b6 Rx d 3 00 03 00 
9.764300 1 132 Rx d 6 f6 87 f5 ff 22 40 
9.765200 1 229 Rx d 3 52 02 00 
9.767200 1 3e2 Rx d 7 00 00 80 2a 00 c0 04 
9.769100 1 7a8 Rx d 8 01 00 00 00 ff a1 e8 12 
9.769300 1 22b Rx d 8 ff ff ff ff ff ff ff ff 
9.770100 1 118 Rx d 8 f5 62 32 00 00 48 00 00 
9.770800 1 266 Rx d 8 00 00 01 22 00 00 9f 01 
9.771300 1 1d8 Rx d 8 29 00 00 00 00 00 80 82 
9.771700 1 1e5 Rx d 8 02 ac 04 00 00 00 00 98 
9.772300 1 3f5 Rx d 8 00 00 c8 08 82 04 00 00 
9.773300 1 7d7 Rx d 8 32 01 00 00 00 00 00 00 
9.774000 1 228 Rx d 8 03 11 00 40 80 00 a1 9f 
9.774200 1 132 Rx d 6 01 88 f4 ff 1f 40 
9.779600 1 118 Rx d 8 f6 63 32 00 00 48 00 00 
9.779900 1 266 Rx d 8 00 00 01 22 00 00 9f 01 
9.780100 1 257 Rx d 8 74 4a 1f 00 02 a0 0f 01 
9.780600 1 1d8 Rx d 8 29 00 00 00 00 00 a0 a2 
9.780800 1 1e5 Rx d 8 02 ac 04 00 00 00 20 b8 
9.784200 1 132 Rx d 6 f7 87 f5 ff 1f 40 
9.784700 1 4e2 Rx d 8 ad 03 66 41 02 00 00 00 
9.786200 1 2e8 Rx d 8 02 11 00 00 06 80 40 c3 
9.789300 1 545 Rx d 8 20 02 31 30 97 6b 59 28 
9.790100 1 118 Rx d 8 f7 64 32 00 00 48 00 00 
9.790400 1 266 Rx d 8 00 00 01 22 00 00 9f 01 
9.790600 1 1d8 Rx d 8 29 00 00 00 00 00 c0 c2 
9.790900 1 1e5 Rx d 8 02 ac 04 00 00 00 40 d8 
9.792100 1 448 Rx d 7 00 00 10 10 00 00 00 
9.794100 1 132 Rx d 6 f8 87 f5 ff 20 40 
9.799700 1 118 Rx d 8 f8 65 32 00 00 48 00 00 
9.799900 1 266 Rx d 8 00 00 01 22 00 00 9f 01 
9.800100 1 257 Rx d 8 75 4b 1f 00 02 a0 0f 01 
9.800600 1 1d8 Rx d 8 29 00 00 00 00 00 e0 e2 
9.800900 1 1e5 Rx d 8 02 ac 04 00 00 00 60 f8 
9.804300 1 132 Rx d 6 ea 87 f5 ff 20 40 
9.810100 1 118 Rx d 8 f9 66 32 00 00 48 00 00 
9.810400 1 266 Rx d 8 00 00 01 22 00 00 9f 01 
9.810600 1 1d8 Rx d 8 29 00 00 00 00 00 00 02 
9.810900 1 1e5 Rx d 8 02 ac 04 00 00 00 00 98 
9.814200 1 132 Rx d 6 f7 87 f5 ff 24 40 
9.814600 1 2b4 Rx d 6 29 05 9c 0d 05 01 
9.819100 1 22b Rx d 8 ff ff ff ff ff ff ff ff 
9.819800 1 118 Rx d 8 fa 67 32 00 00 48 00 00 
9.820100 1 266 Rx d 8 00 00 01 22 00 00 9f 01 
9.820500 1 257 Rx d 8 76 4c 1f 00 02 a0 0f 01 
9.820800 1 1d8 Rx d 8 29 00 00 00 00 00 20 22 
9.821000 1 1e5 Rx d 8 02 ac 04 00 00 00 20 b8 
9.822200 1 545 Rx d 8 01 00 00 00 00 10 60 bb 
9.824100 1 132 Rx d 6 ea 87 f5 ff 1f 40 
9.824500 1 25b Rx d 8 d3 c0 02 05 6a 86 60 45 
9.830100 1 118 Rx d 8 fb 68 32 00 00 48 00 00 
9.830400 1 266 Rx d 8 00 00 01 22 00 00 9f 01 
9.830600 1 1d8 Rx d 8 29 00 00 00 00 00 40 42 
9.830800 1 1e5 Rx d 8 02 ac 04 00 00 00 40 d8 
9.831500 1 788 Rx d 8 02 40 cd b7 4c 03 00 00 
9.834100 1 132 Rx d 6 e2 87 f5 ff 23 40 
9.837300 1 288 Rx d 8 03 11 00 40 80 00 b1 0f 
9.839500 1 211 Rx d 6 9a 18 71 0d 00 f1 
9.839800 1 118 Rx d 8 fc 69 32 00 00 48 00 00 
9.840200 1 266 Rx d 8 00 00 01 22 00 00 9f 01 
9.840500 1 340 Rx d 8 05 00 00 00 00 00 00 00 
9.840700 1 1d8 Rx d 8 29 00 00 00 00 00 60 62 
9.841200 1 257 Rx d 8 77 4d 1f 00 02 a0 0f 01 
9.841500 1 1e5 Rx d 8 02 ac 04 00 00 00 60 f8 
9.844100 1 132 Rx d 6 f6 87 f5 ff 22 40 
9.849500 1 2a8 Rx d 8 02 11 00 00 06 80 70 b3 
9.850200 1 118 Rx d 8 fd 6a 32 00 00 48 00 00 
9.850500 1 1d8 Rx d 8 29 00 00 00 00 00 80 82 
9.851000 1 266 Rx d 8 00 00 01 22 00 00 9f 01 
9.851200 1 1e5 Rx d 8 02 ac 04 00 00 00 00 98 
9.854100 1 132 Rx d 6 fd 87 f5 ff 23 40 
9.855900 1 428 Rx d 7 00 00 10 10 00 00 00 
9.856200 1 272 Rx d 8 09 80 63 00 00 00 00 00 
9.856600 1 545 Rx d 8 02 00 02 00 00 00 70 be 
9.859600 1 393 Rx d 8 09 80 63 00 00 00 00 00 
9.859800 1 118 Rx d 8 fe 6b 32 00 00 48 00 00 
9.860100 1 266 Rx d 8 00 00 01 22 00 00 9f 01 
9.860300 1 108 Rx d 8 21 09 00 02 00 00 00 0d 
9.860600 1 257 Rx d 8 78 4e 1f 00 02 a0 0f 01 
9.860700 1 126 Rx d 5 01 b0 1d 48 3d 
9.861000 1 1d8 Rx d 8 29 00 00 00 00 00 a0 a2 
9.861200 1 128 Rx d 5 80 02 e4 0a 02 
9.861400 1 1e5 Rx d 8 02 ac 04 00 00 00 20 b8 
9.861600 1 1d6 Rx d 8 00 08 04 00 0a 4c 0b 05 
9.862800 1 268 Rx d 5 01 01 f8 00 c0 
9.863600 1 2b6 Rx d 3 00 03 00 
9.864300 1 132 Rx d 6 f8 87 f5 ff 22 40 
9.865200 1 229 Rx d 3 6d 03 00 
9.869800 1 666 Rx d 4 00 00 a0 00 
9.870200 1 118 Rx d 8 ff 6c 32 00 00 48 00 00 
9.870700 1 1d8 Rx d 8 29 00 00 00 00 00 c0 c2 
9.871100 1 22b Rx d 8 ff ff ff ff ff ff ff ff 
9.871600 1 266 Rx d 8 00 00 01 22 00 00 9f 01 
9.872200 1 1e5 Rx d 8 02 ac 04 00 00 00 40 d8 
9.872500 1 3f5 Rx d 8 00 00 c8 08 82 04 00 00 
9.872900 1 7a8 Rx d 8 02 40 cf 37 4d 07 00 00 
9.873900 1 7d7 Rx d 8 32 01 00 00 00 00 00 00 
9.874100 1 132 Rx d 6 f2 87 f5 ff 20 40 
9.874300 1 228 Rx d 8 03 11 00 40 80 00 b1 af 
9.879700 1 118 Rx d 8 00 6d 32 00 00 48 00 00 
9.879900 1 266 Rx d 8 00 00 01 22 00 00 9f 01 
9.880100 1 257 Rx d 8 79 4f 1f 00 02 a0 0f 01 
9.880400 1 1d8 Rx d 8 29 00 00 00 00 00 e0 e2 
9.880600 1 1e5 Rx d 8 02 ac 04 00 00 00 60 f8 
9.884100 1 132 Rx d 6 f4 87 f5 ff 22 40 
9.884500 1 4e2 Rx d 8 06 00 00 00 00 00 00 00 
9.886200 1 2e8 Rx d 8 02 11 00 00 06 80 50 d3 
9.888200 1 545 Rx d 8 20 02 2c 30 97 6b 89 53 
9.890100 1 118 Rx d 8 01 6e 32 00 00 48 00 00 
9.890400 1 266 Rx d 8 00 00 01 22 00 00 9f 01 
9.890600 1 1d8 Rx d 8 29 00 00 00 00 00 00 02 
9.890900 1 1e5 Rx d 8 02 ac 04 00 00 00 00 98 
9.892100 1 448 Rx d 7 00 00 10 10 00 00 00 
9.894100 1 132 Rx d 6 e9 87 f5 ff 22 40 
9.899700 1 118 Rx d 8 02 6f 32 00 00 48 00 00 
9.899900 1 266 Rx d 8 00 00 01 22 00 00 9f 01 
9.900200 1 257 Rx d 8 6a 40 1f 00 02 a0 0f 01 
9.900600 1 1d8 Rx d 8 29 00 00 00 00 00 20 22 
9.900900 1 1e5 Rx d 8 02 ac 04 00 00 00 20 b8 
9.904100 1 132 Rx d 6 f6 87 f5 ff 20 40 
9.910200 1 118 Rx d 8 f3 60 32 00 00 48 00 00 
9.910400 1 266 Rx d 8 00 00 01 22 00 00 9f 01 
9.910600 1 1d8 Rx d 8 29 00 00 00 00 00 40 42 
9.910900 1 1e5 Rx d 8 02 ac 04 00 00 00 40 d8 
9.914200 1 132 Rx d 6 f5 87 f5 ff 22 40 
9.914600 1 2b4 Rx d 6 29 05 9c 0d 06 01 
9.919100 1 22b Rx d 8 ff ff ff ff ff ff ff ff 
9.919800 1 118 Rx d 8 f4 61 32 00 00 48 00 00 
9.920100 1 266 Rx d 8 00 00 01 22 00 00 9f 01 
9.920500 1 257 Rx d 8 6b 41 1f 00 02 a0 0f 01 
9.920800 1 1d8 Rx d 8 29 00 00 00 00 00 60 62 
9.921000 1 1e5 Rx d 8 02 ac 04 00 00 00 60 f8 
9.921900 1 545 Rx d 8 01 00 00 00 00 10 90 eb 
9.924100 1 132 Rx d 6 f7 87 f5 ff 22 40 
9.924800 1 25b Rx d 8 d3 c0 02 05 6a 86 70 55 
9.930100 1 118 Rx d 8 f5 62 32 00 00 48 00 00 
9.930400 1 266 Rx d 8 00 00 01 22 00 00 9f 01 
9.930600 1 1d8 Rx d 8 29 00 00 00 00 00 80 82 
9.930900 1 1e5 Rx d 8 02 ac 04 00 00 00 00 98 
9.931300 1 788 Rx d 8 bc c4 81 63 00 00 8a 00 
9.934100 1 132 Rx d 6 fb 87 f6 ff 22 40 
9.937500 1 288 Rx d 8 03 11 00 40 80 00 c1 1f 
9.939600 1 340 Rx d 8 06 00 00 00 00 00 00 00 
9.939800 1 118 Rx d 8 f6 63 32 00 00 48 00 00 
9.940000 1 211 Rx d 6 9b 19 71 0d 00 f1 
9.940300 1 266 Rx d 8 00 00 01 22 00 00 9f 01 
9.940500 1 1d8 Rx d 8 29 00 00 00 00 00 a0 a2 
9.940700 1 257 Rx d 8 6c 42 1f 00 02 a0 0f 01 
9.941000 1 1e5 Rx d 8 02 ac 04 00 00 00 20 b8 
9.944100 1 132 Rx d 6 fc 87 f5 ff 22 40 
9.948200 1 70b Rx d 8 02 64 c9 00 64 e2 4e 00 
9.949500 1 2a8 Rx d 8 02 11 00 00 06 80 80 c3 
9.950200 1 118 Rx d 8 f7 64 32 00 00 48 00 00 
9.950500 1 1d8 Rx d 8 29 00 00 00 00 00 c0 c2 
9.951000 1 266 Rx d 8 00 00 01 22 00 00 9f 01 
9.951200 1 1e5 Rx d 8 02 ac 04 00 00 00 40 d8 
9.954100 1 132 Rx d 6 ec 87 f5 ff 23 40 
9.954300 1 545 Rx d 8 02 00 02 00 00 00 a0 ee 
9.955500 1 428 Rx d 7 00 00 10 10 00 00 00 
9.956300 1 272 Rx d 8 06 00 f1 88 07 48 06 08 
9.959600 1 393 Rx d 8 06 00 f0 88 07 48 06 08 
9.959900 1 118 Rx d 8 f8 65 32 00 00 48 00 00 
9.960100 1 266 Rx d 8 00 00 01 22 00 00 9f 01 
9.960300 1 108 Rx d 8 20 0a 00 02 00 ff ff 0d 
9.961000 1 257 Rx d 8 6d 43 1f 00 02 a0 0f 01 
9.961200 1 126 Rx d 5 01 b0 1d 50 45 
9.961500 1 1d8 Rx d 8 29 00 00 00 00 00 e0 e2 
9.961700 1 128 Rx d 5 80 02 e4 0a 02 
9.961900 1 1e5 Rx d 8 02 ac 04 00 00 00 60 f8 
9.962100 1 1d6 Rx d 8 00 08 04 00 0a 4c 09 05 
9.962600 1 268 Rx d 5 01 01 f8 00 c0 
9.963400 1 2b6 Rx d 3 00 03 00 
9.964400 1 132 Rx d 6 f9 87 f5 ff 20 40 
9.965200 1 229 Rx d 3 43 04 00 
9.967200 1 3e2 Rx d 7 00 00 80 2a 00 c0 04 
9.968900 1 7a8 Rx d 8 b8 bc 71 63 00 00 82 00 
9.969200 1 22b Rx d 8 ff ff ff ff ff ff ff ff 
9.970200 1 118 Rx d 8 f9 66 32 00 00 48 00 00 
9.970700 1 1d8 Rx d 8 29 00 00 00 00 00 00 02 
9.971100 1 266 Rx d 8 00 00 01 22 00 00 9f 01 
9.971600 1 1e5 Rx d 8 02 ac 04 00 00 00 00 98 
9.972500 1 3f5 Rx d 8 00 00 c8 08 82 04 00 00 
9.973600 1 3b6 Rx d 8 b2 6d a2 03 00 00 10 8d 
9.974100 1 132 Rx d 6 f1 87 f5 ff 23 40 
9.974300 1 228 Rx d 8 03 11 00 40 80 00 c1 bf 
9.975000 1 3fe Rx d 8 c1 71 c4 11 46 18 01 1b 
9.978600 1 7d7 Rx d 8 32 01 00 00 00 00 00 00 
9.979800 1 118 Rx d 8 fa 67 32 00 00 48 00 00 
9.980300 1 266 Rx d 8 00 00 01 22 00 00 9f 01 
9.980800 1 1d8 Rx d 8 29 00 00 00 00 00 20 22 
9.981500 1 257 Rx d 8 6e 44 1f 00 02 a0 0f 01 
9.982000 1 1e5 Rx d 8 02 ac 04 00 00 00 20 b8 
9.984100 1 132 Rx d 6 f2 87 f4 ff 22 40 
9.985100 1 4e2 Rx d 8 2f 20 00 00 00 00 00 00 
9.986200 1 2e8 Rx d 8 02 11 00 00 06 80 60 e3 
9.987200 1 545 Rx d 8 20 02 2c 30 97 6b b9 83 
9.990100 1 118 Rx d 8 fb 68 32 00 00 48 00 00 
9.990400 1 266 Rx d 8 00 00 01 22 00 00 9f 01 
9.990600 1 1d8 Rx d 8 29 00 00 00 00 00 40 42 
9.991100 1 1e5 Rx d 8 02 ac 04 00 00 00 40 d8 
9.992100 1 448 Rx d 7 00 00 10 10 00 00 00 
9.994100 1 132 Rx d 6 f6 87 f4 ff 20 40 
9.999700 1 118 Rx d 8 fc 69 32 00 00 48 00 00 
9.999900 1 266 Rx d 8 00 00 01 22 00 00 9f 01 
10.000200 1 257 Rx d 8 6f 45 1f 00 02 a0 0f 01 
10.000400 1 1d8 Rx d 8 29 00 00 00 00 00 60 62 
10.000700 1 1e5 Rx d 8 02 ac 04 00 00 00 60 f8 
10.004100 1 132 Rx d 6 f4 87 f5 ff 22 40 
10.005400 1 310 Rx d 8 0b 00 04 02 05 00 02 00 
10.009400 1 39b Rx d 8 01 0a df e0 b0 44 41 9d 
10.010100 1 118 Rx d 8 fd 6a 32 00 00 48 00 00 
10.010400 1 266 Rx d 8 00 00 01 22 00 00 9f 01 
10.010600 1 1d8 Rx d 8 29 00 00 00 00 00 80 82 
10.010900 1 1e5 Rx d 8 02 ac 04 00 00 00 00 98 
10.014200 1 132 Rx d 6 fa 87 f5 ff 23 40 
10.014600 1 2b4 Rx d 6 27 05 9c 0d 05 01 
10.019100 1 22b Rx d 8 ff ff ff ff ff ff ff ff 
10.019700 1 118 Rx d 8 fe 6b 32 00 00 48 00 00 
10.019900 1 266 Rx d 8 00 00 01 22 00 00 9f 01 
10.020100 1 257 Rx d 8 70 46 1f 00 02 a0 0f 01 
10.020600 1 1d8 Rx d 8 29 00 00 00 00 00 a0 a2 
10.020900 1 1e5 Rx d 8 02 ac 04 00 00 00 20 b8 
10.022000 1 545 Rx d 8 01 00 00 00 00 10 c0 1b 
10.024100 1 132 Rx d 6 e1 87 f5 ff 22 40 
10.024600 1 25b Rx d 8 d3 c0 02 05 6a 86 80 65 
10.029100 1 344 Rx d 8 00 00 00 00 00 00 20 67 
10.030200 1 118 Rx d 8 ff 6c 32 00 00 48 00 00 
10.030700 1 1d8 Rx d 8 29 00 00 00 00 00 c0 c2 
10.031200 1 266 Rx d 8 00 00 01 22 00 00 9f 01 
10.031800 1 1e5 Rx d 8 02 ac 04 00 00 00 40 d8 
10.032700 1 788 Rx d 8 01 00 00 00 ff a1 e8 12 
10.034100 1 132 Rx d 6 ed 87 f5 ff 22 40 
10.037300 1 288 Rx d 8 03 11 00 40 80 00 d1 2f 
10.039800 1 118 Rx d 8 00 6d 32 00 00 48 00 00 
10.040000 1 211 Rx d 6 9c 1a 71 0d 00 f1 
10.040200 1 266 Rx d 8 00 00 01 22 00 00 9f 01 
10.040500 1 1d8 Rx d 8 29 00 00 00 00 00 e0 e2 
10.040700 1 257 Rx d 8 71 47 1f 00 02 a0 0f 01 
10.041000 1 1e5 Rx d 8 02 ac 04 00 00 00 60 f8 
10.041500 1 340 Rx d 8 07 00 00 00 00 00 00 00 
10.044100 1 132 Rx d 6 f6 87 f5 ff 1f 40 
10.049500 1 2a8 Rx d 8 02 11 00 00 06 80 90 d3 
10.050300 1 118 Rx d 8 01 6e 32 00 00 48 00 00 
10.050500 1 1d8 Rx d 8 29 00 00 00 00 00 00 02 
10.051000 1 266 Rx d 8 00 00 01 22 00 00 9f 01 
10.051200 1 1e5 Rx d 8 02 ac 04 00 00 00 00 98 
10.053200 1 545 Rx d 8 02 00 02 00 00 00 d0 1e 
10.054100 1 132 Rx d 6 fb 87 f5 ff 22 40 
10.055700 1 428 Rx d 7 00 00 10 10 00 00 00 
10.056200 1 272 Rx d 8 09 80 63 00 00 00 00 00 
10.059600 1 393 Rx d 8 09 80 63 00 00 00 00 00 
10.059800 1 118 Rx d 8 02 6f 32 00 00 48 00 00 
10.060100 1 266 Rx d 8 00 00 01 22 00 00 9f 01 
10.060300 1 108 Rx d 8 23 0b 00 02 00 00 00 0d 
10.060600 1 257 Rx d 8 72 48 1f 00 02 a0 0f 01 
10.060700 1 126 Rx d 5 01 b0 1d 58 4d 
10.061000 1 1d8 Rx d 8 29 00 00 00 00 00 20 22 
10.061200 1 128 Rx d 5 80 02 e4 0a 02 
10.061400 1 1e5 Rx d 8 02 ac 04 00 00 00 20 b8 
10.061700 1 1d6 Rx d 8 00 08 04 00 0a 4c 19 05 
10.062800 1 268 Rx d 5 01 01 f8 00 c0 
10.063900 1 2b6 Rx d 3 00 03 00 
10.064300 1 132 Rx d 6 ee 87 f5 ff 20 40 
10.065200 1 229 Rx d 3 41 05 00 
10.068800 1 7a8 Rx d 8 01 00 00 00 ff a1 e8 12 
10.070100 1 118 Rx d 8 f3 60 32 00 00 48 00 00 
10.070800 1 22b Rx d 8 ff ff ff ff ff ff ff ff 
10.071000 1 266 Rx d 8 00 00 01 22 00 00 9f 01 
10.071500 1 1d8 Rx d 8 29 00 00 00 00 00 40 42 
10.072000 1 1e5 Rx d 8 02 ac 04 00 00 00 40 d8 
10.072600 1 3f5 Rx d 8 00 00 c8 08 82 04 00 00 
10.073800 1 7d7 Rx d 8 32 01 00 00 00 00 00 00 
10.074100 1 228 Rx d 8 03 11 00 40 80 00 d1 cf 
10.074300 1 132 Rx d 6 f1 87 f5 ff 22 40 
10.079600 1 118 Rx d 8 f4 61 32 00 00 48 00 00 
10.080100 1 266 Rx d 8 00 00 01 22 00 00 9f 01 
10.080400 1 257 Rx d 8 73 49 1f 00 02 a0 0f 01 
10.080800 1 1d8 Rx d 8 29 00 00 00 00 00 60 62 
10.081100 1 1e5 Rx d 8 02 ac 04 00 00 00 60 f8 
10.084100 1 132 Rx d 6 fd 87 f5 ff 20 40 
10.084500 1 4e2 Rx d 8 20 50 02 00 00 00 28 18 
10.086300 1 2e8 Rx d 8 02 11 00 00 06 80 70 f3 
10.086500 1 545 Rx d 8 70 02 2c 30 97 6b e9 03 
10.090100 1 118 Rx d 8 f5 62 32 00 00 48 00 00 
10.090600 1 266 Rx d 8 00 00 01 22 00 00 9f 01 
10.090900 1 1d8 Rx d 8 29 00 00 00 00 00 80 82 
10.091300 1 1e5 Rx d 8 02 ac 04 00 00 00 00 98 
10.092100 1 448 Rx d 7 00 00 10 10 00 00 00 
10.094100 1 132 Rx d 6 f5 87 f4 ff 20 40 
10.099600 1 118 Rx d 8 f6 63 32 00 00 48 00 00 
10.099900 1 266 Rx d 8 00 00 01 22 00 00 9f 01 
10.100100 1 257 Rx d 8 74 4a 1f 00 02 a0 0f 01 
10.100600 1 1d8 Rx d 8 29 00 00 00 00 00 a0 a2 
10.100900 1 1e5 Rx d 8 02 ac 04 00 00 00 20 b8 
10.104300 1 132 Rx d 6 eb 87 f5 ff 20 40 
10.110100 1 118 Rx d 8 f7 64 32 00 00 48 00 00 
10.110400 1 266 Rx d 8 00 00 01 22 00 00 9f 01 
10.110600 1 1d8 Rx d 8 29 00 00 00 00 00 c0 c2 
10.110900 1 1e5 Rx d 8 02 ac 04 00 00 00 40 d8 
10.114200 1 132 Rx d 6 f0 87 f5 ff 22 40 
10.114400 1 2b4 Rx d 6 27 05 9c 0d 09 01 
10.116300 1 3c4 Rx d 8 12 67 db 31 70 ee c3 47 
10.118400 1 666 Rx d 4 00 00 a0 00 
10.119700 1 118 Rx d 8 f8 65 32 00 00 48 00 00 
10.119900 1 266 Rx d 8 00 00 01 22 00 00 9f 01 
10.120200 1 22b Rx d 8 ff ff ff ff ff ff ff ff 
10.120600 1 257 Rx d 8 75 4b 1f 00 02 a0 0f 01 
10.120900 1 545 Rx d 8 01 00 00 00 00 10 f0 4b 
10.121100 1 1d8 Rx d 8 29 00 00 00 00 00 e0 e2 
10.121400 1 1e5 Rx d 8 02 ac 04 00 00 00 60 f8 
10.124100 1 132 Rx d 6 fa 87 f5 ff 24 40 
10.124600 1 25b Rx d 8 d3 c0 02 05 6a 86 90 75 
10.130100 1 118 Rx d 8 f9 66 32 00 00 48 00 00 
10.130400 1 266 Rx d 8 00 00 01 22 00 00 9f 01 
10.130600 1 1d8 Rx d 8 29 00 00 00 00 00 00 02 
10.130800 1 1e5 Rx d 8 02 ac 04 00 00 00 00 98 
10.131400 1 788 Rx d 8 02 40 d2 b7 4c 03 00 00 
10.134100 1 132 Rx d 6 f4 87 f5 ff 23 40 
10.137500 1 288 Rx d 8 03 11 00 40 80 00 e1 3f 
10.139600 1 340 Rx d 8 08 00 00 00 00 00 00 00 
10.139800 1 118 Rx d 8 fa 67 32 00 00 48 00 00 
10.140000 1 211 Rx d 6 9d 1b 71 0d 00 f1 
10.140300 1 266 Rx d 8 00 00 01 22 00 00 9f 01 
10.140500 1 1d8 Rx d 8 29 00 00 00 00 00 20 22 
10.140800 1 257 Rx d 8 76 4c 1f 00 02 a0 0f 01 
10.141000 1 1e5 Rx d 8 02 ac 04 00 00 00 20 b8 
10.144100 1 132 Rx d 6 fb 87 f5 ff 22 40 
10.149500 1 2a8 Rx d 8 02 11 00 00 06 80 a0 e3 
10.150300 1 118 Rx d 8 fb 68 32 00 00 48 00 00 
10.150500 1 1d8 Rx d 8 29 00 00 00 00 00 40 42 
10.151000 1 266 Rx d 8 00 00 01 22 00 00 9f 01 
10.151200 1 1e5 Rx d 8 02 ac 04 00 00 00 40 d8 
10.152200 1 545 Rx d 8 02 00 02 00 00 00 00 4e 
10.154100 1 132 Rx d 6 07 88 f5 ff 22 40 
10.155500 1 428 Rx d 7 00 00 10 10 00 00 00 
10.156300 1 272 Rx d 8 06 00 f1 88 07 48 06 08 
10.159600 1 118 Rx d 8 fc 69 32 00 00 48 00 00 
10.159800 1 266 Rx d 8 00 00 01 22 00 00 9f 01 
10.160100 1 257 Rx d 8 77 4d 1f 00 02 a0 0f 01 
10.160300 1 108 Rx d 8 24 0c 00 02 00 00 00 0d 
10.160600 1 1d8 Rx d 8 29 00 00 00 00 00 60 62 
10.160800 1 126 Rx d 5 01 b0 1d 60 55 
10.161000 1 1e5 Rx d 8 02 ac 04 00 00 00 60 f8 
10.161200 1 128 Rx d 5 80 02 e4 0a 02 
10.161400 1 1d6 Rx d 8 00 08 04 00 0a cc 17 05 
10.161800 1 268 Rx d 5 01 01 f8 00 c0 
10.162200 1 2b6 Rx d 3 00 03 00 
10.164100 1 393 Rx d 8 06 00 f0 88 07 48 06 08 
10.164300 1 132 Rx d 6 ff 87 f5 ff 22 40 
10.165200 1 229 Rx d 3 dd 06 00 
10.167900 1 3e2 Rx d 7 00 00 80 2a 00 c0 04 
10.169300 1 22b Rx d 8 ff ff ff ff ff ff ff ff 
10.169600 1 7a8 Rx d 8 02 40 d0 37 4d 07 00 00 
10.170200 1 118 Rx d 8 fd 6a 32 00 00 48 00 00 
10.170800 1 266 Rx d 8 00 00 01 22 00 00 9f 01 
10.171300 1 1d8 Rx d 8 29 00 00 00 00 00 80 82 
10.171800 1 1e5 Rx d 8 02 ac 04 00 00 00 00 98 
10.172400 1 3f5 Rx d 8 00 00 c8 08 82 04 00 00 
10.173200 1 7d7 Rx d 8 32 01 00 00 00 00 00 00 
10.174000 1 228 Rx d 8 03 11 00 40 80 00 e1 df 
10.174200 1 132 Rx d 6 fd 87 f5 ff 23 40 
10.179600 1 118 Rx d 8 fe 6b 32 00 00 48 00 00 
10.179900 1 266 Rx d 8 00 00 01 22 00 00 9f 01 
10.180100 1 257 Rx d 8 78 4e 1f 00 02 a0 0f 01 
10.180600 1 1d8 Rx d 8 29 00 00 00 00 00 a0 a2 
10.180800 1 1e5 Rx d 8 02 ac 04 00 00 00 20 b8 
10.184100 1 132 Rx d 6 f9 87 f5 ff 24 40 
10.184500 1 4e2 Rx d 8 01 c9 06 00 00 00 a8 28 
10.185200 1 545 Rx d 8 20 02 2c 60 97 6a 19 12 
10.186300 1 2e8 Rx d 8 02 11 00 00 06 80 80 03 
10.190100 1 118 Rx d 8 ff 6c 32 00 00 48 00 00 
10.190400 1 266 Rx d 8 00 00 01 22 00 00 9f 01 
10.190600 1 1d8 Rx d 8 29 00 00 00 00 00 c0 c2 
10.190800 1 1e5 Rx d 8 02 ac 04 00 00 00 40 d8 
10.192100 1 448 Rx d 7 00 00 10 10 00 00 00 
10.194100 1 132 Rx d 6 e9 87 f5 ff 24 40 
10.199600 1 118 Rx d 8 00 6d 32 00 00 48 00 00 
10.199900 1 266 Rx d 8 00 00 01 22 00 00 9f 01 
10.200100 1 257 Rx d 8 79 4f 1f 00 02 a0 0f 01 
10.200600 1 1d8 Rx d 8 29 00 00 00 00 00 e0 e2 
10.200800 1 1e5 Rx d 8 02 ac 04 00 00 00 60 f8 
10.204300 1 132 Rx d 6 f8 87 f4 ff 20 40 
10.210100 1 118 Rx d 8 01 6e 32 00 00 48 00 00 
10.210400 1 266 Rx d 8 00 00 01 22 00 00 9f 01 
10.210600 1 1d8 Rx d 8 29 00 00 00 00 00 00 02 
10.210800 1 1e5 Rx d 8 02 ac 04 00 00 00 00 98 
10.214200 1 132 Rx d 6 ea 87 f5 ff 22 40 
10.214600 1 2b4 Rx d 6 28 05 9c 0d 09 01 
10.215100 1 2a4 Rx d 8 aa 77 7d eb 6b 7f 7d 42 
10.218200 1 545 Rx d 8 01 00 00 00 00 10 20 7b 
10.219100 1 22b Rx d 8 ff ff ff ff ff ff ff ff 
10.219700 1 118 Rx d 8 02 6f 32 00 00 48 00 00 
10.219900 1 266 Rx d 8 00 00 01 22 00 00 9f 01 
10.220100 1 257 Rx d 8 6a 40 1f 00 02 a0 0f 01 
10.220400 1 1d8 Rx d 8 29 00 00 00 00 00 20 22 
10.220600 1 1e5 Rx d 8 02 ac 04 00 00 00 20 b8 
10.224100 1 132 Rx d 6 ec 87 f5 ff 24 40 
10.224600 1 25b Rx d 8 d3 c0 02 05 6a 86 a0 85 
10.230100 1 118 Rx d 8 f3 60 32 00 00 48 00 00 
10.230400 1 266 Rx d 8 00 00 01 22 00 00 9f 01 
10.230600 1 1d8 Rx d 8 29 00 00 00 00 00 40 42 
10.230800 1 1e5 Rx d 8 02 ac 04 00 00 00 40 d8 
10.231700 1 788 Rx d 8 bc c4 81 63 00 00 8a 00 
10.234100 1 132 Rx d 6 f5 87 f5 ff 1f 40 
10.237400 1 288 Rx d 8 03 11 00 40 80 00 f1 4f 
10.239600 1 211 Rx d 6 9e 1c 71 0d 00 f1 
10.239800 1 118 Rx d 8 f4 61 32 00 00 48 00 00 
10.240300 1 266 Rx d 8 00 00 01 22 00 00 9f 01 
10.240500 1 1d8 Rx d 8 29 00 00 00 00 00 60 62 
10.240800 1 257 Rx d 8 6b 41 1f 00 02 a0 0f 01 
10.241000 1 1e5 Rx d 8 02 ac 04 00 00 00 60 f8 
10.241500 1 340 Rx d 8 09 00 00 00 00 00 00 00 
10.244100 1 132 Rx d 6 fe 87 f5 ff 22 40 
10.249500 1 2a8 Rx d 8 02 11 00 00 06 80 b0 f3 
10.250300 1 118 Rx d 8 f5 62 32 00 00 48 00 00 
10.250500 1 1d8 Rx d 8 29 00 00 00 00 00 80 82 
10.251000 1 266 Rx d 8 00 00 01 22 00 00 9f 01 
10.251200 1 1e5 Rx d 8 02 ac 04 00 00 00 00 98 
10.251700 1 545 Rx d 8 02 00 02 00 00 00 30 7e 
10.254100 1 132 Rx d 6 e8 87 f4 ff 1f 40 
10.255700 1 428 Rx d 7 00 00 10 10 00 00 00 
10.256200 1 272 Rx d 8 09 80 63 00 00 00 00 00 
10.259600 1 118 Rx d 8 f6 63 32 00 00 48 00 00 
10.259800 1 393 Rx d 8 09 80 63 00 00 00 00 00 
10.260100 1 266 Rx d 8 00 00 01 22 00 00 9f 01 
10.260300 1 108 Rx d 8 25 0d 00 02 00 00 00 0d 
10.260500 1 257 Rx d 8 6c 42 1f 00 02 a0 0f 01 
10.260700 1 126 Rx d 5 01 b0 1d 68 5d 
10.261000 1 1d8 Rx d 8 29 00 00 00 00 00 a0 a2 
10.261200 1 128 Rx d 5 80 02 e4 0a 02 
10.261400 1 1e5 Rx d 8 02 ac 04 00 00 00 20 b8 
10.261600 1 1d6 Rx d 8 00 08 04 00 0a 4c 15 05 
10.262800 1 268 Rx d 5 01 01 f8 00 c0 
10.263600 1 2b6 Rx d 3 00 03 00 
10.264400 1 132 Rx d 6 ef 87 f5 ff 1e 40 
10.265200 1 229 Rx d 3 f9 07 00 
10.269800 1 7a8 Rx d 8 b8 bc 71 63 00 00 82 00 
10.270100 1 118 Rx d 8 f7 64 32 00 00 48 00 00 
10.270800 1 22b Rx d 8 ff ff ff ff ff ff ff ff 
10.271100 1 266 Rx d 8 00 00 01 22 00 00 9f 01 
10.271500 1 1d8 Rx d 8 29 00 00 00 00 00 c0 c2 
10.272000 1 1e5 Rx d 8 02 ac 04 00 00 00 40 d8 
10.272400 1 3f5 Rx d 8 00 00 c8 08 82 04 00 00 
10.273900 1 7d7 Rx d 8 32 01 00 00 00 00 00 00 
10.274100 1 228 Rx d 8 03 11 00 40 80 00 f1 ef 
10.274300 1 132 Rx d 6 f6 87 f4 ff 20 40 
10.279600 1 118 Rx d 8 f8 65 32 00 00 48 00 00 
10.279900 1 266 Rx d 8 00 00 01 22 00 00 9f 01 
10.280100 1 257 Rx d 8 6d 43 1f 00 02 a0 0f 01 
10.280400 1 1d8 Rx d 8 29 00 00 00 00 00 e0 e2 
10.280600 1 1e5 Rx d 8 02 ac 04 00 00 00 60 f8 
10.284300 1 132 Rx d 6 f9 87 f5 ff 22 40 
10.285200 1 4e2 Rx d 8 02 a6 03 00 00 00 28 1a 
10.285500 1 545 Rx d 8 20 02 2c 80 97 6b 49 63 
10.286300 1 2e8 Rx d 8 02 11 00 00 06 80 90 13 
10.290100 1 118 Rx d 8 f9 66 32 00 00 48 00 00 
10.290300 1 266 Rx d 8 00 00 01 22 00 00 9f 01 
10.290600 1 1d8 Rx d 8 29 00 00 00 00 00 00 02 
10.290800 1 1e5 Rx d 8 02 ac 04 00 00 00 00 98 
10.292100 1 448 Rx d 7 00 00 10 10 00 00 00 
10.294100 1 132 Rx d 6 fb 87 f5 ff 20 40 
10.299600 1 118 Rx d 8 fa 67 32 00 00 48 00 00 
10.299900 1 266 Rx d 8 00 00 01 22 00 00 9f 01 
10.300400 1 257 Rx d 8 6e 44 1f 00 02 a0 0f 01 
10.300700 1 1d8 Rx d 8 29 00 00 00 00 00 20 22 
10.301000 1 1e5 Rx d 8 02 ac 04 00 00 00 20 b8 
10.304100 1 132 Rx d 6 ff 87 f5 ff 22 40 
10.310100 1 118 Rx d 8 fb 68 32 00 00 48 00 00 
10.310400 1 266 Rx d 8 00 00 01 22 00 00 9f 01 
10.310600 1 1d8 Rx d 8 29 00 00 00 00 00 40 42 
10.310900 1 1e5 Rx d 8 02 ac 04 00 00 00 40 d8 
10.314200 1 132 Rx d 6 ee 87 f5 ff 22 40 
10.314400 1 2b4 Rx d 6 27 05 9c 0d 06 01 
10.317200 1 545 Rx d 8 01 00 00 00 00 10 50 ab 
10.319700 1 118 Rx d 8 fc 69 32 00 00 48 00 00 
10.319900 1 266 Rx d 8 00 00 01 22 00 00 9f 01 
10.320200 1 22b Rx d 8 ff ff ff ff ff ff ff ff 
10.320700 1 257 Rx d 8 6f 45 1f 00 02 a0 0f 01 
10.320900 1 1d8 Rx d 8 29 00 00 00 00 00 60 62 
10.321100 1 1e5 Rx d 8 02 ac 04 00 00 00 60 f8 
10.324100 1 132 Rx d 6 f7 87 f5 ff 25 40 
10.326000 1 25b Rx d 8 d3 c0 02 05 6a 86 b0 95 
10.330100 1 118 Rx d 8 fd 6a 32 00 00 48 00 00 
10.330300 1 266 Rx d 8 00 00 01 22 00 00 9f 01 
10.330600 1 1d8 Rx d 8 29 00 00 00 00 00 80 82 
10.330800 1 1e5 Rx d 8 02 ac 04 00 00 00 00 98 
10.331400 1 788 Rx d 8 01 00 00 00 ff a1 e8 12 
10.334100 1 132 Rx d 6 ec 87 f5 ff 20 40 
10.337500 1 288 Rx d 8 03 11 00 40 80 00 01 5f 
10.339600 1 340 Rx d 8 0a 04 00 00 00 00 00 00 
10.339900 1 118 Rx d 8 fe 6b 32 00 00 48 00 00 
10.340100 1 211 Rx d 6 9f 1d 71 0d 00 f1 
10.340300 1 266 Rx d 8 00 00 01 22 00 00 9f 01 
10.340600 1 1d8 Rx d 8 29 00 00 00 00 00 a0 a2 
10.340800 1 257 Rx d 8 70 46 1f 00 02 a0 0f 01 
10.341000 1 1e5 Rx d 8 02 ac 04 00 00 00 20 b8 
10.344100 1 132 Rx d 6 f4 87 f5 ff 23 40 
10.349500 1 2a8 Rx d 8 02 11 00 00 06 80 c0 03 
10.350100 1 118 Rx d 8 ff 6c 32 00 00 48 00 00 
10.350600 1 266 Rx d 8 00 00 01 22 00 00 9f 01 
10.350800 1 1d8 Rx d 8 29 00 00 00 00 00 c0 c2 
10.351000 1 1e5 Rx d 8 02 ac 04 00 00 00 40 d8 
10.351300 1 545 Rx d 8 02 00 02 00 00 00 60 ae 
10.354100 1 132 Rx d 6 ef 87 f4 ff 20 40 
10.355500 1 428 Rx d 7 00 00 10 10 00 00 00 
10.356300 1 272 Rx d 8 06 00 f1 88 07 48 06 08 
10.359700 1 118 Rx d 8 00 6d 32 00 00 48 00 00 
10.360000 1 266 Rx d 8 00 00 01 22 00 00 9f 01 
10.360200 1 108 Rx d 8 27 0e 00 02 00 01 00 0d 
10.360400 1 257 Rx d 8 71 47 1f 00 02 a0 0f 01 
10.360600 1 126 Rx d 5 01 b0 1d 70 65 
10.360900 1 1d8 Rx d 8 29 00 00 00 00 00 e0 e2 
10.361000 1 128 Rx d 5 80 02 e4 0a 02 
10.361300 1 1e5 Rx d 8 02 ac 04 00 00 00 60 f8 
10.361500 1 1d6 Rx d 8 00 08 04 00 0a 8c 09 05 
10.362400 1 268 Rx d 5 01 01 f8 00 c0 
10.363000 1 2b6 Rx d 3 00 03 00 
10.364200 1 393 Rx d 8 06 00 f0 88 07 48 06 08 
10.364400 1 132 Rx d 6 e8 87 f5 ff 23 40 
10.365300 1 229 Rx d 3 4c 08 00 
10.366600 1 3e2 Rx d 7 00 00 80 2a 00 c0 04 
10.369800 1 666 Rx d 4 00 00 a0 00 
10.370000 1 7a8 Rx d 8 01 00 00 00 ff a1 e8 12 
10.370300 1 118 Rx d 8 01 6e 32 00 00 48 00 00 
10.370700 1 1d8 Rx d 8 29 00 00 00 00 00 00 02 
10.371200 1 22b Rx d 8 ff ff ff ff ff ff ff ff 
10.371400 1 266 Rx d 8 00 00 01 22 00 00 9f 01 
10.371900 1 1e5 Rx d 8 02 ac 04 00 00 00 00 98 
10.372500 1 3f5 Rx d 8 00 00 c8 08 82 04 00 00 
10.373400 1 708 Rx d 5 35 26 0e 00 00 
10.374100 1 132 Rx d 6 f1 87 f5 ff 23 40 
10.374300 1 228 Rx d 8 03 11 00 40 80 00 01 ff 
10.374600 1 7d7 Rx d 8 32 01 00 00 00 00 00 00 
10.379600 1 118 Rx d 8 02 6f 32 00 00 48 00 00 
10.379800 1 266 Rx d 8 00 00 01 22 00 00 9f 01 
10.380100 1 257 Rx d 8 72 48 1f 00 02 a0 0f 01 
10.380500 1 1d8 Rx d 8 29 00 00 00 00 00 20 22 
10.380800 1 1e5 Rx d 8 02 ac 04 00 00 00 20 b8 
10.383600 1 545 Rx d 8 20 02 31 60 97 6a 79 77 
10.384200 1 132 Rx d 6 f8 87 f5 ff 24 40 
10.384500 1 4e2 Rx d 8 03 00 00 00 00 00 a8 0c 
10.386300 1 2e8 Rx d 8 02 11 00 00 06 80 a0 23 
10.390100 1 118 Rx d 8 f3 60 32 00 00 48 00 00 
10.390300 1 266 Rx d 8 00 00 01 22 00 00 9f 01 
10.390600 1 1d8 Rx d 8 29 00 00 00 00 00 40 42 
10.390800 1 1e5 Rx d 8 02 ac 04 00 00 00 40 d8 
10.392100 1 448 Rx d 7 00 00 10 10 00 00 00 
10.394100 1 132 Rx d 6 fb 87 f5 ff 22 40 
10.399600 1 118 Rx d 8 f4 61 32 00 00 48 00 00 
10.399900 1 266 Rx d 8 00 00 01 22 00 00 9f 01 
10.400100 1 257 Rx d 8 73 49 1f 00 02 a0 0f 01 
10.400600 1 1d8 Rx d 8 29 00 00 00 00 00 60 62 
10.400800 1 1e5 Rx d 8 02 ac 04 00 00 00 60 f8 
10.404100 1 132 Rx d 6 f8 87 f5 ff 20 40 
10.410100 1 118 Rx d 8 f5 62 32 00 00 48 00 00 
10.410300 1 266 Rx d 8 00 00 01 22 00 00 9f 01 
10.410600 1 1d8 Rx d 8 29 00 00 00 00 00 80 82 
10.410800 1 1e5 Rx d 8 02 ac 04 00 00 00 00 98 
10.414200 1 132 Rx d 6 f4 87 f5 ff 23 40 
10.414400 1 2b4 Rx d 6 29 05 9c 0d 09 01 
10.416500 1 545 Rx d 8 01 00 00 00 00 10 80 db 
10.419100 1 22b Rx d 8 ff ff ff ff ff ff ff ff 
10.419700 1 118 Rx d 8 f6 63 32 00 00 48 00 00 
10.419900 1 266 Rx d 8 00 00 01 22 00 00 9f 01 
10.420100 1 257 Rx d 8 74 4a 1f 00 02 a0 0f 01 
10.420600 1 1d8 Rx d 8 29 00 00 00 00 00 a0 a2 
10.420900 1 1e5 Rx d 8 02 ac 04 00 00 00 20 b8 
10.424100 1 132 Rx d 6 fc 87 f5 ff 20 40 
10.424600 1 25b Rx d 8 d3 c0 02 05 6a 86 c0 a5 
10.430100 1 118 Rx d 8 f7 64 32 00 00 48 00 00 
10.430300 1 266 Rx d 8 00 00 01 22 00 00 9f 01 
10.430600 1 1d8 Rx d 8 29 00 00 00 00 00 c0 c2 
10.430800 1 1e5 Rx d 8 02 ac 04 00 00 00 40 d8 
10.432000 1 788 Rx d 8 02 40 d0 b7 4c 03 00 00 
10.434100 1 132 Rx d 6 fd 87 f5 ff 20 40 
10.437300 1 288 Rx d 8 03 11 00 40 80 00 11 6f 
10.439500 1 211 Rx d 6 a0 1e 71 0d 00 f1 
10.439700 1 118 Rx d 8 f8 65 32 00 00 48 00 00 
10.440000 1 266 Rx d 8 00 00 01 22 00 00 9f 01 
10.440200 1 257 Rx d 8 75 4b 1f 00 02 a0 0f 01 
10.440400 1 1d8 Rx d 8 29 00 00 00 00 00 e0 e2 
10.440700 1 1e5 Rx d 8 02 ac 04 00 00 00 60 f8 
10.441400 1 340 Rx d 8 0b 40 00 00 00 00 00 00 
10.444100 1 132 Rx d 6 f7 87 f5 ff 22 40 
10.449500 1 2a8 Rx d 8 02 11 00 00 06 80 d0 13 
10.450200 1 118 Rx d 8 f9 66 32 00 00 48 00 00 
10.450600 1 266 Rx d 8 00 00 01 22 00 00 9f 01 
10.450900 1 545 Rx d 8 02 00 02 00 00 00 90 de 
10.451100 1 1d8 Rx d 8 29 00 00 00 00 00 00 02 
10.451300 1 1e5 Rx d 8 02 ac 04 00 00 00 00 98 
10.454100 1 132 Rx d 6 e9 87 f5 ff 22 40 
10.455700 1 428 Rx d 7 00 00 10 10 00 00 00 
10.456200 1 272 Rx d 8 09 80 63 00 00 00 00 00 
10.459600 1 118 Rx d 8 fa 67 32 00 00 48 00 00 
10.459800 1 266 Rx d 8 00 00 01 22 00 00 9f 01 
10.460000 1 257 Rx d 8 76 4c 1f 00 02 a0 0f 01 
10.460300 1 108 Rx d 8 27 0f 00 02 00 00 00 0d 
10.460500 1 1d8 Rx d 8 29 00 00 00 00 00 20 22 
10.460700 1 126 Rx d 5 01 b0 1d 78 6d 
10.461000 1 1e5 Rx d 8 02 ac 04 00 00 00 20 b8 
10.461100 1 128 Rx d 5 80 02 e4 0a 02 
10.461600 1 1d6 Rx d 8 00 08 04 00 0a cc 1c 05 
10.462000 1 268 Rx d 5 01 01 f8 00 c0 
10.463700 1 2b6 Rx d 3 00 03 00 
10.464400 1 132 Rx d 6 f2 87 f5 ff 22 40 
10.465400 1 229 Rx d 3 a5 09 00 
10.465600 1 393 Rx d 8 09 80 63 00 00 00 00 00 
10.469300 1 22b Rx d 8 ff ff ff ff ff ff ff ff 
10.469500 1 7a8 Rx d 8 02 40 cc 37 4d 07 00 00 
10.470100 1 118 Rx d 8 fb 68 32 00 00 48 00 00 
10.470800 1 266 Rx d 8 00 00 01 22 00 00 9f 01 
10.471300 1 1d8 Rx d 8 29 00 00 00 00 00 40 42 
10.471700 1 1e5 Rx d 8 02 ac 04 00 00 00 40 d8 
10.472400 1 3f5 Rx d 8 00 00 c8 08 82 04 00 00 
10.473300 1 7d7 Rx d 8 32 01 00 00 00 00 00 00 
10.474100 1 228 Rx d 8 03 11 00 40 80 00 11 0f 
10.474300 1 132 Rx d 6 fc 87 f5 ff 22 40 
10.479600 1 118 Rx d 8 fc 69 32 00 00 48 00 00 
10.479800 1 266 Rx d 8 00 00 01 22 00 00 9f 01 
10.480100 1 257 Rx d 8 77 4d 1f 00 02 a0 0f 01 
10.480600 1 1d8 Rx d 8 29 00 00 00 00 00 60 62 
10.480800 1 1e5 Rx d 8 02 ac 04 00 00 00 60 f8 
10.481200 1 295 Rx d 8 1d 2c 00 00 00 00 00 00 
10.482200 1 545 Rx d 8 20 02 31 50 97 6c a9 99 
10.484200 1 132 Rx d 6 00 88 f5 ff 20 40 
10.484500 1 4e2 Rx d 8 04 20 20 02 0d c0 00 00 
10.486300 1 2e8 Rx d 8 02 11 00 00 06 80 b0 33 
10.490100 1 118 Rx d 8 fd 6a 32 00 00 48 00 00 
10.490300 1 266 Rx d 8 00 00 01 22 00 00 9f 01 
10.490600 1 1d8 Rx d 8 29 00 00 00 00 00 80 82 
10.490800 1 1e5 Rx d 8 02 ac 04 00 00 00 00 98 
10.492100 1 448 Rx d 7 00 00 10 10 00 00 00 
10.494100 1 132 Rx d 6 f2 87 f5 ff 20 40 
10.499600 1 118 Rx d 8 fe 6b 32 00 00 48 00 00 
10.499900 1 266 Rx d 8 00 00 01 22 00 00 9f 01 
10.500100 1 257 Rx d 8 78 4e 1f 00 02 a0 0f 01 
10.500600 1 1d8 Rx d 8 29 00 00 00 00 00 a0 a2 
10.500800 1 1e5 Rx d 8 02 ac 04 00 00 00 20 b8 
10.504100 1 132 Rx d 6 f9 87 f5 ff 23 40 
10.505500 1 39b Rx d 8 01 0a df e0 b0 44 51 ad 
10.510100 1 118 Rx d 8 ff 6c 32 00 00 48 00 00 
10.510300 1 266 Rx d 8 00 00 01 22 00 00 9f 01 
10.510800 1 1d8 Rx d 8 29 00 00 00 00 00 c0 c2 
10.511100 1 1e5 Rx d 8 02 ac 04 00 00 00 40 d8 
10.514200 1 132 Rx d 6 f5 87 f5 ff 20 40 
10.514400 1 2b4 Rx d 6 29 05 9c 0d 01 01 
10.516200 1 545 Rx d 8 01 00 00 00 00 10 b0 0b 
10.519100 1 22b Rx d 8 ff ff ff ff ff ff ff ff 
10.519600 1 118 Rx d 8 00 6d 32 00 00 48 00 00 
10.520100 1 266 Rx d 8 00 00 01 22 00 00 9f 01 
10.520400 1 1d8 Rx d 8 29 00 00 00 00 00 e0 e2 
10.520800 1 257 Rx d 8 79 4f 1f 00 02 a0 0f 01 
10.521100 1 1e5 Rx d 8 02 ac 04 00 00 00 60 f8 
10.524100 1 132 Rx d 6 f4 87 f5 ff 22 40 
10.525900 1 25b Rx d 8 d3 c0 02 05 6a 86 d0 b5 
10.530100 1 118 Rx d 8 01 6e 32 00 00 48 00 00 
10.530300 1 266 Rx d 8 00 00 01 22 00 00 9f 01 
10.530600 1 1d8 Rx d 8 29 00 00 00 00 00 00 02 
10.530800 1 1e5 Rx d 8 02 ac 04 00 00 00 00 98 
