date Thu Aug 27 02:03:03 PM 2026
base hex timestamps absolute
// version 7.0.0
39.500200 1 25b Rx d 8 d3 c0 02 05 6a 86 20 05 
39.501900 1 39d Rx d 5 5d 60 35 28 00 
39.509400 1 1e5 Rx d 8 02 ac 04 00 00 00 00 98 
39.514900 1 3ae Rx d 8 fb 3f 00 08 00 00 50 93 
39.519100 1 1e5 Rx d 8 02 ac 04 00 00 00 20 b8 
39.528000 1 2a8 Rx d 8 02 11 00 00 06 80 d0 13 
39.529200 1 1e5 Rx d 8 02 ac 04 00 00 00 40 d8 
39.535500 1 3ae Rx d 8 fb 3f 00 08 00 00 61 a4 
39.538300 1 1e5 Rx d 8 02 ac 04 00 00 00 60 f8 
39.541900 1 39d Rx d 5 5e 61 35 28 00 
39.549000 1 1e5 Rx d 8 02 ac 04 00 00 00 00 98 
39.555100 1 2a4 Rx d 8 ad 87 fd eb 71 9f 7d 42 
39.555200 1 364 Rx d 4 00 82 64 1f 
39.558400 1 1e5 Rx d 8 02 ac 04 00 00 00 20 b8 
39.569200 1 1e5 Rx d 8 02 ac 04 00 00 00 40 d8 
39.576500 1 3ae Rx d 8 fb 3f 00 08 00 00 71 b4 
39.578300 1 1e5 Rx d 8 02 ac 04 00 00 00 60 f8 
39.581900 1 39d Rx d 5 5f 62 35 28 00 
39.589400 1 1e5 Rx d 8 02 ac 04 00 00 00 00 98 
39.598900 1 1e5 Rx d 8 02 ac 04 00 00 00 20 b8 
39.599900 1 25b Rx d 8 d3 c0 02 05 6a 86 30 15 
39.609400 1 1e5 Rx d 8 02 ac 04 00 00 00 40 d8 
39.615100 1 3ae Rx d 8 fb 3f 00 08 00 00 81 c4 
39.619100 1 1e5 Rx d 8 02 ac 04 00 00 00 60 f8 
39.621800 1 39d Rx d 5 60 63 35 28 00 
39.628500 1 2a8 Rx d 8 02 11 00 00 06 80 e0 23 
39.629200 1 1e5 Rx d 8 02 ac 04 00 00 00 00 98 
39.635300 1 3ae Rx d 8 fb 3f 00 08 00 00 90 d3 
39.638300 1 1e5 Rx d 8 02 ac 04 00 00 00 20 b8 
39.649000 1 1e5 Rx d 8 02 ac 04 00 00 00 40 d8 
39.658400 1 1e5 Rx d 8 02 ac 04 00 00 00 60 f8 
39.661900 1 39d Rx d 5 61 64 35 28 00 
39.669500 1 1e5 Rx d 8 02 ac 04 00 00 00 00 98 
39.676700 1 3ae Rx d 8 fb 3f 00 08 00 00 a0 e3 
39.678300 1 1e5 Rx d 8 02 ac 04 00 00 00 20 b8 
39.689200 1 1e5 Rx d 8 02 ac 04 00 00 00 40 d8 
39.698900 1 1e5 Rx d 8 02 ac 04 00 00 00 60 f8 
39.700000 1 25b Rx d 8 d3 c0 02 05 6a 86 40 25 
39.702100 1 39d Rx d 5 62 65 35 28 00 
39.709400 1 1e5 Rx d 8 02 ac 04 00 00 00 00 98 
39.714900 1 3ae Rx d 8 fb 3f 00 08 00 00 b0 f3 
39.719100 1 1e5 Rx d 8 02 ac 04 00 00 00 20 b8 
39.723700 1 295 Rx d 8 1d 2c 00 00 00 00 00 00 
39.728500 1 2a8 Rx d 8 02 11 00 00 06 80 f0 33 
39.729200 1 1e5 Rx d 8 02 ac 04 00 00 00 40 d8 
39.735300 1 3ae Rx d 8 fb 3f 00 08 00 00 c1 04 
39.738300 1 1e5 Rx d 8 02 ac 04 00 00 00 60 f8 
39.741900 1 39d Rx d 5 63 66 35 28 00 
39.749300 1 1e5 Rx d 8 02 ac 04 00 00 00 00 98 
39.758400 1 1e5 Rx d 8 02 ac 04 00 00 00 20 b8 
39.769400 1 1e5 Rx d 8 02 ac 04 00 00 00 40 d8 
39.774500 1 295 Rx d 8 3c 00 a1 ff 00 00 00 01 
39.776500 1 3ae Rx d 8 fb 3f 00 08 00 00 d1 14 
39.778300 1 1e5 Rx d 8 02 ac 04 00 00 00 60 f8 
39.782000 1 39d Rx d 5 64 67 35 28 00 
39.789200 1 1e5 Rx d 8 02 ac 04 00 00 00 00 98 
39.798600 1 1e5 Rx d 8 02 ac 04 00 00 00 20 b8 
39.799900 1 25b Rx d 8 d3 c0 02 05 6a 86 50 35 
39.809400 1 1e5 Rx d 8 02 ac 04 00 00 00 40 d8 
39.815100 1 3ae Rx d 8 fb 3f 00 08 00 00 e1 24 
39.819100 1 1e5 Rx d 8 02 ac 04 00 00 00 60 f8 
39.822300 1 39d Rx d 5 65 68 35 28 00 
39.824900 1 295 Rx d 8 50 00 bf ff 00 00 00 02 
39.829200 1 1e5 Rx d 8 02 ac 04 00 00 00 00 98 
39.829600 1 2a8 Rx d 8 02 11 00 00 06 80 00 43 
39.834900 1 3ae Rx d 8 fb 3f 00 08 00 00 f0 33 
39.838500 1 1e5 Rx d 8 02 ac 04 00 00 00 20 b8 
39.849200 1 1e5 Rx d 8 02 ac 04 00 00 00 40 d8 
39.849900 1 3ae Rx d 8 fa 3f 00 08 00 00 00 42 
39.858400 1 1e5 Rx d 8 02 ac 04 00 00 00 60 f8 
39.862000 1 39d Rx d 5 66 69 35 28 00 
39.869200 1 1e5 Rx d 8 02 ac 04 00 00 00 00 98 
39.869900 1 301 Rx d 8 0b 2d 00 00 00 00 00 00 
39.875400 1 295 Rx d 8 1d 2c 00 00 00 00 00 03 
39.878500 1 1e5 Rx d 8 02 ac 04 00 00 00 20 b8 
39.880700 1 3ae Rx d 8 f9 3f 00 08 00 00 10 51 
39.888900 1 1e5 Rx d 8 02 ac 04 00 00 00 40 d8 
39.898600 1 1e5 Rx d 8 02 ac 04 00 00 00 60 f8 
39.899900 1 25b Rx d 8 d3 c0 02 05 6a 86 60 45 
39.902300 1 39d Rx d 5 67 6a 35 28 00 
39.909600 1 1e5 Rx d 8 02 ac 04 00 00 00 00 98 
39.915200 1 302 Rx d 8 0b 2f 00 00 00 00 00 00 
39.919700 1 1e5 Rx d 8 02 ac 04 00 00 00 20 b8 
39.920600 1 3ae Rx d 8 f9 3f 00 08 00 00 20 61 
39.925700 1 295 Rx d 8 3c 00 a1 ff 00 00 00 04 
39.928900 1 1e5 Rx d 8 02 ac 04 00 00 00 40 d8 
39.929300 1 2a8 Rx d 8 02 11 00 00 06 80 10 53 
39.938300 1 1e5 Rx d 8 02 ac 04 00 00 00 60 f8 
39.941900 1 39d Rx d 5 68 6b 35 28 00 
39.945600 1 3ae Rx d 8 f9 3f 00 08 00 00 31 72 
39.949200 1 1e5 Rx d 8 02 ac 04 00 00 00 00 98 
39.958400 1 1e5 Rx d 8 02 ac 04 00 00 00 20 b8 
39.969200 1 1e5 Rx d 8 02 ac 04 00 00 00 40 d8 
39.975000 1 38b Rx d 8 fe fe a7 0f a4 40 21 03 
39.976000 1 295 Rx d 8 50 00 bf ff 00 00 00 05 
39.978000 1 300 Rx d 8 12 78 ce a8 7f 02 f3 c3 
39.978600 1 1e5 Rx d 8 02 ac 04 00 00 00 60 f8 
39.979900 1 3f2 Rx d 8 04 c9 8c 32 90 a3 47 03 
39.981900 1 39d Rx d 5 69 6c 35 28 00 
39.982800 1 3dd Rx d 8 e1 b9 c9 0c 00 00 a9 00 
39.985300 1 3ae Rx d 8 f9 3f 00 08 00 00 41 82 
39.989200 1 1e5 Rx d 8 02 ac 04 00 00 00 00 98 
39.991300 1 303 Rx d 8 0b 2d 00 00 00 00 00 00 
39.999100 1 1e5 Rx d 8 02 ac 04 00 00 00 20 b8 
40.000100 1 25b Rx d 8 d3 c0 02 05 6a 86 70 55 
40.009400 1 1e5 Rx d 8 02 ac 04 00 00 00 40 d8 
40.019100 1 1e5 Rx d 8 02 ac 04 00 00 00 60 f8 
40.022400 1 39d Rx d 5 6a 6d 35 28 00 
40.025500 1 3ae Rx d 8 f9 3f 00 08 00 00 51 92 
40.026400 1 295 Rx d 8 2b 48 00 00 00 00 00 06 
40.028900 1 1e5 Rx d 8 02 ac 04 00 00 00 00 98 
40.029300 1 2a8 Rx d 8 02 11 00 00 06 80 20 63 
40.038300 1 1e5 Rx d 8 02 ac 04 00 00 00 20 b8 
40.040000 1 3ae Rx d 8 f9 3f 00 08 00 00 60 a1 
40.048700 1 1e5 Rx d 8 02 ac 04 00 00 00 40 d8 
40.057800 1 726 Rx d 3 08 00 00 
40.058300 1 1e5 Rx d 8 02 ac 04 00 00 00 60 f8 
40.062100 1 39d Rx d 5 6b 6e 35 28 00 
40.069600 1 1e5 Rx d 8 02 ac 04 00 00 00 00 98 
40.070600 1 724 Rx d 3 08 00 00 
40.078000 1 295 Rx d 8 96 00 a1 ff 00 00 00 07 
40.078500 1 1e5 Rx d 8 02 ac 04 00 00 00 20 b8 
40.079900 1 3ae Rx d 8 f9 3f 00 08 00 00 70 b1 
40.089100 1 1e5 Rx d 8 02 ac 04 00 00 00 40 d8 
40.098700 1 1e5 Rx d 8 02 ac 04 00 00 00 60 f8 
40.100100 1 25b Rx d 8 d3 c0 02 05 6a 86 80 65 
40.102100 1 39d Rx d 5 6c 6f 35 28 00 
40.109400 1 1e5 Rx d 8 02 ac 04 00 00 00 00 98 
40.119200 1 1e5 Rx d 8 02 ac 04 00 00 00 20 b8 
40.120900 1 3ae Rx d 8 f9 3f 00 08 00 00 80 c1 
40.127500 1 295 Rx d 8 c8 00 ab ff 00 00 00 08 
40.128900 1 1e5 Rx d 8 02 ac 04 00 00 00 40 d8 
40.129300 1 2a8 Rx d 8 02 11 00 00 06 80 30 73 
40.138300 1 1e5 Rx d 8 02 ac 04 00 00 00 60 f8 
40.140000 1 3ae Rx d 8 f9 3f 00 08 00 00 91 d2 
40.142000 1 39d Rx d 5 5d 60 35 28 00 
40.143700 1 23a Rx d 8 58 01 02 00 00 00 00 00 
40.149100 1 1e5 Rx d 8 02 ac 04 00 00 00 00 98 
40.158400 1 1e5 Rx d 8 02 ac 04 00 00 00 20 b8 
40.169200 1 1e5 Rx d 8 02 ac 04 00 00 00 40 d8 
40.178300 1 1e5 Rx d 8 02 ac 04 00 00 00 60 f8 
40.178500 1 295 Rx d 8 2b 48 00 00 00 00 00 09 
40.179900 1 3ae Rx d 8 f9 3f 00 08 00 00 a1 e2 
40.182000 1 39d Rx d 5 5e 61 35 28 00 
40.189100 1 1e5 Rx d 8 02 ac 04 00 00 00 00 98 
40.198700 1 1e5 Rx d 8 02 ac 04 00 00 00 20 b8 
40.200100 1 25b Rx d 8 d3 c0 02 05 6a 86 90 75 
40.209600 1 1e5 Rx d 8 02 ac 04 00 00 00 40 d8 
40.219200 1 1e5 Rx d 8 02 ac 04 00 00 00 60 f8 
40.220700 1 3ae Rx d 8 f9 3f 00 08 00 00 b1 f2 
40.221900 1 39d Rx d 5 5f 62 35 28 00 
40.228200 1 2a8 Rx d 8 02 11 00 00 06 80 40 83 
40.229700 1 1e5 Rx d 8 02 ac 04 00 00 00 00 98 
40.230000 1 295 Rx d 8 96 00 a1 ff 00 00 00 0a 
40.238300 1 1e5 Rx d 8 02 ac 04 00 00 00 20 b8 
40.240000 1 3ae Rx d 8 f9 3f 00 08 00 00 c0 01 
40.249100 1 1e5 Rx d 8 02 ac 04 00 00 00 40 d8 
40.258400 1 1e5 Rx d 8 02 ac 04 00 00 00 60 f8 
40.262100 1 39d Rx d 5 60 63 35 28 00 
40.269100 1 1e5 Rx d 8 02 ac 04 00 00 00 00 98 
40.278300 1 1e5 Rx d 8 02 ac 04 00 00 00 20 b8 
40.279900 1 3ae Rx d 8 f9 3f 00 08 00 00 d0 11 
40.280500 1 295 Rx d 8 c8 00 ab ff 00 00 00 0b 
40.288900 1 1e5 Rx d 8 02 ac 04 00 00 00 40 d8 
40.298600 1 1e5 Rx d 8 02 ac 04 00 00 00 60 f8 
40.300100 1 25b Rx d 8 d3 c0 02 05 6a 86 a0 85 
40.302100 1 39d Rx d 5 61 64 35 28 00 
40.309600 1 1e5 Rx d 8 02 ac 04 00 00 00 00 98 
40.319600 1 1e5 Rx d 8 02 ac 04 00 00 00 20 b8 
40.321300 1 3ae Rx d 8 f9 3f 00 08 00 00 e0 21 
40.326000 1 70b Rx d 8 08 00 00 00 50 50 50 50 
40.328200 1 2a8 Rx d 8 02 11 00 00 06 80 50 93 
40.329000 1 1e5 Rx d 8 02 ac 04 00 00 00 40 d8 
40.338300 1 1e5 Rx d 8 02 ac 04 00 00 00 60 f8 
40.340100 1 3ae Rx d 8 f9 3f 00 08 00 00 f1 32 
40.341900 1 39d Rx d 5 62 65 35 28 00 
40.349100 1 1e5 Rx d 8 02 ac 04 00 00 00 00 98 
40.358400 1 1e5 Rx d 8 02 ac 04 00 00 00 20 b8 
40.364100 1 310 Rx d 8 14 05 00 00 47 77 e4 78 
40.369000 1 1e5 Rx d 8 02 ac 04 00 00 00 40 d8 
40.378300 1 1e5 Rx d 8 02 ac 04 00 00 00 60 f8 
40.379900 1 3ae Rx d 8 f9 3f 00 08 00 00 01 42 
40.382000 1 39d Rx d 5 63 66 35 28 00 
40.389100 1 1e5 Rx d 8 02 ac 04 00 00 00 00 98 
40.398600 1 1e5 Rx d 8 02 ac 04 00 00 00 20 b8 
40.400100 1 25b Rx d 8 d3 c0 02 05 6a 86 b0 95 
40.409600 1 1e5 Rx d 8 02 ac 04 00 00 00 40 d8 
40.419200 1 1e5 Rx d 8 02 ac 04 00 00 00 60 f8 
40.420900 1 3ae Rx d 8 f9 3f 00 08 00 00 11 52 
40.421900 1 39d Rx d 5 64 67 35 28 00 
40.429000 1 1e5 Rx d 8 02 ac 04 00 00 00 00 98 
40.429300 1 2a8 Rx d 8 02 11 00 00 06 80 60 a3 
40.438300 1 1e5 Rx d 8 02 ac 04 00 00 00 20 b8 
40.440100 1 3ae Rx d 8 f9 3f 00 08 00 00 20 61 
40.448700 1 1e5 Rx d 8 02 ac 04 00 00 00 40 d8 
40.458400 1 1e5 Rx d 8 02 ac 04 00 00 00 60 f8 
40.462200 1 39d Rx d 5 65 68 35 28 00 
40.469400 1 1e5 Rx d 8 02 ac 04 00 00 00 00 98 
40.478300 1 1e5 Rx d 8 02 ac 04 00 00 00 20 b8 
40.479900 1 3ae Rx d 8 f9 3f 00 08 00 00 30 71 
40.489100 1 1e5 Rx d 8 02 ac 04 00 00 00 40 d8 
40.498600 1 1e5 Rx d 8 02 ac 04 00 00 00 60 f8 
40.500100 1 25b Rx d 8 d3 c0 02 05 6a 86 c0 a5 
40.502100 1 39d Rx d 5 66 69 35 28 00 
40.509600 1 1e5 Rx d 8 02 ac 04 00 00 00 00 98 
40.519200 1 1e5 Rx d 8 02 ac 04 00 00 00 20 b8 
40.520500 1 3ae Rx d 8 f9 3f 00 08 00 00 40 81 
40.528200 1 2a8 Rx d 8 02 11 00 00 06 80 70 b3 
40.529200 1 1e5 Rx d 8 02 ac 04 00 00 00 40 d8 
40.538400 1 1e5 Rx d 8 02 ac 04 00 00 00 60 f8 
40.540000 1 3ae Rx d 8 f9 3f 00 08 00 00 51 92 
40.541900 1 39d Rx d 5 67 6a 35 28 00 
40.549100 1 1e5 Rx d 8 02 ac 04 00 00 00 00 98 
40.555200 1 2a4 Rx d 8 ad 8f fd eb 71 9f 7d 42 
40.555400 1 364 Rx d 4 00 82 64 1f 
40.558400 1 1e5 Rx d 8 02 ac 04 00 00 00 20 b8 
40.569100 1 1e5 Rx d 8 02 ac 04 00 00 00 40 d8 
40.578300 1 1e5 Rx d 8 02 ac 04 00 00 00 60 f8 
40.579900 1 3ae Rx d 8 f9 3f 00 08 00 00 61 a2 
40.581900 1 39d Rx d 5 68 6b 35 28 00 
40.589100 1 1e5 Rx d 8 02 ac 04 00 00 00 00 98 
40.598600 1 1e5 Rx d 8 02 ac 04 00 00 00 20 b8 
40.600100 1 25b Rx d 8 d3 c0 02 05 6a 86 d0 b5 
40.609600 1 1e5 Rx d 8 02 ac 04 00 00 00 40 d8 
40.619200 1 1e5 Rx d 8 02 ac 04 00 00 00 60 f8 
40.621200 1 3ae Rx d 8 f9 3f 00 08 00 00 71 b2 
40.621900 1 39d Rx d 5 69 6c 35 28 00 
40.629200 1 1e5 Rx d 8 02 ac 04 00 00 00 00 98 
40.629600 1 2a8 Rx d 8 02 11 00 00 06 80 80 c3 
40.630200 1 330 Rx d 8 12 4d 38 39 30 36 31 33 
40.638300 1 1e5 Rx d 8 02 ac 04 00 00 00 20 b8 
40.645400 1 3ae Rx d 8 f9 3f 00 08 00 00 80 c1 
40.648700 1 1e5 Rx d 8 02 ac 04 00 00 00 40 d8 
40.658300 1 1e5 Rx d 8 02 ac 04 00 00 00 60 f8 
40.661900 1 39d Rx d 5 6a 6d 35 28 00 
40.669600 1 1e5 Rx d 8 02 ac 04 00 00 00 00 98 
40.678300 1 1e5 Rx d 8 02 ac 04 00 00 00 20 b8 
40.685000 1 3ae Rx d 8 f9 3f 00 08 00 00 90 d1 
40.689100 1 1e5 Rx d 8 02 ac 04 00 00 00 40 d8 
40.698600 1 1e5 Rx d 8 02 ac 04 00 00 00 60 f8 
40.699900 1 25b Rx d 8 d3 c0 02 05 6a 86 e0 c5 
40.702100 1 39d Rx d 5 6b 6e 35 28 00 
40.709600 1 1e5 Rx d 8 02 ac 04 00 00 00 00 98 
40.719400 1 1e5 Rx d 8 02 ac 04 00 00 00 20 b8 
40.725000 1 3ae Rx d 8 f9 3f 00 08 00 00 a0 e1 
40.729000 1 1e5 Rx d 8 02 ac 04 00 00 00 40 d8 
40.729400 1 2a8 Rx d 8 02 11 00 00 06 80 90 d3 
40.738300 1 1e5 Rx d 8 02 ac 04 00 00 00 60 f8 
40.742100 1 39d Rx d 5 6c 6f 35 28 00 
40.749100 1 1e5 Rx d 8 02 ac 04 00 00 00 00 98 
40.750000 1 3ae Rx d 8 f9 3f 00 08 00 00 b1 f2 
40.758500 1 1e5 Rx d 8 02 ac 04 00 00 00 20 b8 
40.768600 1 1e5 Rx d 8 02 ac 04 00 00 00 40 d8 
40.778300 1 1e5 Rx d 8 02 ac 04 00 00 00 60 f8 
40.781900 1 39d Rx d 5 5d 60 35 28 00 
40.789400 1 1e5 Rx d 8 02 ac 04 00 00 00 00 98 
40.790500 1 3ae Rx d 8 f9 3f 00 08 00 00 c1 02 
40.798600 1 1e5 Rx d 8 02 ac 04 00 00 00 20 b8 
40.800100 1 25b Rx d 8 d3 c0 02 05 6a 86 f0 d5 
40.809600 1 1e5 Rx d 8 02 ac 04 00 00 00 40 d8 
40.819400 1 1e5 Rx d 8 02 ac 04 00 00 00 60 f8 
40.822400 1 39d Rx d 5 5e 61 35 28 00 
40.828500 1 2a8 Rx d 8 02 11 00 00 06 80 a0 e3 
40.829200 1 1e5 Rx d 8 02 ac 04 00 00 00 00 98 
40.830500 1 3ae Rx d 8 f9 3f 00 08 00 00 d1 12 
40.838300 1 1e5 Rx d 8 02 ac 04 00 00 00 20 b8 
40.848600 1 1e5 Rx d 8 02 ac 04 00 00 00 40 d8 
40.849900 1 3ae Rx d 8 f9 3f 00 08 00 00 e0 21 
40.858400 1 1e5 Rx d 8 02 ac 04 00 00 00 60 f8 
40.862100 1 39d Rx d 5 5f 62 35 28 00 
40.869300 1 1e5 Rx d 8 02 ac 04 00 00 00 00 98 
40.869800 1 301 Rx d 8 0d 33 ec 80 fd 00 00 00 
40.878300 1 1e5 Rx d 8 02 ac 04 00 00 00 20 b8 
40.889100 1 1e5 Rx d 8 02 ac 04 00 00 00 40 d8 
40.890500 1 3ae Rx d 8 f9 3f 00 08 00 00 f0 31 
40.898600 1 1e5 Rx d 8 02 ac 04 00 00 00 60 f8 
40.899900 1 25b Rx d 8 d3 c0 02 05 6a 86 00 e5 
40.902300 1 39d Rx d 5 60 63 35 28 00 
40.909600 1 1e5 Rx d 8 02 ac 04 00 00 00 00 98 
40.915200 1 302 Rx d 8 0d b2 c0 40 81 00 00 00 
40.919900 1 1e5 Rx d 8 02 ac 04 00 00 00 20 b8 
40.928500 1 2a8 Rx d 8 02 11 00 00 06 80 b0 f3 
40.929200 1 1e5 Rx d 8 02 ac 04 00 00 00 40 d8 
40.930300 1 3ae Rx d 8 f9 3f 00 08 00 00 00 41 
40.938200 1 1e5 Rx d 8 02 ac 04 00 00 00 60 f8 
40.942000 1 39d Rx d 5 61 64 35 28 00 
40.945700 1 3ae Rx d 8 f9 3f 00 08 00 00 11 52 
40.949100 1 1e5 Rx d 8 02 ac 04 00 00 00 00 98 
40.958400 1 1e5 Rx d 8 02 ac 04 00 00 00 20 b8 
40.968600 1 1e5 Rx d 8 02 ac 04 00 00 00 40 d8 
40.969800 1 38b Rx d 8 fe fe 2f 0f ac c0 21 03 
40.977800 1 300 Rx d 8 14 05 00 00 fc 21 82 ed 
40.978700 1 1e5 Rx d 8 02 ac 04 00 00 00 60 f8 
40.980000 1 3f2 Rx d 8 05 cc 10 16 20 3f d8 00 
40.982200 1 39d Rx d 5 62 65 35 28 00 
40.982900 1 3dd Rx d 8 32 02 1f 30 02 1f 00 00 
40.985600 1 3ae Rx d 8 f9 3f 00 08 00 00 21 62 
40.989200 1 1e5 Rx d 8 02 ac 04 00 00 00 00 98 
40.991200 1 303 Rx d 8 0d 63 62 c8 40 00 00 00 
40.999000 1 1e5 Rx d 8 02 ac 04 00 00 00 20 b8 
41.000000 1 25b Rx d 8 d3 c0 02 05 6a 86 10 f5 
69.501400 1 3ae Rx d 8 f9 3f 00 08 00 00 a1 e2 
69.503000 1 39d Rx d 5 83 6e 49 2c 00 
69.507200 1 1e5 Rx d 8 02 ec 00 00 00 00 00 d4 
69.516500 1 1e5 Rx d 8 02 ec 00 00 00 00 20 f4 
69.526500 1 25b Rx d 8 d3 80 06 05 6a 86 00 a9 
69.527500 1 1e5 Rx d 8 02 ec 00 00 00 00 40 14 
69.530500 1 2a8 Rx d 8 02 11 00 00 06 80 d0 13 
69.536800 1 1e5 Rx d 8 02 ec 00 00 00 00 60 34 
69.541100 1 3ae Rx d 8 f9 3f 00 08 00 00 b1 f2 
69.542700 1 39d Rx d 5 60 6f 29 28 00 
69.546800 1 1e5 Rx d 8 02 ec 00 00 00 00 00 d4 
69.553200 1 2a4 Rx d 8 ad 87 fd eb 6f 9f 7d 42 
69.553400 1 364 Rx d 4 00 82 64 1f 
69.556800 1 1e5 Rx d 8 02 ec 00 00 00 00 20 f4 
69.561300 1 3ae Rx d 8 f9 3f 00 08 00 00 c0 01 
69.562400 1 25b Rx d 8 d3 c0 02 05 6a 86 10 f5 
69.567300 1 1e5 Rx d 8 02 ec 00 00 00 00 40 14 
69.576700 1 1e5 Rx d 8 02 ec 00 00 00 00 60 34 
69.582600 1 39d Rx d 5 51 60 29 28 00 
69.587900 1 1e5 Rx d 8 02 ec 00 00 00 00 00 d4 
69.597200 1 1e5 Rx d 8 02 ec 00 00 00 00 20 f4 
69.601200 1 3ae Rx d 8 f9 3f 00 08 00 00 d0 11 
69.607200 1 1e5 Rx d 8 02 ec 00 00 00 00 40 14 
69.616700 1 1e5 Rx d 8 02 ec 00 00 00 00 60 34 
69.622400 1 39d Rx d 5 52 61 29 28 00 
69.626800 1 1e5 Rx d 8 02 ec 00 00 00 00 00 d4 
69.630500 1 2a8 Rx d 8 02 11 00 00 06 80 e0 23 
69.636800 1 1e5 Rx d 8 02 ec 00 00 00 00 20 f4 
69.641100 1 3ae Rx d 8 f9 3f 00 08 00 00 e0 21 
69.646800 1 1e5 Rx d 8 02 ec 00 00 00 00 40 14 
69.657200 1 1e5 Rx d 8 02 ec 00 00 00 00 60 34 
69.661200 1 25b Rx d 8 d3 c0 02 05 6a 86 20 05 
69.662500 1 39d Rx d 5 33 62 09 28 00 
69.666800 1 1e5 Rx d 8 02 ec 00 00 00 00 00 d4 
69.667700 1 3ae Rx d 8 f9 3f 00 08 00 00 f1 32 
69.676500 1 1e5 Rx d 8 02 ec 00 00 00 00 20 f4 
69.687600 1 1e5 Rx d 8 02 ec 00 00 00 00 40 14 
69.697200 1 1e5 Rx d 8 02 ec 00 00 00 00 60 34 
69.702900 1 39d Rx d 5 54 63 29 28 00 
69.707200 1 1e5 Rx d 8 02 ec 00 00 00 00 00 d4 
69.708000 1 3ae Rx d 8 f9 3f 00 08 00 00 01 42 
69.711200 1 295 Rx d 8 1d 2c 00 00 00 00 00 00 
69.716500 1 1e5 Rx d 8 02 ec 00 00 00 00 20 f4 
69.726800 1 1e5 Rx d 8 02 ec 00 00 00 00 40 14 
69.730500 1 2a8 Rx d 8 02 11 00 00 06 80 f0 33 
69.737200 1 1e5 Rx d 8 02 ec 00 00 00 00 60 34 
69.742300 1 39d Rx d 5 55 64 29 28 00 
69.746600 1 1e5 Rx d 8 02 ec 00 00 00 00 00 d4 
69.748000 1 3ae Rx d 8 f9 3f 00 08 00 00 11 52 
69.756500 1 1e5 Rx d 8 02 ec 04 00 00 00 20 f8 
69.761400 1 3ae Rx d 8 f9 3f 00 08 00 00 20 61 
69.762300 1 295 Rx d 8 3c 00 a1 ff 00 00 00 01 
69.762600 1 25b Rx d 8 d3 c0 02 05 6a 86 30 15 
69.767200 1 1e5 Rx d 8 02 ac 04 00 00 00 40 d8 
69.776300 1 1e5 Rx d 8 02 ac 04 00 00 00 60 f8 
69.782400 1 39d Rx d 5 56 65 29 28 00 
69.787500 1 1e5 Rx d 8 02 ac 04 00 00 00 00 98 
69.797200 1 1e5 Rx d 8 02 ac 04 00 00 00 20 b8 
69.801400 1 3ae Rx d 8 f9 3f 00 08 00 00 30 71 
69.807300 1 1e5 Rx d 8 02 ac 04 00 00 00 40 d8 
69.813000 1 295 Rx d 8 50 00 bf ff 00 00 00 02 
69.816500 1 1e5 Rx d 8 02 ac 04 00 00 00 60 f8 
69.822200 1 39d Rx d 5 57 66 29 28 00 
69.826800 1 38b Rx d 8 fe fe 17 0f 94 c0 21 03 
69.827000 1 1e5 Rx d 8 02 ac 04 00 00 00 00 98 
69.830500 1 2a8 Rx d 8 02 11 00 00 06 80 00 43 
69.836300 1 1e5 Rx d 8 02 ac 04 00 00 00 20 b8 
69.841100 1 3ae Rx d 8 f9 3f 00 08 00 00 40 81 
69.847200 1 1e5 Rx d 8 02 ac 04 00 00 00 40 d8 
69.856500 1 1e5 Rx d 8 02 ac 04 00 00 00 60 f8 
69.861300 1 25b Rx d 8 d3 c0 02 05 6a 86 40 25 
69.862600 1 39d Rx d 5 58 67 29 28 00 
69.863400 1 3ae Rx d 8 f9 3f 00 08 00 00 51 92 
69.863900 1 295 Rx d 8 1d 2c 00 00 00 00 00 03 
69.866800 1 1e5 Rx d 8 02 ac 04 00 00 00 00 98 
69.870100 1 301 Rx d 8 13 03 00 00 00 00 00 00 
69.876500 1 1e5 Rx d 8 02 ac 04 00 00 00 20 b8 
69.887200 1 1e5 Rx d 8 02 ac 04 00 00 00 40 d8 
69.897300 1 1e5 Rx d 8 02 ac 04 00 00 00 60 f8 
69.901200 1 3ae Rx d 8 f9 3f 00 08 00 00 61 a2 
69.903000 1 39d Rx d 5 79 68 49 28 00 
69.907200 1 1e5 Rx d 8 02 ac 04 00 00 00 00 98 
69.914000 1 295 Rx d 8 3c 00 a1 ff 00 00 00 04 
69.916500 1 1e5 Rx d 8 02 ac 04 00 00 00 20 b8 
69.917200 1 302 Rx d 8 13 03 00 00 00 00 00 00 
69.927000 1 1e5 Rx d 8 02 ac 04 00 00 00 40 d8 
69.930500 1 2a8 Rx d 8 02 11 00 00 06 80 10 53 
69.936300 1 1e5 Rx d 8 02 ac 04 00 00 00 60 f8 
69.941100 1 3ae Rx d 8 f9 3f 00 08 00 00 71 b2 
69.942800 1 39d Rx d 5 7a 69 49 28 00 
69.947200 1 1e5 Rx d 8 02 ac 04 00 00 00 00 98 
69.956800 1 1e5 Rx d 8 02 ac 04 00 00 00 20 b8 
69.961200 1 3ae Rx d 8 f9 3f 00 08 00 00 80 c1 
69.962500 1 25b Rx d 8 d3 c0 02 05 6a 86 50 35 
69.964400 1 295 Rx d 8 50 00 bf ff 00 00 00 05 
69.966800 1 1e5 Rx d 8 02 ac 04 00 00 00 40 d8 
69.976700 1 1e5 Rx d 8 02 ac 04 00 00 00 60 f8 
69.978200 1 300 Rx d 8 12 78 ce a8 7f 02 f3 c3 
69.979000 1 3f2 Rx d 8 0a 2b 8f 32 10 8b 47 03 
69.982700 1 39d Rx d 5 7b 6a 49 28 00 
69.985000 1 3dd Rx d 8 64 bb 04 00 00 00 00 00 
69.987400 1 1e5 Rx d 8 02 ac 04 00 00 00 00 98 
69.993100 1 303 Rx d 8 13 03 00 00 00 00 00 00 
69.997300 1 1e5 Rx d 8 02 ac 04 00 00 00 20 b8 
70.001400 1 3ae Rx d 8 f9 3f 00 08 00 00 90 d1 
70.007300 1 1e5 Rx d 8 02 ac 04 00 00 00 40 d8 
70.016500 1 1e5 Rx d 8 02 ac 04 00 00 00 60 f8 
70.016800 1 295 Rx d 8 2b 48 00 00 00 00 00 06 
70.022700 1 39d Rx d 5 7c 6b 49 28 00 
70.026800 1 1e5 Rx d 8 02 ac 04 00 00 00 00 98 
70.030500 1 2a8 Rx d 8 02 11 00 00 06 80 20 63 
70.036300 1 1e5 Rx d 8 02 ac 04 00 00 00 20 b8 
70.041200 1 3ae Rx d 8 f9 3f 00 08 00 00 a0 e1 
70.046800 1 1e5 Rx d 8 02 ac 04 00 00 00 40 d8 
70.056500 1 1e5 Rx d 8 02 ac 04 00 00 00 60 f8 
70.059100 1 726 Rx d 3 08 00 00 
70.061300 1 25b Rx d 8 d3 c0 02 05 6a 86 60 45 
70.062700 1 39d Rx d 5 7d 6c 49 28 00 
70.066000 1 295 Rx d 8 96 00 a1 ff 00 00 00 07 
70.067200 1 1e5 Rx d 8 02 ac 04 00 00 00 00 98 
70.067700 1 3ae Rx d 8 f9 3f 00 08 00 00 b1 f2 
70.069900 1 724 Rx d 3 08 00 00 
70.076300 1 1e5 Rx d 8 02 ac 04 00 00 00 20 b8 
70.087800 1 1e5 Rx d 8 02 ac 04 00 00 00 40 d8 
70.097300 1 1e5 Rx d 8 02 ac 04 00 00 00 60 f8 
70.103100 1 39d Rx d 5 7e 6d 49 28 00 
70.107200 1 1e5 Rx d 8 02 ac 04 00 00 00 00 98 
70.108000 1 3ae Rx d 8 f9 3f 00 08 00 00 c1 02 
70.116500 1 1e5 Rx d 8 02 ac 04 00 00 00 20 b8 
70.116800 1 295 Rx d 8 c8 00 ab ff 00 00 00 08 
70.127000 1 1e5 Rx d 8 02 ac 04 00 00 00 40 d8 
70.130500 1 2a8 Rx d 8 02 11 00 00 06 80 30 73 
70.136300 1 1e5 Rx d 8 02 ac 04 00 00 00 60 f8 
70.142700 1 39d Rx d 5 7f 6e 49 28 00 
70.146300 1 23a Rx d 8 50 09 62 21 08 00 00 00 
70.146800 1 1e5 Rx d 8 02 ac 04 00 00 00 00 98 
70.147900 1 3ae Rx d 8 f9 3f 00 08 00 00 d1 12 
70.156300 1 1e5 Rx d 8 02 ac 04 00 00 00 20 b8 
70.161300 1 25b Rx d 8 d3 c0 02 05 6a 86 70 55 
70.167200 1 1e5 Rx d 8 02 ac 04 00 00 00 40 d8 
70.167900 1 295 Rx d 8 2b 48 00 00 00 00 00 09 
70.171100 1 3ae Rx d 8 f9 3f 00 08 00 00 e0 21 
70.176300 1 1e5 Rx d 8 02 ac 04 00 00 00 60 f8 
70.182400 1 39d Rx d 5 80 6f 49 28 00 
70.187400 1 1e5 Rx d 8 02 ac 04 00 00 00 00 98 
70.197300 1 1e5 Rx d 8 02 ac 04 00 00 00 20 b8 
70.207300 1 1e5 Rx d 8 02 ac 04 00 00 00 40 d8 
70.211400 1 3ae Rx d 8 f9 3f 00 08 00 00 f0 31 
70.216300 1 1e5 Rx d 8 02 ac 04 00 00 00 60 f8 
70.218700 1 295 Rx d 8 96 00 a1 ff 00 00 00 0a 
70.222300 1 39d Rx d 5 71 60 49 28 00 
70.226800 1 1e5 Rx d 8 02 ac 04 00 00 00 00 98 
70.230500 1 2a8 Rx d 8 02 11 00 00 06 80 40 83 
70.236500 1 1e5 Rx d 8 02 ac 04 00 00 00 20 b8 
70.246900 1 1e5 Rx d 8 02 ac 04 00 00 00 40 d8 
70.251200 1 3ae Rx d 8 f9 3f 00 08 00 00 00 41 
70.256500 1 1e5 Rx d 8 02 ac 04 00 00 00 60 f8 
70.261400 1 25b Rx d 8 d3 c0 02 05 6a 86 80 65 
70.262600 1 39d Rx d 5 72 61 49 28 00 
70.267300 1 1e5 Rx d 8 02 ac 04 00 00 00 00 98 
70.268900 1 295 Rx d 8 c8 00 ab ff 00 00 00 0b 
70.271200 1 3ae Rx d 8 f9 3f 00 08 00 00 11 52 
70.276300 1 1e5 Rx d 8 02 ac 04 00 00 00 20 b8 
70.287200 1 1e5 Rx d 8 02 ac 04 00 00 00 40 d8 
70.297300 1 1e5 Rx d 8 02 ac 04 00 00 00 60 f8 
70.302900 1 39d Rx d 5 73 62 49 28 00 
70.307200 1 1e5 Rx d 8 02 ac 04 00 00 00 00 98 
70.311600 1 3ae Rx d 8 f9 3f 00 08 00 00 21 62 
70.317700 1 1e5 Rx d 8 02 ac 04 00 00 00 20 b8 
70.325700 1 70b Rx d 8 08 00 00 00 50 50 50 50 
70.327100 1 1e5 Rx d 8 02 ac 04 00 00 00 40 d8 
70.330500 1 2a8 Rx d 8 02 11 00 00 06 80 50 93 
70.336500 1 1e5 Rx d 8 02 ac 04 00 00 00 60 f8 
70.342600 1 39d Rx d 5 74 63 49 28 00 
70.346700 1 1e5 Rx d 8 02 ac 04 00 00 00 00 98 
70.351200 1 3ae Rx d 8 f9 3f 00 08 00 00 31 72 
70.356400 1 1e5 Rx d 8 02 ac 04 00 00 00 20 b8 
70.361400 1 25b Rx d 8 d3 c0 02 05 6a 86 90 75 
70.364000 1 310 Rx d 8 14 05 00 00 47 77 e4 78 
70.367900 1 1e5 Rx d 8 02 ac 04 00 00 00 40 d8 
70.371400 1 3ae Rx d 8 f9 3f 00 08 00 00 40 81 
70.376300 1 1e5 Rx d 8 02 ac 04 00 00 00 60 f8 
70.382700 1 39d Rx d 5 75 64 49 28 00 
70.387300 1 1e5 Rx d 8 02 ac 04 00 00 00 00 98 
70.397300 1 1e5 Rx d 8 02 ac 04 00 00 00 20 b8 
70.407300 1 1e5 Rx d 8 02 ac 04 00 00 00 40 d8 
70.411700 1 3ae Rx d 8 f9 3f 00 08 00 00 50 91 
70.416500 1 1e5 Rx d 8 02 ac 04 00 00 00 60 f8 
70.422300 1 39d Rx d 5 76 65 49 28 00 
70.426900 1 1e5 Rx d 8 02 ac 04 00 00 00 00 98 
70.430500 1 2a8 Rx d 8 02 11 00 00 06 80 60 a3 
70.436300 1 1e5 Rx d 8 02 ac 04 00 00 00 20 b8 
70.447300 1 1e5 Rx d 8 02 ac 04 00 00 00 40 d8 
70.451200 1 3ae Rx d 8 f9 3f 00 08 00 00 60 a1 
70.456300 1 1e5 Rx d 8 02 ac 04 00 00 00 60 f8 
70.461300 1 25b Rx d 8 d3 c0 02 05 6a 86 a0 85 
70.462700 1 39d Rx d 5 77 66 49 28 00 
70.466700 1 1e5 Rx d 8 02 ac 04 00 00 00 00 98 
70.471200 1 3ae Rx d 8 f9 3f 00 08 00 00 71 b2 
70.476300 1 1e5 Rx d 8 02 ac 04 00 00 00 20 b8 
70.487400 1 1e5 Rx d 8 02 ac 04 00 00 00 40 d8 
70.497300 1 1e5 Rx d 8 02 ac 04 00 00 00 60 f8 
70.502700 1 39d Rx d 5 78 67 49 28 00 
70.507200 1 1e5 Rx d 8 02 ac 04 00 00 00 00 98 
70.511200 1 3ae Rx d 8 f9 3f 00 08 00 00 81 c2 
70.516300 1 1e5 Rx d 8 02 ac 04 00 00 00 20 b8 
70.527000 1 1e5 Rx d 8 02 ac 04 00 00 00 40 d8 
70.530500 1 2a8 Rx d 8 02 11 00 00 06 80 70 b3 
70.537200 1 1e5 Rx d 8 02 ac 04 00 00 00 60 f8 
70.541200 1 3ae Rx d 8 fa 3f 00 08 00 00 91 d3 
70.542700 1 39d Rx d 5 79 68 49 28 00 
70.547300 1 1e5 Rx d 8 02 ac 04 00 00 00 00 98 
70.553200 1 2a4 Rx d 8 ad 87 fd eb 6f 9f 7d 42 
70.553400 1 364 Rx d 4 00 82 64 1f 
70.556300 1 1e5 Rx d 8 02 ac 04 00 00 00 20 b8 
70.561300 1 25b Rx d 8 d3 c0 02 05 6a 86 b0 95 
70.567200 1 1e5 Rx d 8 02 ac 04 00 00 00 40 d8 
70.571200 1 3ae Rx d 8 fa 3f 00 08 00 00 a0 e2 
70.576300 1 1e5 Rx d 8 02 ac 04 00 00 00 60 f8 
70.582400 1 39d Rx d 5 7a 69 49 28 00 
70.587000 1 1e5 Rx d 8 02 ac 04 00 00 00 00 98 
70.597300 1 1e5 Rx d 8 02 ac 04 00 00 00 20 b8 
70.607300 1 1e5 Rx d 8 02 ac 04 00 00 00 40 d8 
70.611200 1 3ae Rx d 8 fa 3f 00 08 00 00 b0 f2 
70.616300 1 1e5 Rx d 8 02 ac 04 00 00 00 60 f8 
70.622300 1 39d Rx d 5 7b 6a 49 28 00 
70.626700 1 1e5 Rx d 8 02 ac 04 00 00 00 00 98 
70.630000 1 330 Rx d 8 12 4d 38 39 30 36 31 33 
70.630500 1 2a8 Rx d 8 02 11 00 00 06 80 80 c3 
70.637000 1 1e5 Rx d 8 02 ac 04 00 00 00 20 b8 
70.646900 1 1e5 Rx d 8 02 ac 04 00 00 00 40 d8 
70.651200 1 3ae Rx d 8 fa 3f 00 08 00 00 c0 02 
70.656500 1 1e5 Rx d 8 02 ac 04 00 00 00 60 f8 
70.661400 1 25b Rx d 8 d3 c0 02 05 6a 86 c0 a5 
70.662700 1 39d Rx d 5 7c 6b 49 28 00 
70.666800 1 1e5 Rx d 8 02 ac 04 00 00 00 00 98 
70.676300 1 1e5 Rx d 8 02 ac 04 00 00 00 20 b8 
70.678000 1 3ae Rx d 8 fa 3f 00 08 00 00 d1 13 
70.687200 1 1e5 Rx d 8 02 ac 04 00 00 00 40 d8 
70.697300 1 1e5 Rx d 8 02 ac 04 00 00 00 60 f8 
70.703200 1 39d Rx d 5 7d 6c 49 28 00 
70.707200 1 1e5 Rx d 8 02 ac 04 00 00 00 00 98 
70.716200 1 1e5 Rx d 8 02 ac 04 00 00 00 20 b8 
70.716700 1 3ae Rx d 8 fa 3f 00 08 00 00 e1 23 
70.727000 1 1e5 Rx d 8 02 ac 04 00 00 00 40 d8 
70.730500 1 2a8 Rx d 8 02 11 00 00 06 80 90 d3 
70.737400 1 1e5 Rx d 8 02 ac 04 00 00 00 60 f8 
70.742700 1 39d Rx d 5 7e 6d 49 28 00 
70.746600 1 1e5 Rx d 8 02 ac 04 00 00 00 00 98 
70.756200 1 1e5 Rx d 8 02 ac 04 00 00 00 20 b8 
70.757400 1 3ae Rx d 8 fa 3f 00 08 00 00 f1 33 
70.761400 1 25b Rx d 8 d3 c0 02 05 6a 86 d0 b5 
70.766900 1 1e5 Rx d 8 02 ac 04 00 00 00 40 d8 
70.776300 1 1e5 Rx d 8 02 ac 04 00 00 00 60 f8 
70.776700 1 3ae Rx d 8 fa 3f 00 08 00 00 00 42 
70.782400 1 39d Rx d 5 7f 6e 49 28 00 
70.787000 1 1e5 Rx d 8 02 ac 04 00 00 00 00 98 
70.797300 1 1e5 Rx d 8 02 ac 04 00 00 00 20 b8 
70.807300 1 1e5 Rx d 8 02 ac 04 00 00 00 40 d8 
70.816300 1 1e5 Rx d 8 02 ac 04 00 00 00 60 f8 
70.816700 1 3ae Rx d 8 fa 3f 00 08 00 00 10 52 
70.821300 1 38b Rx d 8 fe fe 9f 0f 9c 40 21 03 
70.822400 1 39d Rx d 5 80 6f 49 28 00 
70.826700 1 1e5 Rx d 8 02 ac 04 00 00 00 00 98 
70.830500 1 2a8 Rx d 8 02 11 00 00 06 80 a0 e3 
70.836900 1 1e5 Rx d 8 02 ac 04 00 00 00 20 b8 
70.846600 1 1e5 Rx d 8 02 ac 04 00 00 00 40 d8 
70.856900 1 1e5 Rx d 8 02 ac 04 00 00 00 60 f8 
70.857400 1 3ae Rx d 8 fa 3f 00 08 00 00 20 62 
70.861200 1 25b Rx d 8 d3 c0 02 05 6a 86 e0 c5 
70.862400 1 39d Rx d 5 71 60 49 28 00 
70.866900 1 1e5 Rx d 8 02 ac 04 00 00 00 00 98 
70.870100 1 301 Rx d 8 14 05 00 36 3e ee 75 00 
70.876500 1 1e5 Rx d 8 02 ac 04 00 00 00 20 b8 
70.879900 1 3ae Rx d 8 fa 3f 00 08 00 00 31 73 
70.887500 1 1e5 Rx d 8 02 ac 04 00 00 00 40 d8 
70.897300 1 1e5 Rx d 8 02 ac 04 00 00 00 60 f8 
70.902900 1 39d Rx d 5 72 61 49 28 00 
70.907300 1 1e5 Rx d 8 02 ac 04 00 00 00 00 98 
70.916700 1 1e5 Rx d 8 02 ac 04 00 00 00 20 b8 
70.916900 1 3ae Rx d 8 fa 3f 00 08 00 00 41 83 
70.917400 1 302 Rx d 8 14 05 00 62 c7 0e 16 00 
70.926700 1 1e5 Rx d 8 02 ac 04 00 00 00 40 d8 
70.930500 1 2a8 Rx d 8 02 11 00 00 06 80 b0 f3 
70.936400 1 1e5 Rx d 8 02 ac 04 00 00 00 60 f8 
70.942400 1 39d Rx d 5 73 62 49 28 00 
70.946900 1 1e5 Rx d 8 02 ac 04 00 00 00 00 98 
70.956400 1 1e5 Rx d 8 02 ac 04 00 00 00 20 b8 
70.956900 1 3ae Rx d 8 fa 3f 00 08 00 00 51 93 
70.961400 1 25b Rx d 8 d3 c0 02 05 6a 86 f0 d5 
70.966900 1 1e5 Rx d 8 02 ac 04 00 00 00 40 d8 
70.976200 1 1e5 Rx d 8 02 ac 04 00 00 00 60 f8 
70.977900 1 3ae Rx d 8 fa 3f 00 08 00 00 60 a2 
70.978400 1 300 Rx d 8 14 05 00 00 fc 21 82 ed 
70.979000 1 3f2 Rx d 8 0b 7f 10 16 80 30 d8 00 
70.982400 1 39d Rx d 5 74 63 49 28 00 
70.985000 1 3dd Rx d 8 15 51 20 53 c0 00 00 00 
70.987400 1 1e5 Rx d 8 02 ac 04 00 00 00 00 98 
70.993100 1 303 Rx d 8 14 05 00 4c 6b a2 ae 00 
70.997200 1 1e5 Rx d 8 02 ac 04 00 00 00 20 b8 
99.505100 1 1e5 Rx d 8 02 ec 00 00 00 00 00 d4 
99.505300 1 39d Rx d 5 5d 6c 29 28 00 
99.514200 1 1e5 Rx d 8 02 ec 00 00 00 00 20 f4 
99.517400 1 3ae Rx d 8 f6 3f 00 08 00 00 f1 2f 
99.522900 1 3ae Rx d 8 f7 3f 00 08 00 00 01 40 
99.524400 1 1e5 Rx d 8 02 ec 00 00 00 00 40 14 
99.532800 1 2a8 Rx d 8 02 11 00 00 06 80 d0 13 
99.534500 1 1e5 Rx d 8 02 ec 00 00 00 00 60 34 
99.538200 1 25b Rx d 8 d3 c0 02 05 6a 86 f0 d5 
99.543200 1 3ae Rx d 8 f7 3f 00 08 00 00 10 4f 
99.543300 1 39d Rx d 5 5e 6d 29 28 00 
99.544800 1 1e5 Rx d 8 02 ec 00 00 00 00 00 d4 
99.548800 1 3ae Rx d 8 f6 3f 00 08 00 00 20 5e 
99.551800 1 2a4 Rx d 8 ad 8f fd eb 6f 9f 7d 42 
99.552400 1 364 Rx d 4 3c 82 64 1f 
99.554300 1 1e5 Rx d 8 02 ec 00 00 00 00 20 f4 
99.564500 1 1e5 Rx d 8 02 ec 00 00 00 00 40 14 
99.574300 1 1e5 Rx d 8 02 ec 00 00 00 00 60 34 
99.583000 1 39d Rx d 5 5f 6e 29 28 00 
99.584700 1 1e5 Rx d 8 02 ec 00 00 00 00 00 d4 
99.588900 1 3ae Rx d 8 f6 3f 00 08 00 00 30 6e 
99.594500 1 1e5 Rx d 8 02 ec 00 00 00 00 20 f4 
99.605100 1 1e5 Rx d 8 02 ec 04 00 00 00 40 18 
99.614200 1 1e5 Rx d 8 02 ac 04 00 00 00 60 f8 
99.623300 1 39d Rx d 5 60 6f 29 28 00 
99.624700 1 1e5 Rx d 8 02 ac 04 00 00 00 00 98 
99.627700 1 3ae Rx d 8 f7 3f 00 08 00 00 40 7f 
99.632800 1 2a8 Rx d 8 02 11 00 00 06 80 e0 23 
99.634300 1 1e5 Rx d 8 02 ac 04 00 00 00 20 b8 
99.638100 1 25b Rx d 8 d3 c0 02 05 6a 86 00 e5 
99.638800 1 3ae Rx d 8 f7 3f 00 08 00 00 51 90 
99.644600 1 1e5 Rx d 8 02 ac 04 00 00 00 40 d8 
99.654200 1 1e5 Rx d 8 02 ac 04 00 00 00 60 f8 
99.663500 1 39d Rx d 5 51 60 29 28 00 
99.664900 1 1e5 Rx d 8 02 ac 04 00 00 00 00 98 
99.674200 1 1e5 Rx d 8 02 ac 04 00 00 00 20 b8 
99.677500 1 38b Rx d 8 fe fe 07 0f c5 00 22 03 
99.679700 1 3ae Rx d 8 f7 3f 00 08 00 00 61 a0 
99.684400 1 1e5 Rx d 8 02 ac 04 00 00 00 40 d8 
99.694500 1 1e5 Rx d 8 02 ac 04 00 00 00 60 f8 
99.698100 1 295 Rx d 8 1d 2c 00 00 00 00 00 00 
99.705100 1 1e5 Rx d 8 02 ac 04 00 00 00 00 98 
99.705300 1 39d Rx d 5 52 61 29 28 00 
99.714200 1 1e5 Rx d 8 02 ac 04 00 00 00 20 b8 
99.717800 1 3ae Rx d 8 f7 3f 00 08 00 00 71 b0 
99.724400 1 1e5 Rx d 8 02 ac 04 00 00 00 40 d8 
99.732900 1 2a8 Rx d 8 02 11 00 00 06 80 f0 33 
99.734300 1 1e5 Rx d 8 02 ac 04 00 00 00 60 f8 
99.738100 1 25b Rx d 8 d3 c0 02 05 6a 86 10 f5 
99.743000 1 3ae Rx d 8 f7 3f 00 08 00 00 80 bf 
99.743200 1 39d Rx d 5 73 62 49 28 00 
99.744600 1 1e5 Rx d 8 02 ac 04 00 00 00 00 98 
99.753900 1 295 Rx d 8 3c 00 a1 ff 00 00 00 01 
99.754300 1 1e5 Rx d 8 02 ac 04 00 00 00 20 b8 
99.764600 1 1e5 Rx d 8 02 ac 04 00 00 00 40 d8 
99.774200 1 1e5 Rx d 8 02 ac 04 00 00 00 60 f8 
99.783100 1 3ae Rx d 8 f7 3f 00 08 00 00 90 cf 
99.783300 1 39d Rx d 5 74 63 49 28 00 
99.784600 1 1e5 Rx d 8 02 ac 04 00 00 00 00 98 
99.794500 1 1e5 Rx d 8 02 ac 04 00 00 00 20 b8 
99.799700 1 295 Rx d 8 50 00 bf ff 00 00 00 02 
99.805200 1 1e5 Rx d 8 02 ac 04 00 00 00 40 d8 
99.814200 1 1e5 Rx d 8 02 ac 04 00 00 00 60 f8 
99.822800 1 3ae Rx d 8 f7 3f 00 08 00 00 a0 df 
99.823100 1 39d Rx d 5 75 64 49 28 00 
99.824600 1 1e5 Rx d 8 02 ac 04 00 00 00 00 98 
99.833600 1 2a8 Rx d 8 02 11 00 00 06 80 00 43 
99.834300 1 1e5 Rx d 8 02 ac 04 00 00 00 20 b8 
99.838000 1 25b Rx d 8 d3 c0 02 05 6a 86 20 05 
99.842900 1 3ae Rx d 8 f7 3f 00 08 00 00 b1 f0 
99.844400 1 1e5 Rx d 8 02 ac 04 00 00 00 40 d8 
99.851300 1 295 Rx d 8 1d 2c 00 00 00 00 00 03 
99.854300 1 1e5 Rx d 8 02 ac 04 00 00 00 60 f8 
99.863300 1 39d Rx d 5 76 65 49 28 00 
99.864700 1 1e5 Rx d 8 02 ac 04 00 00 00 00 98 
99.871800 1 301 Rx d 8 18 00 00 00 ff ff ff ff 
99.874200 1 1e5 Rx d 8 02 ac 04 00 00 00 20 b8 
99.883600 1 3ae Rx d 8 f7 3f 00 08 00 00 c1 00 
99.884800 1 1e5 Rx d 8 02 ac 04 00 00 00 40 d8 
99.894500 1 1e5 Rx d 8 02 ac 04 00 00 00 60 f8 
99.900900 1 295 Rx d 8 3c 00 a1 ff 00 00 00 04 
99.905200 1 1e5 Rx d 8 02 ac 04 00 00 00 00 98 
99.905300 1 39d Rx d 5 77 66 49 28 00 
99.914100 1 1e5 Rx d 8 02 ac 04 00 00 00 20 b8 
99.919200 1 302 Rx d 8 18 00 00 00 e8 f3 03 0d 
99.922900 1 3ae Rx d 8 f7 3f 00 08 00 00 d1 10 
99.924400 1 1e5 Rx d 8 02 ac 04 00 00 00 40 d8 
99.933100 1 2a8 Rx d 8 02 11 00 00 06 80 10 53 
99.934300 1 1e5 Rx d 8 02 ac 04 00 00 00 60 f8 
99.938200 1 25b Rx d 8 d3 c0 02 05 6a 86 30 15 
99.938900 1 3ae Rx d 8 f7 3f 00 08 00 00 e0 1f 
99.943000 1 39d Rx d 5 78 67 49 28 00 
99.944900 1 1e5 Rx d 8 02 ac 04 00 00 00 00 98 
99.951300 1 295 Rx d 8 50 00 bf ff 00 00 00 05 
99.954300 1 1e5 Rx d 8 02 ac 04 00 00 00 20 b8 
99.964800 1 1e5 Rx d 8 02 ac 04 00 00 00 40 d8 
99.974200 1 1e5 Rx d 8 02 ac 04 00 00 00 60 f8 
99.979000 1 300 Rx d 8 12 78 ce a8 7f 02 f3 c3 
99.979800 1 3ae Rx d 8 f7 3f 00 08 00 00 f0 2f 
99.980000 1 3f2 Rx d 8 04 cb 8c 32 90 a3 47 03 
99.983100 1 39d Rx d 5 79 68 49 28 00 
99.984600 1 1e5 Rx d 8 02 ac 04 00 00 00 00 98 
99.986800 1 3dd Rx d 8 47 9d 02 80 00 00 00 00 
99.994500 1 1e5 Rx d 8 02 ac 04 00 00 00 20 b8 
99.995300 1 303 Rx d 8 18 00 00 00 ff ff ff ff 
100.001800 1 295 Rx d 8 2b 48 00 00 00 00 00 06 
100.005100 1 1e5 Rx d 8 02 ac 04 00 00 00 40 d8 
100.014100 1 1e5 Rx d 8 02 ac 04 00 00 00 60 f8 
100.017800 1 3ae Rx d 8 f7 3f 00 08 00 00 00 3f 
100.023500 1 39d Rx d 5 7a 69 49 28 00 
100.024900 1 1e5 Rx d 8 02 ac 04 00 00 00 00 98 
100.033300 1 2a8 Rx d 8 02 11 00 00 06 80 20 63 
100.034300 1 1e5 Rx d 8 02 ac 04 00 00 00 20 b8 
100.037400 1 25b Rx d 8 d3 c0 02 05 6a 86 40 25 
100.044400 1 1e5 Rx d 8 02 ac 04 00 00 00 40 d8 
100.047600 1 3ae Rx d 8 f7 3f 00 08 00 00 11 50 
100.052800 1 295 Rx d 8 96 00 a1 ff 00 00 00 07 
100.054800 1 1e5 Rx d 8 02 ac 04 00 00 00 60 f8 
100.061100 1 726 Rx d 3 08 00 00 
100.063100 1 39d Rx d 5 7b 6a 49 28 00 
100.064800 1 1e5 Rx d 8 02 ac 04 00 00 00 00 98 
100.071700 1 724 Rx d 3 08 00 00 
100.074500 1 1e5 Rx d 8 02 ac 04 00 00 00 20 b8 
100.084400 1 1e5 Rx d 8 02 ac 04 00 00 00 40 d8 
100.088300 1 3ae Rx d 8 f7 3f 00 08 00 00 21 60 
100.094500 1 1e5 Rx d 8 02 ac 04 00 00 00 60 f8 
100.103400 1 295 Rx d 8 c8 00 ab ff 00 00 00 08 
100.105300 1 1e5 Rx d 8 02 ac 04 00 00 00 00 98 
100.105500 1 39d Rx d 5 7c 6b 49 28 00 
100.114100 1 1e5 Rx d 8 02 ac 04 00 00 00 20 b8 
100.124500 1 1e5 Rx d 8 02 ac 04 00 00 00 40 d8 
100.128600 1 3ae Rx d 8 f7 3f 00 08 00 00 31 70 
100.133500 1 2a8 Rx d 8 02 11 00 00 06 80 30 73 
100.134300 1 1e5 Rx d 8 02 ac 04 00 00 00 60 f8 
100.138000 1 25b Rx d 8 d3 c0 02 05 6a 86 50 35 
100.142900 1 3ae Rx d 8 f7 3f 00 08 00 00 40 7f 
100.143100 1 39d Rx d 5 7d 6c 49 28 00 
100.144800 1 1e5 Rx d 8 02 ac 04 00 00 00 00 98 
100.147800 1 23a Rx d 8 48 d1 00 21 00 08 00 00 
100.154300 1 1e5 Rx d 8 02 ac 04 00 00 00 20 b8 
100.155200 1 295 Rx d 8 2b 48 00 00 00 00 00 09 
100.164500 1 1e5 Rx d 8 02 ac 04 00 00 00 40 d8 
100.174200 1 1e5 Rx d 8 02 ac 04 00 00 00 60 f8 
100.183000 1 3ae Rx d 8 f7 3f 00 08 00 00 50 8f 
100.183100 1 39d Rx d 5 7e 6d 49 28 00 
100.184600 1 1e5 Rx d 8 02 ac 04 00 00 00 00 98 
100.194500 1 1e5 Rx d 8 02 ac 04 00 00 00 20 b8 
100.205300 1 1e5 Rx d 8 02 ac 04 00 00 00 40 d8 
100.206200 1 295 Rx d 8 96 00 a1 ff 00 00 00 0a 
100.214100 1 1e5 Rx d 8 02 ac 04 00 00 00 60 f8 
100.223100 1 3ae Rx d 8 f9 3f 00 08 00 00 60 a1 
100.223300 1 39d Rx d 5 7f 6e 49 28 00 
100.224600 1 1e5 Rx d 8 02 ac 04 00 00 00 00 98 
100.233500 1 2a8 Rx d 8 02 11 00 00 06 80 40 83 
100.234300 1 1e5 Rx d 8 02 ac 04 00 00 00 20 b8 
100.237400 1 25b Rx d 8 d3 c0 02 05 6a 86 60 45 
100.242900 1 3ae Rx d 8 f9 3f 00 08 00 00 71 b2 
100.244400 1 1e5 Rx d 8 02 ac 04 00 00 00 40 d8 
100.248200 1 3ae Rx d 8 f7 3f 00 08 00 00 81 c0 
100.254400 1 1e5 Rx d 8 02 ac 04 00 00 00 60 f8 
100.257100 1 295 Rx d 8 c8 00 ab ff 00 00 00 0b 
100.263100 1 39d Rx d 5 80 6f 49 28 00 
100.264800 1 1e5 Rx d 8 02 ac 04 00 00 00 00 98 
100.273200 1 3ae Rx d 8 f9 3f 00 08 00 00 91 d2 
100.274500 1 1e5 Rx d 8 02 ac 04 00 00 00 20 b8 
100.284300 1 1e5 Rx d 8 02 ac 04 00 00 00 40 d8 
100.294400 1 1e5 Rx d 8 02 ac 04 00 00 00 60 f8 
100.305200 1 1e5 Rx d 8 02 ac 04 00 00 00 00 98 
100.305600 1 39d Rx d 5 71 60 49 28 00 
100.313200 1 3ae Rx d 8 f9 3f 00 08 00 00 a1 e2 
100.314900 1 1e5 Rx d 8 02 ac 04 00 00 00 20 b8 
100.324400 1 1e5 Rx d 8 02 ac 04 00 00 00 40 d8 
100.327700 1 70b Rx d 8 08 00 00 00 50 50 50 50 
100.333500 1 2a8 Rx d 8 02 11 00 00 06 80 50 93 
100.334300 1 1e5 Rx d 8 02 ac 04 00 00 00 60 f8 
100.337800 1 25b Rx d 8 d3 c0 02 05 6a 86 70 55 
100.343000 1 3ae Rx d 8 f9 3f 00 08 00 00 b0 f1 
100.343200 1 39d Rx d 5 72 61 49 28 00 
100.344700 1 1e5 Rx d 8 02 ac 04 00 00 00 00 98 
100.354300 1 1e5 Rx d 8 02 ac 04 00 00 00 20 b8 
100.365200 1 1e5 Rx d 8 02 ac 04 00 00 00 40 d8 
100.366600 1 310 Rx d 8 14 05 00 00 47 77 e4 78 
100.374200 1 1e5 Rx d 8 02 ac 04 00 00 00 60 f8 
100.383000 1 3ae Rx d 8 f9 3f 00 08 00 00 c0 01 
100.383100 1 39d Rx d 5 73 62 49 28 00 
100.384400 1 1e5 Rx d 8 02 ac 04 00 00 00 00 98 
100.394400 1 1e5 Rx d 8 02 ac 04 00 00 00 20 b8 
100.405100 1 1e5 Rx d 8 02 ac 04 00 00 00 40 d8 
100.414100 1 1e5 Rx d 8 02 ac 04 00 00 00 60 f8 
100.422900 1 3ae Rx d 8 f9 3f 00 08 00 00 d0 11 
100.423300 1 39d Rx d 5 74 63 49 28 00 
100.424800 1 1e5 Rx d 8 02 ac 04 00 00 00 00 98 
100.433700 1 2a8 Rx d 8 02 11 00 00 06 80 60 a3 
100.434400 1 1e5 Rx d 8 02 ac 04 00 00 00 20 b8 
100.438000 1 25b Rx d 8 d3 c0 02 05 6a 86 80 65 
100.443100 1 3ae Rx d 8 f9 3f 00 08 00 00 e1 22 
100.444600 1 1e5 Rx d 8 02 ac 04 00 00 00 40 d8 
100.454300 1 1e5 Rx d 8 02 ac 04 00 00 00 60 f8 
100.463100 1 39d Rx d 5 75 64 49 28 00 
100.464500 1 1e5 Rx d 8 02 ac 04 00 00 00 00 98 
100.474700 1 1e5 Rx d 8 02 ac 04 00 00 00 20 b8 
100.483100 1 3ae Rx d 8 f9 3f 00 08 00 00 f1 32 
100.484300 1 1e5 Rx d 8 02 ac 04 00 00 00 40 d8 
100.494400 1 1e5 Rx d 8 02 ac 04 00 00 00 60 f8 
100.505200 1 1e5 Rx d 8 02 ac 04 00 00 00 00 98 
100.505400 1 39d Rx d 5 76 65 49 28 00 
100.514100 1 1e5 Rx d 8 02 ac 04 00 00 00 20 b8 
100.523000 1 3ae Rx d 8 f9 3f 00 08 00 00 01 42 
100.524700 1 1e5 Rx d 8 02 ac 04 00 00 00 40 d8 
100.533300 1 2a8 Rx d 8 02 11 00 00 06 80 70 b3 
100.534200 1 1e5 Rx d 8 02 ac 04 00 00 00 60 f8 
100.538400 1 25b Rx d 8 d3 c0 02 05 6a 86 90 75 
100.543100 1 39d Rx d 5 77 66 49 28 00 
100.544800 1 1e5 Rx d 8 02 ac 04 00 00 00 00 98 
100.549200 1 3ae Rx d 8 f9 3f 00 08 00 00 10 51 
100.551500 1 2a4 Rx d 8 ad 87 3d ec 6f 9f 7d 42 
100.552200 1 364 Rx d 4 3c 82 64 1f 
100.554200 1 1e5 Rx d 8 02 ac 04 00 00 00 20 b8 
100.564500 1 1e5 Rx d 8 02 ac 04 00 00 00 40 d8 
100.574200 1 1e5 Rx d 8 02 ac 04 00 00 00 60 f8 
100.583100 1 39d Rx d 5 78 67 49 28 00 
100.584800 1 1e5 Rx d 8 02 ac 04 00 00 00 00 98 
100.588700 1 3ae Rx d 8 f9 3f 00 08 00 00 20 61 
100.594400 1 1e5 Rx d 8 02 ac 04 00 00 00 20 b8 
100.605100 1 1e5 Rx d 8 02 ac 04 00 00 00 40 d8 
100.614100 1 1e5 Rx d 8 02 ac 04 00 00 00 60 f8 
100.623300 1 39d Rx d 5 79 68 49 28 00 
100.624800 1 1e5 Rx d 8 02 ac 04 00 00 00 00 98 
100.627700 1 3ae Rx d 8 f9 3f 00 08 00 00 30 71 
100.630800 1 330 Rx d 8 12 4d 38 39 30 36 31 33 
100.633300 1 2a8 Rx d 8 02 11 00 00 06 80 80 c3 
100.634200 1 1e5 Rx d 8 02 ac 04 00 00 00 20 b8 
100.637400 1 25b Rx d 8 d3 c0 02 05 6a 86 a0 85 
100.644400 1 1e5 Rx d 8 02 ac 04 00 00 00 40 d8 
100.649200 1 3ae Rx d 8 f9 3f 00 08 00 00 41 82 
100.654500 1 1e5 Rx d 8 02 ac 04 00 00 00 60 f8 
100.663100 1 39d Rx d 5 7a 69 49 28 00 
100.664900 1 1e5 Rx d 8 02 ac 04 00 00 00 00 98 
100.673200 1 38b Rx d 8 fe fe 0f 0f cd 00 22 03 
100.674700 1 1e5 Rx d 8 02 ac 04 00 00 00 20 b8 
100.684300 1 1e5 Rx d 8 02 ac 04 00 00 00 40 d8 
100.689000 1 3ae Rx d 8 f9 3f 00 08 00 00 51 92 
100.694400 1 1e5 Rx d 8 02 ac 04 00 00 00 60 f8 
100.703300 1 39d Rx d 5 7b 6a 49 28 00 
100.705300 1 1e5 Rx d 8 02 ac 04 00 00 00 00 98 
100.714100 1 1e5 Rx d 8 02 ac 04 00 00 00 20 b8 
100.724600 1 1e5 Rx d 8 02 ac 04 00 00 00 40 d8 
100.728600 1 3ae Rx d 8 f9 3f 00 08 00 00 61 a2 
100.733300 1 2a8 Rx d 8 02 11 00 00 06 80 90 d3 
100.734200 1 1e5 Rx d 8 02 ac 04 00 00 00 60 f8 
100.737800 1 25b Rx d 8 d3 c0 02 05 6a 86 b0 95 
100.743100 1 39d Rx d 5 7c 6b 49 28 00 
100.744800 1 1e5 Rx d 8 02 ac 04 00 00 00 00 98 
100.748200 1 3ae Rx d 8 f9 3f 00 08 00 00 70 b1 
100.754300 1 1e5 Rx d 8 02 ac 04 00 00 00 20 b8 
100.764500 1 1e5 Rx d 8 02 ac 04 00 00 00 40 d8 
100.774100 1 1e5 Rx d 8 02 ac 04 00 00 00 60 f8 
100.783100 1 39d Rx d 5 7d 6c 49 28 00 
100.784600 1 1e5 Rx d 8 02 ac 04 00 00 00 00 98 
100.788500 1 3ae Rx d 8 f9 3f 00 08 00 00 80 c1 
100.794400 1 1e5 Rx d 8 02 ac 04 00 00 00 20 b8 
100.805200 1 1e5 Rx d 8 02 ac 04 00 00 00 40 d8 
100.814100 1 1e5 Rx d 8 02 ac 04 00 00 00 60 f8 
100.823100 1 39d Rx d 5 7e 6d 49 28 00 
100.824600 1 1e5 Rx d 8 02 ac 04 00 00 00 00 98 
100.828700 1 3ae Rx d 8 f9 3f 00 08 00 00 90 d1 
100.833700 1 2a8 Rx d 8 02 11 00 00 06 80 a0 e3 
100.834400 1 1e5 Rx d 8 02 ac 04 00 00 00 20 b8 
100.838200 1 25b Rx d 8 d3 c0 02 05 6a 86 c0 a5 
100.844400 1 1e5 Rx d 8 02 ac 04 00 00 00 40 d8 
100.852500 1 3ae Rx d 8 f9 3f 00 08 00 00 a1 e2 
100.854100 1 1e5 Rx d 8 02 ac 04 00 00 00 60 f8 
100.863100 1 39d Rx d 5 7f 6e 49 28 00 
100.864700 1 1e5 Rx d 8 02 ac 04 00 00 00 00 98 
100.871900 1 301 Rx d 8 1f 00 00 00 f6 71 80 49 
100.874200 1 1e5 Rx d 8 02 ac 04 00 00 00 20 b8 
100.884300 1 1e5 Rx d 8 02 ac 04 00 00 00 40 d8 
100.892400 1 3ae Rx d 8 f9 3f 00 08 00 00 b1 f2 
100.894400 1 1e5 Rx d 8 02 ac 04 00 00 00 60 f8 
100.905300 1 1e5 Rx d 8 02 ac 04 00 00 00 00 98 
100.905700 1 39d Rx d 5 80 6f 49 28 00 
100.914100 1 1e5 Rx d 8 02 ac 04 00 00 00 20 b8 
100.919200 1 302 Rx d 8 1f 00 00 00 fa 1c 67 6c 
100.924300 1 1e5 Rx d 8 02 ac 04 00 00 00 40 d8 
100.932700 1 3ae Rx d 8 f9 3f 00 08 00 00 c1 02 
100.933700 1 2a8 Rx d 8 02 11 00 00 06 80 b0 f3 
100.934100 1 1e5 Rx d 8 02 ac 04 00 00 00 60 f8 
100.938200 1 25b Rx d 8 d3 c0 02 05 6a 86 d0 b5 
100.943100 1 39d Rx d 5 71 60 49 28 00 
100.944300 1 1e5 Rx d 8 02 ac 04 00 00 00 00 98 
100.948200 1 3ae Rx d 8 f9 3f 00 08 00 00 d0 11 
100.954300 1 1e5 Rx d 8 02 ac 04 00 00 00 20 b8 
100.964300 1 1e5 Rx d 8 02 ac 04 00 00 00 40 d8 
100.974400 1 1e5 Rx d 8 02 ac 04 00 00 00 60 f8 
100.979100 1 300 Rx d 8 14 05 00 00 fc 21 82 ed 
100.979900 1 3f2 Rx d 8 05 cc 10 16 20 3f d8 00 
100.983100 1 39d Rx d 5 72 61 49 28 00 
100.984800 1 1e5 Rx d 8 02 ac 04 00 00 00 00 98 
100.986900 1 3dd Rx d 8 08 00 00 00 00 00 00 00 
100.988600 1 3ae Rx d 8 f9 3f 00 08 00 00 e0 21 
100.994400 1 1e5 Rx d 8 02 ac 04 00 00 00 20 b8 
100.995800 1 303 Rx d 8 1f 00 00 00 ff ff ff ff 
129.503000 1 1e5 Rx d 8 02 ec 00 00 00 00 00 d4 
129.504300 1 39d Rx d 5 6a 6a ea 76 00 
129.504500 1 3ae Rx d 8 f7 3f 00 08 00 00 c1 00 
129.512100 1 1e5 Rx d 8 02 ec 00 00 00 00 20 f4 
129.522400 1 1e5 Rx d 8 02 ec 00 00 00 00 40 14 
129.529000 1 38b Rx d 8 fe fe 77 0f b5 80 22 03 
129.532700 1 1e5 Rx d 8 02 ec 00 00 00 00 60 34 
129.535300 1 2a8 Rx d 8 02 11 10 10 06 80 d2 35 
129.542400 1 1e5 Rx d 8 02 ec 00 00 00 00 00 d4 
129.543900 1 3ae Rx d 8 f7 3f 00 08 00 00 d1 10 
129.544100 1 39d Rx d 5 4b 6b ca 76 00 
129.550100 1 2a4 Rx d 8 ad 8f 3d ec 6f 9f fd 42 
129.552400 1 1e5 Rx d 8 02 ec 00 00 00 00 20 f4 
129.552600 1 364 Rx d 4 3c 82 64 1f 
129.559000 1 25b Rx d 8 d3 80 06 05 6a 86 c0 69 
129.562800 1 1e5 Rx d 8 02 ec 00 00 00 00 40 14 
129.572200 1 1e5 Rx d 8 02 ec 00 00 00 00 60 34 
129.582200 1 1e5 Rx d 8 02 ec 00 00 00 00 00 d4 
129.583700 1 3ae Rx d 8 f7 3f 00 08 00 00 e1 20 
129.583900 1 39d Rx d 5 4c 6c ca 76 00 
129.592600 1 1e5 Rx d 8 02 ec 00 00 00 00 20 f4 
129.599800 1 3ae Rx d 8 f7 3f 00 08 00 00 f0 2f 
129.602800 1 1e5 Rx d 8 02 ec 00 00 00 00 40 14 
129.612100 1 1e5 Rx d 8 02 ec 00 00 00 00 60 34 
129.622600 1 1e5 Rx d 8 02 ec 00 00 00 00 00 d4 
129.624700 1 39d Rx d 5 2d 6d aa 76 00 
129.632500 1 1e5 Rx d 8 02 ec 00 00 00 00 20 f4 
129.635300 1 2a8 Rx d 8 02 11 10 10 06 80 e2 45 
129.639000 1 3ae Rx d 8 f7 3f 00 08 00 00 00 3f 
129.642600 1 1e5 Rx d 8 02 ec 00 00 00 00 40 14 
129.652300 1 1e5 Rx d 8 02 ec 00 00 00 00 60 34 
129.659400 1 25b Rx d 8 d3 80 06 05 6a 86 d0 79 
129.662300 1 1e5 Rx d 8 02 ec 00 00 00 00 00 d4 
129.663900 1 39d Rx d 5 4d 6e ca 75 00 
129.672200 1 1e5 Rx d 8 02 ec 00 00 00 00 20 f4 
129.680900 1 3ae Rx d 8 f7 3f 00 08 00 00 10 4f 
129.682500 1 1e5 Rx d 8 02 ec 00 00 00 00 40 14 
129.685100 1 295 Rx d 8 1d 2c 00 00 00 00 00 00 
129.692500 1 1e5 Rx d 8 02 ec 00 00 00 00 60 34 
129.702900 1 1e5 Rx d 8 02 ec 00 00 00 00 00 d4 
129.704500 1 39d Rx d 5 ec 6f 6a 73 00 
129.704700 1 3ae Rx d 8 f7 3f 00 08 00 00 21 60 
129.712100 1 1e5 Rx d 8 02 ec 00 00 00 00 20 f4 
129.722600 1 1e5 Rx d 8 02 ec 00 00 00 00 40 14 
129.732400 1 1e5 Rx d 8 02 ec 00 00 00 00 60 34 
129.735300 1 2a8 Rx d 8 02 11 10 10 06 80 f2 55 
129.736500 1 295 Rx d 8 3c 00 a1 ff 00 00 00 01 
129.742400 1 1e5 Rx d 8 02 ec 00 00 00 00 00 d4 
129.743700 1 3ae Rx d 8 f7 3f 00 08 00 00 31 70 
129.744100 1 39d Rx d 5 56 60 ea 6c 00 
129.752200 1 1e5 Rx d 8 02 ec 00 00 00 00 20 f4 
129.759100 1 25b Rx d 8 d3 80 06 05 6a 86 e0 89 
129.762200 1 1e5 Rx d 8 02 ec 00 00 00 00 40 14 
129.772200 1 1e5 Rx d 8 02 ec 00 00 00 00 60 34 
129.782400 1 1e5 Rx d 8 02 ec 00 00 00 00 00 d4 
129.783800 1 3ae Rx d 8 f7 3f 00 08 00 00 41 80 
129.783900 1 39d Rx d 5 8e 61 2a 63 00 
129.787300 1 295 Rx d 8 50 00 bf ff 00 00 00 02 
129.792400 1 1e5 Rx d 8 02 ec 00 00 00 00 20 f4 
129.802800 1 1e5 Rx d 8 02 ec 00 00 00 00 40 14 
129.804500 1 3ae Rx d 8 f7 3f 00 08 00 00 50 8f 
129.812300 1 1e5 Rx d 8 02 ec 00 00 00 00 60 34 
129.822600 1 1e5 Rx d 8 02 ec 00 00 00 00 00 d4 
129.824300 1 39d Rx d 5 a4 62 4a 58 00 
129.832100 1 1e5 Rx d 8 02 ec 00 00 00 00 20 f4 
129.835400 1 2a8 Rx d 8 02 11 10 10 06 80 02 65 
129.838400 1 295 Rx d 8 1d 2c 00 00 00 00 00 03 
129.842900 1 1e5 Rx d 8 02 ec 00 00 00 00 40 14 
129.843700 1 3ae Rx d 8 f7 3f 00 08 00 00 60 9f 
129.852200 1 1e5 Rx d 8 02 ec 00 00 00 00 60 34 
129.859400 1 25b Rx d 8 d3 80 06 05 6a 86 f0 99 
129.862400 1 1e5 Rx d 8 02 ec 00 00 00 00 00 d4 
129.864000 1 39d Rx d 5 fb 63 aa 4e 00 
129.872200 1 1e5 Rx d 8 02 ec 00 00 00 00 20 f4 
129.873500 1 301 Rx d 8 0a 01 14 01 2d 00 86 00 
129.882700 1 1e5 Rx d 8 02 ec 00 00 00 00 40 14 
129.884900 1 3ae Rx d 8 f7 3f 00 08 00 00 70 af 
129.889100 1 295 Rx d 8 3c 00 a1 ff 00 00 00 04 
129.892500 1 1e5 Rx d 8 02 ec 00 00 00 00 60 34 
129.902900 1 1e5 Rx d 8 02 ec 00 00 00 00 00 d4 
129.904500 1 39d Rx d 5 f0 64 aa 42 00 
129.904700 1 3ae Rx d 8 f7 3f 00 08 00 00 81 c0 
129.912300 1 1e5 Rx d 8 02 ec 00 00 00 00 20 f4 
129.922400 1 1e5 Rx d 8 02 ec 00 00 00 00 40 14 
129.924600 1 302 Rx d 8 0a 01 cf 00 2f 00 23 00 
129.932100 1 1e5 Rx d 8 02 ec 00 00 00 00 60 34 
129.935400 1 2a8 Rx d 8 02 11 10 10 06 80 12 75 
129.940000 1 295 Rx d 8 50 00 bf ff 00 00 00 05 
129.942400 1 1e5 Rx d 8 02 ec 00 00 00 00 00 d4 
129.943700 1 3ae Rx d 8 f7 3f 00 08 00 00 91 d0 
129.944000 1 39d Rx d 5 e5 65 aa 36 00 
129.952200 1 1e5 Rx d 8 02 ec 00 00 00 00 20 f4 
129.959100 1 25b Rx d 8 d3 80 06 05 6a 86 00 a9 
129.962400 1 1e5 Rx d 8 02 ec 00 00 00 00 40 14 
129.972200 1 1e5 Rx d 8 02 ec 00 00 00 00 60 34 
129.979600 1 300 Rx d 8 12 78 ce a8 7f 02 f3 c3 
129.980400 1 3f2 Rx d 8 0a 2d 8f 32 10 8b 47 03 
129.982400 1 1e5 Rx d 8 02 ec 00 00 00 00 00 d4 
129.983700 1 3ae Rx d 8 f7 3f 00 08 00 00 a1 e0 
129.983900 1 39d Rx d 5 20 66 ea 30 00 
129.990100 1 3dd Rx d 8 d1 b9 c9 0c 00 00 a9 00 
129.990300 1 295 Rx d 8 2b 48 00 00 00 00 00 06 
129.992800 1 1e5 Rx d 8 02 ec 00 00 00 00 20 f4 
129.997100 1 303 Rx d 8 0a 01 cd 00 2d 00 24 00 
130.003000 1 1e5 Rx d 8 02 ec 00 00 00 00 40 14 
130.004400 1 3ae Rx d 8 f7 3f 00 08 00 00 b0 ef 
130.012100 1 1e5 Rx d 8 02 ec 00 00 00 00 60 34 
130.022500 1 1e5 Rx d 8 02 ec 00 00 00 00 00 d4 
130.025400 1 39d Rx d 5 dd 67 a9 2d 00 
130.032100 1 1e5 Rx d 8 02 ec 00 00 00 00 20 f4 
130.035400 1 2a8 Rx d 8 02 11 00 00 06 80 20 63 
130.041200 1 295 Rx d 8 96 00 a1 ff 00 00 00 07 
130.042900 1 1e5 Rx d 8 02 ec 00 00 00 00 40 14 
130.043700 1 3ae Rx d 8 f7 3f 00 08 00 00 c0 ff 
130.052300 1 1e5 Rx d 8 02 ec 00 00 00 00 60 34 
130.059400 1 25b Rx d 8 d3 80 06 05 6a 86 10 b9 
130.062200 1 1e5 Rx d 8 02 ec 00 00 00 00 00 d4 
130.063100 1 726 Rx d 3 08 00 00 
130.063900 1 39d Rx d 5 fb 68 c9 2a 00 
130.072600 1 1e5 Rx d 8 02 ec 00 00 00 00 20 f4 
130.074800 1 724 Rx d 3 08 00 00 
130.082400 1 1e5 Rx d 8 02 ec 00 00 00 00 40 14 
130.083700 1 3ae Rx d 8 f7 3f 00 08 00 00 d0 0f 
130.092900 1 1e5 Rx d 8 02 ec 00 00 00 00 60 34 
130.094000 1 295 Rx d 8 c8 00 ab ff 00 00 00 08 
130.102900 1 1e5 Rx d 8 02 ec 00 00 00 00 00 d4 
130.104500 1 39d Rx d 5 7a 69 49 28 00 
130.108800 1 25b Rx d 8 d3 c0 02 05 6a 86 20 05 
130.109500 1 3ae Rx d 8 f7 3f 00 08 00 00 e1 20 
130.112100 1 1e5 Rx d 8 02 ec 00 00 00 00 20 f4 
130.123100 1 1e5 Rx d 8 02 ec 00 00 00 00 40 14 
130.132100 1 1e5 Rx d 8 02 ec 00 00 00 00 60 34 
130.135300 1 2a8 Rx d 8 02 11 00 00 06 80 30 73 
130.142400 1 1e5 Rx d 8 02 ec 00 00 00 00 00 d4 
130.142600 1 295 Rx d 8 2b 48 00 00 00 00 00 09 
130.144000 1 39d Rx d 5 7b 6a 49 28 00 
130.149600 1 23a Rx d 8 40 c6 a9 04 89 9f 24 00 
130.151800 1 3ae Rx d 8 f7 3f 00 08 00 00 f1 30 
130.152700 1 1e5 Rx d 8 02 ec 00 00 00 00 20 f4 
130.162300 1 1e5 Rx d 8 02 ec 00 00 00 00 40 14 
130.172700 1 1e5 Rx d 8 02 ec 00 00 00 00 60 34 
130.182500 1 1e5 Rx d 8 02 ec 00 00 00 00 00 d4 
130.183900 1 39d Rx d 5 5c 6b 29 28 00 
130.189000 1 3ae Rx d 8 f7 3f 00 08 00 00 01 40 
130.192800 1 1e5 Rx d 8 02 ec 00 00 00 00 20 f4 
130.193900 1 295 Rx d 8 96 00 a1 ff 00 00 00 0a 
130.202800 1 1e5 Rx d 8 02 ec 00 00 00 00 40 14 
130.208700 1 25b Rx d 8 d3 c0 02 05 6a 86 30 15 
130.208900 1 3ae Rx d 8 f7 3f 00 08 00 00 10 4f 
130.212100 1 1e5 Rx d 8 02 ec 00 00 00 00 60 34 
130.222600 1 1e5 Rx d 8 02 ec 00 00 00 00 00 d4 
130.224300 1 39d Rx d 5 5d 6c 29 28 00 
130.232300 1 1e5 Rx d 8 02 ec 00 00 00 00 20 f4 
130.235400 1 2a8 Rx d 8 02 11 00 00 06 80 40 83 
130.242200 1 1e5 Rx d 8 02 ec 00 00 00 00 40 14 
130.244100 1 295 Rx d 8 c8 00 ab ff 00 00 00 0b 
130.248800 1 3ae Rx d 8 f7 3f 00 08 00 00 20 5f 
130.252400 1 1e5 Rx d 8 02 ec 00 00 00 00 60 34 
130.262300 1 1e5 Rx d 8 02 ec 00 00 00 00 00 d4 
130.264000 1 39d Rx d 5 5e 6d 29 28 00 
130.272400 1 1e5 Rx d 8 02 ec 00 00 00 00 20 f4 
130.282400 1 1e5 Rx d 8 02 ec 04 00 00 00 40 18 
130.288800 1 3ae Rx d 8 f7 3f 00 08 00 00 30 6f 
130.292800 1 1e5 Rx d 8 02 ac 04 00 00 00 60 f8 
130.302800 1 1e5 Rx d 8 02 ac 04 00 00 00 00 98 
130.304700 1 39d Rx d 5 5f 6e 29 28 00 
130.308900 1 25b Rx d 8 d3 c0 02 05 6a 86 40 25 
130.312700 1 1e5 Rx d 8 02 ac 04 00 00 00 20 b8 
130.314300 1 3ae Rx d 8 f7 3f 00 08 00 00 41 80 
130.322400 1 1e5 Rx d 8 02 ac 04 00 00 00 40 d8 
130.325300 1 3ae Rx d 8 f6 3f 00 08 00 00 51 8f 
130.329900 1 70b Rx d 8 08 00 00 00 50 50 50 50 
130.332200 1 1e5 Rx d 8 02 ac 04 00 00 00 60 f8 
130.335400 1 2a8 Rx d 8 02 11 00 00 06 80 50 93 
130.342400 1 1e5 Rx d 8 02 ac 04 00 00 00 00 98 
130.344000 1 39d Rx d 5 60 6f 29 28 00 
130.349700 1 3ae Rx d 8 f7 3f 00 08 00 00 61 a0 
130.352400 1 1e5 Rx d 8 02 ac 04 00 00 00 20 b8 
130.363000 1 1e5 Rx d 8 02 ac 04 00 00 00 40 d8 
130.364600 1 310 Rx d 8 14 05 00 00 47 77 e4 78 
130.372200 1 1e5 Rx d 8 02 ac 04 00 00 00 60 f8 
130.374200 1 3ae Rx d 8 f6 3f 00 08 00 00 71 af 
130.382400 1 1e5 Rx d 8 02 ac 04 00 00 00 00 98 
130.384200 1 39d Rx d 5 51 60 29 28 00 
130.392900 1 1e5 Rx d 8 02 ac 04 00 00 00 20 b8 
130.402800 1 1e5 Rx d 8 02 ac 04 00 00 00 40 d8 
130.409800 1 25b Rx d 8 d3 c0 02 05 6a 86 50 35 
130.410500 1 3ae Rx d 8 f6 3f 00 08 00 00 80 be 
130.412200 1 1e5 Rx d 8 02 ac 04 00 00 00 60 f8 
130.422400 1 1e5 Rx d 8 02 ac 04 00 00 00 00 98 
130.424300 1 39d Rx d 5 52 61 29 28 00 
130.432100 1 1e5 Rx d 8 02 ac 04 00 00 00 20 b8 
130.435400 1 2a8 Rx d 8 02 11 00 00 06 80 60 a3 
130.443000 1 1e5 Rx d 8 02 ac 04 00 00 00 40 d8 
130.449000 1 3ae Rx d 8 f6 3f 00 08 00 00 90 ce 
130.452400 1 1e5 Rx d 8 02 ac 04 00 00 00 60 f8 
130.462200 1 1e5 Rx d 8 02 ac 04 00 00 00 00 98 
130.464100 1 39d Rx d 5 73 62 49 28 00 
130.472200 1 1e5 Rx d 8 02 ac 04 00 00 00 20 b8 
130.482100 1 1e5 Rx d 8 02 ac 04 00 00 00 40 d8 
130.488800 1 3ae Rx d 8 f6 3f 00 08 00 00 a0 de 
130.492600 1 1e5 Rx d 8 02 ac 04 00 00 00 60 f8 
130.502800 1 1e5 Rx d 8 02 ac 04 00 00 00 00 98 
130.504300 1 39d Rx d 5 74 63 49 28 00 
130.508700 1 25b Rx d 8 d3 c0 02 05 6a 86 60 45 
130.512100 1 1e5 Rx d 8 02 ac 04 00 00 00 20 b8 
130.514000 1 3ae Rx d 8 f6 3f 00 08 00 00 b1 ef 
130.523100 1 1e5 Rx d 8 02 ac 04 00 00 00 40 d8 
130.524600 1 38b Rx d 8 fe fe 7f 0f bd 80 22 03 
130.532600 1 1e5 Rx d 8 02 ac 04 00 00 00 60 f8 
130.535300 1 2a8 Rx d 8 02 11 00 00 06 80 70 b3 
130.542400 1 1e5 Rx d 8 02 ac 04 00 00 00 00 98 
130.544000 1 39d Rx d 5 75 64 49 28 00 
130.550300 1 2a4 Rx d 8 ad 87 3d ec 71 9f fd 42 
130.550600 1 364 Rx d 4 3c 82 64 1f 
130.552400 1 1e5 Rx d 8 02 ac 04 00 00 00 20 b8 
130.554400 1 3ae Rx d 8 f6 3f 00 08 00 00 c1 ff 
130.562300 1 1e5 Rx d 8 02 ac 04 00 00 00 40 d8 
130.572200 1 1e5 Rx d 8 02 ac 04 00 00 00 60 f8 
130.582200 1 1e5 Rx d 8 02 ac 04 00 00 00 00 98 
130.583900 1 39d Rx d 5 76 65 49 28 00 
130.592600 1 1e5 Rx d 8 02 ac 04 00 00 00 20 b8 
130.594900 1 3ae Rx d 8 f6 3f 00 08 00 00 d1 0f 
130.602800 1 1e5 Rx d 8 02 ac 04 00 00 00 40 d8 
130.608700 1 25b Rx d 8 d3 c0 02 05 6a 86 70 55 
130.612100 1 1e5 Rx d 8 02 ac 04 00 00 00 60 f8 
130.613800 1 3ae Rx d 8 f6 3f 00 08 00 00 e0 1e 
130.622400 1 1e5 Rx d 8 02 ac 04 00 00 00 00 98 
130.624800 1 39d Rx d 5 77 66 49 28 00 
130.632300 1 1e5 Rx d 8 02 ac 04 00 00 00 20 b8 
130.632800 1 330 Rx d 8 12 4d 38 39 30 36 31 33 
130.635400 1 2a8 Rx d 8 02 11 00 00 06 80 80 c3 
130.642900 1 1e5 Rx d 8 02 ac 04 00 00 00 40 d8 
130.652400 1 1e5 Rx d 8 02 ac 04 00 00 00 60 f8 
130.654900 1 3ae Rx d 8 f6 3f 00 08 00 00 f0 2e 
130.662200 1 1e5 Rx d 8 02 ac 04 00 00 00 00 98 
130.663900 1 39d Rx d 5 78 67 49 28 00 
130.672100 1 1e5 Rx d 8 02 ac 04 00 00 00 20 b8 
130.682400 1 1e5 Rx d 8 02 ac 04 00 00 00 40 d8 
130.692600 1 1e5 Rx d 8 02 ac 04 00 00 00 60 f8 
130.694500 1 3ae Rx d 8 f6 3f 00 08 00 00 00 3e 
130.702800 1 1e5 Rx d 8 02 ac 04 00 00 00 00 98 
130.704400 1 39d Rx d 5 79 68 49 28 00 
130.708700 1 25b Rx d 8 d3 c0 02 05 6a 86 80 65 
130.712100 1 1e5 Rx d 8 02 ac 04 00 00 00 20 b8 
130.714300 1 3ae Rx d 8 f5 3f 00 08 00 00 11 4e 
130.722900 1 1e5 Rx d 8 02 ac 04 00 00 00 40 d8 
130.732100 1 1e5 Rx d 8 02 ac 04 00 00 00 60 f8 
130.735900 1 2a8 Rx d 8 02 11 00 00 06 80 90 d3 
130.742400 1 1e5 Rx d 8 02 ac 04 00 00 00 00 98 
130.744000 1 39d Rx d 5 7a 69 49 28 00 
130.752200 1 1e5 Rx d 8 02 ac 04 00 00 00 20 b8 
130.754400 1 3ae Rx d 8 f5 3f 00 08 00 00 21 5e 
130.762500 1 1e5 Rx d 8 02 ac 04 00 00 00 40 d8 
130.772100 1 1e5 Rx d 8 02 ac 04 00 00 00 60 f8 
130.782400 1 1e5 Rx d 8 02 ac 04 00 00 00 00 98 
130.784000 1 39d Rx d 5 7b 6a 49 28 00 
130.792600 1 1e5 Rx d 8 02 ac 04 00 00 00 20 b8 
130.795100 1 3ae Rx d 8 f4 3f 00 08 00 00 31 6d 
130.802800 1 1e5 Rx d 8 02 ac 04 00 00 00 40 d8 
130.808700 1 25b Rx d 8 d3 c0 02 05 6a 86 90 75 
130.812000 1 1e5 Rx d 8 02 ac 04 00 00 00 60 f8 
130.822700 1 1e5 Rx d 8 02 ac 04 00 00 00 00 98 
130.824600 1 39d Rx d 5 7c 6b 49 28 00 
130.824800 1 3ae Rx d 8 f4 3f 00 08 00 00 40 7c 
130.832100 1 1e5 Rx d 8 02 ac 04 00 00 00 20 b8 
130.835400 1 2a8 Rx d 8 02 11 00 00 06 80 a0 e3 
130.842400 1 1e5 Rx d 8 02 ac 04 00 00 00 40 d8 
130.852300 1 1e5 Rx d 8 02 ac 04 00 00 00 60 f8 
130.862300 1 1e5 Rx d 8 02 ac 04 00 00 00 00 98 
130.863800 1 3ae Rx d 8 f4 3f 00 08 00 00 50 8c 
130.864000 1 39d Rx d 5 7d 6c 49 28 00 
130.872600 1 1e5 Rx d 8 02 ac 04 00 00 00 20 b8 
130.873600 1 301 Rx d 8 0b 2d 00 00 00 00 00 00 
130.882400 1 1e5 Rx d 8 02 ac 04 00 00 00 40 d8 
130.892300 1 1e5 Rx d 8 02 ac 04 00 00 00 60 f8 
130.902800 1 1e5 Rx d 8 02 ac 04 00 00 00 00 98 
130.904400 1 39d Rx d 5 7e 6d 49 28 00 
130.904600 1 3ae Rx d 8 f4 3f 00 08 00 00 60 9c 
130.908700 1 25b Rx d 8 d3 c0 02 05 6a 86 a0 85 
130.912000 1 1e5 Rx d 8 02 ac 04 00 00 00 20 b8 
130.914000 1 3ae Rx d 8 f4 3f 00 08 00 00 71 ad 
130.923100 1 1e5 Rx d 8 02 ac 04 00 00 00 40 d8 
130.924600 1 302 Rx d 8 0b 2f 00 00 00 00 00 00 
130.932200 1 1e5 Rx d 8 02 ac 04 00 00 00 60 f8 
130.936400 1 2a8 Rx d 8 02 11 00 00 06 80 b0 f3 
130.942500 1 1e5 Rx d 8 02 ac 04 00 00 00 00 98 
130.944000 1 39d Rx d 5 7f 6e 49 28 00 
130.952100 1 1e5 Rx d 8 02 ac 04 00 00 00 20 b8 
130.954300 1 3ae Rx d 8 f4 3f 00 08 00 00 81 bd 
130.962100 1 1e5 Rx d 8 02 ac 04 00 00 00 40 d8 
130.972100 1 1e5 Rx d 8 02 ac 04 00 00 00 60 f8 
130.979700 1 300 Rx d 8 14 05 00 00 fc 21 82 ed 
130.980500 1 3f2 Rx d 8 0b 7f 10 16 80 30 d8 00 
130.982500 1 1e5 Rx d 8 02 ac 04 00 00 00 00 98 
130.984000 1 39d Rx d 5 80 6f 49 28 00 
130.990100 1 3dd Rx d 8 32 02 1f 30 02 1f 00 00 
130.992900 1 1e5 Rx d 8 02 ac 04 00 00 00 20 b8 
130.995200 1 3ae Rx d 8 f4 3f 00 08 00 00 91 cd 
130.997200 1 303 Rx d 8 0b 2d 00 00 00 00 00 00 
End Triggerblock	
