date Thu Aug 27 02:07:23 PM 2026
base hex timestamps absolute
// version 7.0.0
39.502600 1 118 Rx d 8 51 67 95 00 14 c8 60 00 
39.504200 1 266 Rx d 8 02 00 04 26 04 00 9f 01 
39.504400 1 132 Rx d 6 cc 87 d0 ff d6 3f 
39.504600 1 1d8 Rx d 8 29 54 80 07 00 00 20 fd 
39.504900 1 257 Rx d 8 e3 7c 2b 0f 06 b8 15 01 
39.508200 1 129 Rx d 8 63 25 05 60 00 20 ff 3f 
39.512100 1 22a Rx d 4 00 00 c9 15 
39.512900 1 1d8 Rx d 8 29 54 00 06 00 00 40 9c 
39.513700 1 118 Rx d 8 72 68 95 00 14 c8 80 00 
39.514200 1 266 Rx d 8 02 00 04 26 04 00 9f 01 
39.514400 1 132 Rx d 6 cb 87 d1 ff dd 3f 
39.514700 1 401 Rx d 8 1a 2a 32 80 33 80 2f 80 
39.514900 1 23e Rx d 8 3b 1d 73 c0 01 11 15 f2 
39.515500 1 3ae Rx d 8 11 40 00 08 00 00 a1 fb 
39.518400 1 129 Rx d 8 b9 26 05 60 00 20 ff 3f 
39.522600 1 118 Rx d 8 83 69 95 00 14 c8 90 00 
39.522800 1 266 Rx d 8 02 00 04 26 04 00 9f 01 
39.523000 1 1d8 Rx d 8 29 54 00 05 00 00 60 bb 
39.523400 1 257 Rx d 8 e4 7d 2b 0f 06 b8 15 01 
39.524300 1 132 Rx d 6 c2 87 d0 ff dc 3f 
39.527400 1 2d2 Rx d 8 70 29 a7 4e c4 09 d5 14 
39.527600 1 212 Rx d 8 59 04 00 00 81 ff 77 31 
39.527800 1 252 Rx d 8 46 23 8c 4a 00 fc 0f 00 
39.528100 1 292 Rx d 8 c7 45 27 9e 72 01 00 00 
39.528300 1 129 Rx d 8 ae 27 05 60 00 20 ff 3f 
39.532900 1 1d8 Rx d 8 29 54 c0 03 00 00 80 99 
39.533700 1 118 Rx d 8 84 6a 95 00 14 c8 90 00 
39.534200 1 266 Rx d 8 02 00 04 26 04 00 9f 01 
39.534600 1 132 Rx d 6 cf 87 cf ff d9 3f 
39.535400 1 401 Rx d 8 1b 2a 2c 80 32 80 33 80 
39.538200 1 129 Rx d 8 10 28 05 60 ff 1f ff 3f 
39.541500 1 241 Rx d 7 28 2a 14 8a 0a 45 00 
39.542600 1 118 Rx d 8 75 6b 95 00 14 c8 80 00 
39.542900 1 266 Rx d 8 02 00 04 26 04 00 9f 01 
39.543100 1 2b4 Rx d 6 26 05 99 0d 34 01 
39.543300 1 1d8 Rx d 8 29 52 40 04 00 00 a0 38 
39.544000 1 257 Rx d 8 e5 7e 2b 0f 06 b8 15 01 
39.544700 1 132 Rx d 6 b7 87 cf ff d9 3f 
39.548200 1 129 Rx d 8 2c 29 05 60 00 20 ff 3f 
39.553000 1 1d8 Rx d 8 29 52 c0 02 00 00 c0 d6 
39.553700 1 118 Rx d 8 76 6c 95 00 14 c8 80 00 
39.554200 1 23e Rx d 8 f4 01 3a c0 fa fc 2f 54 
39.554400 1 132 Rx d 6 d4 87 cf ff d7 3f 
39.554600 1 266 Rx d 8 02 00 04 26 04 00 9f 01 
39.554900 1 401 Rx d 8 1c 2a 32 80 33 80 32 80 
39.555400 1 3ae Rx d 8 11 40 00 08 00 00 b1 0b 
39.558200 1 129 Rx d 8 f3 2a 05 60 00 20 ff 3f 
39.559300 1 3e2 Rx d 7 00 00 80 1a f0 cf 04 
39.562700 1 118 Rx d 8 77 6d 95 00 14 c8 80 00 
39.562900 1 1d8 Rx d 8 29 52 c0 01 00 00 e0 f5 
39.563100 1 266 Rx d 8 02 00 04 26 04 00 9f 01 
39.563900 1 257 Rx d 8 e6 7f 2b 0f 06 b8 15 01 
39.564300 1 132 Rx d 6 be 87 d0 ff d7 3f 
39.568200 1 129 Rx d 8 6b 2b 05 60 ff 1f ff 3f 
39.572900 1 1d8 Rx d 8 29 52 80 01 00 00 00 d5 
39.573700 1 118 Rx d 8 78 6e 95 00 14 c8 80 00 
39.574200 1 266 Rx d 8 02 00 04 26 04 00 9f 01 
39.574400 1 132 Rx d 6 be 87 cf ff d3 3f 
39.575700 1 401 Rx d 8 1d 2a 34 80 33 80 33 80 
39.578200 1 129 Rx d 8 62 2c 05 60 00 20 ff 3f 
39.582600 1 118 Rx d 8 69 6f 95 00 14 c8 70 00 
39.582800 1 266 Rx d 8 02 00 04 26 04 00 9f 01 
39.583100 1 1d8 Rx d 8 29 52 40 01 00 00 20 b5 
39.583300 1 257 Rx d 8 d7 70 2b 0f 06 b8 15 01 
39.583800 1 108 Rx d 8 fb 93 02 4a 01 e9 04 25 
39.583900 1 126 Rx d 5 15 38 17 1c a7 
39.584300 1 132 Rx d 6 c3 87 d1 ff d7 3f 
39.585200 1 268 Rx d 5 04 04 f8 00 bf 
39.585500 1 279 Rx d 8 4b 03 0d 01 74 05 65 02 
39.585900 1 3ae Rx d 8 11 40 00 08 00 00 c0 1a 
39.588300 1 129 Rx d 8 70 2d 05 60 00 20 ff 3f 
39.591500 1 383 Rx d 8 bd 18 3d 00 4b 21 04 58 
39.593100 1 1d8 Rx d 8 29 52 00 01 00 00 40 95 
39.594000 1 118 Rx d 8 6a 60 95 00 14 c8 80 00 
39.594200 1 23e Rx d 8 f4 01 3a c0 fa fc 3f 64 
39.594400 1 132 Rx d 6 c1 87 d0 ff d6 3f 
39.594700 1 266 Rx d 8 02 00 04 26 04 00 9f 01 
39.596300 1 401 Rx d 8 1e 2a 2f 80 31 80 31 80 
39.596800 1 7d5 Rx d 8 2b f7 0f 00 00 00 00 00 
39.597100 1 7d5 Rx d 8 2c 00 3f 00 00 00 00 00 
39.597300 1 7d5 Rx d 8 32 00 00 00 00 00 00 00 
39.598000 1 7d7 Rx d 8 32 04 00 00 00 00 00 00 
39.598300 1 129 Rx d 8 af 2e 05 60 00 20 ff 3f 
39.602600 1 118 Rx d 8 5b 61 95 00 14 c8 70 00 
39.603500 1 266 Rx d 8 02 00 04 26 04 00 9f 01 
39.603700 1 1d8 Rx d 8 29 52 00 01 00 00 60 b5 
39.604200 1 257 Rx d 8 d8 71 2b 0f 06 b8 15 01 
39.604400 1 132 Rx d 6 ca 87 d0 ff d8 3f 
39.608200 1 129 Rx d 8 5e 2f 05 60 00 20 ff 3f 
39.612100 1 22a Rx d 4 00 00 c9 15 
39.612900 1 1d8 Rx d 8 29 52 00 02 00 00 80 d6 
39.613700 1 118 Rx d 8 4c 62 95 00 14 c8 60 00 
39.614000 1 266 Rx d 8 02 00 04 26 04 00 9f 01 
39.614400 1 132 Rx d 6 c7 87 d0 ff dc 3f 
39.615100 1 401 Rx d 8 1f 2a 30 80 2a 80 2c 80 
39.618200 1 129 Rx d 8 bb 20 05 60 00 20 ff 3f 
39.622600 1 118 Rx d 8 6d 63 95 00 14 c8 80 00 
39.622800 1 266 Rx d 8 02 00 04 26 04 00 9f 01 
39.623000 1 1d8 Rx d 8 29 52 80 01 00 00 a0 75 
39.623300 1 257 Rx d 8 d9 72 2b 0f 06 b8 15 01 
39.624400 1 132 Rx d 6 ca 87 d0 ff d9 3f 
39.624800 1 3ae Rx d 8 11 40 00 08 00 00 d0 2a 
39.627300 1 2d2 Rx d 8 70 29 a7 4e c4 09 d5 14 
39.627500 1 212 Rx d 8 59 04 00 00 81 ff 77 31 
39.627700 1 252 Rx d 8 46 23 8c 4a 00 fc 0f 00 
39.628000 1 292 Rx d 8 c7 45 27 9e 72 01 00 00 
39.628400 1 129 Rx d 8 ac 21 05 60 00 20 ff 3f 
39.632900 1 1d8 Rx d 8 29 52 c0 01 00 00 c0 d5 
39.633700 1 118 Rx d 8 8e 64 95 00 14 c8 a0 00 
39.634000 1 266 Rx d 8 02 00 04 26 04 00 9f 01 
39.634200 1 23e Rx d 8 f4 01 3a c0 fa fc 4f 74 
39.634600 1 132 Rx d 6 c3 87 d0 ff db 3f 
39.634900 1 401 Rx d 8 20 2a 29 80 2d 80 2e 80 
39.638200 1 129 Rx d 8 e5 22 05 60 00 20 ff 3f 
39.641500 1 241 Rx d 7 27 2a d4 89 0a 45 00 
39.641700 1 2b4 Rx d 6 24 05 99 0d 13 01 
39.642600 1 118 Rx d 8 6f 65 95 00 14 c8 80 00 
39.642800 1 266 Rx d 8 02 00 04 26 04 00 9f 01 
39.643100 1 1d8 Rx d 8 29 52 40 01 00 00 e0 75 
39.643300 1 257 Rx d 8 da 73 2b 0f 06 b8 15 01 
39.644300 1 132 Rx d 6 d5 87 d0 ff dc 3f 
39.648200 1 129 Rx d 8 f2 23 05 60 00 20 ff 3f 
39.652900 1 1d8 Rx d 8 29 52 c0 00 00 00 00 14 
39.653700 1 118 Rx d 8 60 66 95 00 14 c8 70 00 
39.654000 1 266 Rx d 8 02 00 04 26 04 00 9f 01 
39.654400 1 132 Rx d 6 d4 87 d1 ff d8 3f 
39.655400 1 401 Rx d 8 21 2a 2d 80 2c 80 2e 80 
39.658200 1 129 Rx d 8 74 24 05 60 00 20 ff 3f 
39.662600 1 118 Rx d 8 61 67 95 00 14 c8 70 00 
39.662800 1 266 Rx d 8 02 00 04 26 04 00 9f 01 
39.663100 1 1d8 Rx d 8 29 52 80 00 00 00 20 f4 
39.663300 1 257 Rx d 8 db 74 2b 0f 06 b8 15 01 
39.664400 1 132 Rx d 6 c0 87 d0 ff d8 3f 
39.665100 1 3ae Rx d 8 11 40 00 08 00 00 e0 3a 
39.668200 1 129 Rx d 8 63 25 05 60 00 20 ff 3f 
39.672900 1 1d8 Rx d 8 29 52 40 00 00 00 40 d4 
39.673700 1 118 Rx d 8 62 68 95 00 14 c8 70 00 
39.674200 1 23e Rx d 8 f4 01 3a c0 fa fc 5f 84 
39.674400 1 132 Rx d 6 c7 87 d1 ff d4 3f 
39.675100 1 266 Rx d 8 02 00 04 26 04 00 9f 01 
39.676000 1 401 Rx d 8 22 2a 36 80 35 80 36 80 
39.678200 1 129 Rx d 8 b9 26 05 60 00 20 ff 3f 
39.682500 1 118 Rx d 8 63 69 95 00 14 c8 70 00 
39.682800 1 266 Rx d 8 02 00 04 26 03 00 9f 01 
39.683000 1 1d8 Rx d 8 29 52 40 00 00 00 60 f4 
39.683300 1 257 Rx d 8 dc 75 2b 0f 06 b8 15 01 
39.683700 1 108 Rx d 8 e4 84 02 3a 01 f1 04 25 
39.684100 1 126 Rx d 5 15 58 17 24 cf 
39.684500 1 132 Rx d 6 bf 87 d1 ff d8 3f 
39.685200 1 268 Rx d 5 04 04 f8 00 bf 
39.685700 1 279 Rx d 8 4c 04 0d 01 74 05 65 02 
39.687600 1 3ae Rx d 8 11 40 00 08 00 00 f1 4b 
39.688300 1 129 Rx d 8 03 27 05 60 01 20 ff 3f 
39.691500 1 383 Rx d 8 bd 18 3d 00 4b 21 04 58 
39.692900 1 1d8 Rx d 8 29 52 40 00 00 00 80 14 
39.693800 1 118 Rx d 8 54 6a 95 00 14 c8 60 00 
39.694000 1 7d5 Rx d 8 2b f7 0f 00 00 00 00 00 
39.694300 1 266 Rx d 8 02 00 04 26 04 00 9f 01 
39.694500 1 132 Rx d 6 cd 87 d0 ff d4 3f 
39.695200 1 401 Rx d 8 23 02 35 80 00 00 00 00 
39.695500 1 7d5 Rx d 8 2c 00 3f 00 00 00 00 00 
39.695700 1 7d5 Rx d 8 32 00 00 00 00 00 00 00 
39.696200 1 7d7 Rx d 8 32 04 00 00 00 00 00 00 
39.698200 1 129 Rx d 8 79 28 05 60 00 20 ff 3f 
39.702600 1 118 Rx d 8 75 6b 95 00 14 c8 80 00 
39.703500 1 266 Rx d 8 02 00 04 26 03 00 9f 01 
39.704000 1 1d8 Rx d 8 29 52 00 00 00 00 a0 f4 
39.704200 1 257 Rx d 8 e6 76 2b 10 06 c0 15 01 
39.704400 1 132 Rx d 6 c7 87 d2 ff de 3f 
39.708200 1 129 Rx d 8 2c 29 05 60 00 20 ff 3f 
39.712200 1 22a Rx d 4 00 00 c9 15 
39.712900 1 1d8 Rx d 8 29 52 00 00 00 00 c0 14 
39.713800 1 118 Rx d 8 a6 6c 95 00 14 c8 b0 00 
39.714200 1 23e Rx d 8 f4 01 3a c0 fa fc 6f 94 
39.714400 1 132 Rx d 6 cd 87 d1 ff d9 3f 
39.714700 1 266 Rx d 8 02 00 04 26 04 00 9f 01 
39.718200 1 129 Rx d 8 f3 2a 05 60 00 20 ff 3f 
39.722700 1 118 Rx d 8 a7 6d 95 00 14 c8 b0 00 
39.722900 1 1d8 Rx d 8 29 50 00 00 00 00 e0 32 
39.723100 1 266 Rx d 8 02 00 04 26 04 00 9f 01 
39.724000 1 257 Rx d 8 f7 87 2b 10 06 c0 15 01 
39.724500 1 132 Rx d 6 d5 87 d1 ff dd 3f 
39.725200 1 3ae Rx d 8 11 40 00 08 00 00 01 5b 
39.727500 1 212 Rx d 8 59 04 00 00 81 ff 77 31 
39.727700 1 252 Rx d 8 46 23 8c 4a 00 fc 0f 00 
39.728000 1 292 Rx d 8 c7 45 27 9e 72 01 00 00 
39.728300 1 129 Rx d 8 02 2b 05 60 00 20 ff 3f 
39.728800 1 2d2 Rx d 8 70 29 a7 4e c4 09 d5 14 
39.732900 1 1d8 Rx d 8 29 50 00 00 00 00 00 52 
39.733700 1 118 Rx d 8 97 6e 95 00 13 c8 a0 00 
39.734000 1 266 Rx d 8 02 00 04 26 03 00 9f 01 
39.734700 1 132 Rx d 6 c3 87 d0 ff d9 3f 
39.738300 1 129 Rx d 8 62 2c 05 60 00 20 ff 3f 
39.741500 1 241 Rx d 7 28 2a 14 8a 0a 45 00 
39.741700 1 2b4 Rx d 6 21 05 98 0d 20 01 
39.742600 1 118 Rx d 8 96 6f 95 00 11 c8 a0 00 
39.742900 1 266 Rx d 8 02 00 04 26 04 00 9f 01 
39.743100 1 1d8 Rx d 8 29 50 00 00 00 00 20 72 
39.743300 1 257 Rx d 8 f8 88 2b 10 06 c0 15 01 
39.744500 1 132 Rx d 6 c9 87 d1 ff d6 3f 
39.748200 1 129 Rx d 8 70 2d 05 60 00 20 ff 3f 
39.753000 1 1d8 Rx d 8 29 50 00 00 00 00 40 92 
39.753800 1 118 Rx d 8 84 60 95 00 0e c8 a0 00 
39.754000 1 266 Rx d 8 02 00 04 26 03 00 9f 01 
39.754200 1 23e Rx d 8 f4 01 3a c0 fa fc 7f a4 
39.754400 1 132 Rx d 6 ce 87 d1 ff d6 3f 
39.758200 1 129 Rx d 8 af 2e 05 60 00 20 ff 3f 
39.759300 1 3e2 Rx d 7 00 00 80 1a f0 cf 04 
39.762600 1 118 Rx d 8 73 61 95 00 0c c8 90 00 
39.762800 1 266 Rx d 8 02 00 04 26 03 00 9f 01 
39.763100 1 1d8 Rx d 8 29 50 00 00 00 00 60 b2 
39.763300 1 257 Rx d 8 f9 89 2b 10 06 c0 15 01 
39.764500 1 132 Rx d 6 ce 87 d2 ff d9 3f 
39.765100 1 3ae Rx d 8 11 40 00 08 00 00 11 6b 
39.768400 1 129 Rx d 8 5e 2f 05 60 00 20 ff 3f 
39.773100 1 1d8 Rx d 8 29 4e 00 00 00 00 80 d0 
39.773600 1 118 Rx d 8 51 62 95 00 09 c8 70 00 
39.774000 1 266 Rx d 8 02 00 04 26 03 00 9f 01 
39.774500 1 132 Rx d 6 d6 87 d3 ff dd 3f 
39.778200 1 129 Rx d 8 bb 20 05 60 00 20 ff 3f 
39.782600 1 118 Rx d 8 50 63 95 00 07 c8 70 00 
39.782800 1 266 Rx d 8 02 00 04 26 03 00 9f 01 
39.783300 1 1d8 Rx d 8 29 4c 00 00 00 00 a0 ee 
39.783800 1 257 Rx d 8 fa 8a 2b 10 06 c0 15 01 
39.784000 1 108 Rx d 8 9e 55 02 2a 01 ea 04 25 
39.784400 1 126 Rx d 5 15 10 18 2c 90 
39.784800 1 132 Rx d 6 ca 87 d3 ff de 3f 
39.785500 1 3ae Rx d 8 11 40 00 08 00 00 20 7a 
39.785700 1 268 Rx d 5 04 04 f8 00 bf 
39.785900 1 279 Rx d 8 49 05 0d 01 70 05 65 02 
39.788400 1 129 Rx d 8 c5 21 05 60 ff 1f ff 3f 
39.791500 1 383 Rx d 8 bd 18 3d 00 4b 21 04 58 
39.792900 1 1d8 Rx d 8 29 48 00 00 00 00 c0 0a 
39.793800 1 118 Rx d 8 4e 64 95 00 04 c8 70 00 
39.794200 1 266 Rx d 8 02 00 04 26 03 00 9f 01 
39.794400 1 132 Rx d 6 d9 87 d5 ff e5 3f 
39.794700 1 23e Rx d 8 f4 01 3a c0 fa fc 8f b4 
39.795400 1 7d5 Rx d 8 2b f8 0f 00 00 00 00 00 
39.795600 1 7d5 Rx d 8 2c 00 3f 00 00 00 00 00 
39.796100 1 7d5 Rx d 8 32 00 00 00 00 00 00 00 
39.796400 1 7d7 Rx d 8 32 04 00 00 00 00 00 00 
39.798200 1 129 Rx d 8 e5 22 05 60 00 20 ff 3f 
39.802600 1 118 Rx d 8 2d 65 95 00 02 c8 50 00 
39.803300 1 266 Rx d 8 02 00 04 26 03 00 9f 01 
39.803500 1 1d8 Rx d 8 29 44 00 00 00 00 e0 26 
39.804000 1 257 Rx d 8 fb 8b 2b 10 06 c0 15 01 
39.804400 1 132 Rx d 6 c9 87 d4 ff e2 3f 
39.808200 1 129 Rx d 8 f2 23 05 60 00 20 ff 3f 
39.812100 1 22a Rx d 4 00 00 c9 15 
39.812900 1 1d8 Rx d 8 29 3e 00 00 00 00 00 40 
39.813800 1 118 Rx d 8 3c 66 95 00 00 c8 60 00 
39.814000 1 266 Rx d 8 02 00 04 26 03 00 9f 01 
39.814400 1 132 Rx d 6 cb 87 d7 ff eb 3f 
39.818200 1 129 Rx d 8 74 24 05 60 00 20 ff 3f 
39.822600 1 118 Rx d 8 4d 67 95 00 00 c8 70 00 
39.822800 1 266 Rx d 8 02 00 04 25 03 00 9f 01 
39.823300 1 1d8 Rx d 8 29 3a 00 00 00 00 20 5c 
39.823900 1 257 Rx d 8 fc 8c 2b 10 06 c0 15 01 
39.824400 1 132 Rx d 6 c5 87 d8 ff e8 3f 
39.825100 1 3ae Rx d 8 11 40 00 08 00 00 30 8a 
39.827300 1 2d2 Rx d 8 6f 29 a7 4e c4 09 d5 14 
39.827500 1 212 Rx d 8 59 04 00 00 81 ff 77 31 
39.827700 1 252 Rx d 8 46 23 8c 4a 00 fc 0f 00 
39.827900 1 292 Rx d 8 c7 45 27 9e 72 01 00 00 
39.828300 1 129 Rx d 8 63 25 05 60 00 20 ff 3f 
39.832900 1 1d8 Rx d 8 29 34 00 00 00 00 40 76 
39.833700 1 118 Rx d 8 4e 68 95 00 00 c8 70 00 
39.834200 1 23e Rx d 8 f4 01 3a c0 fa fc 9f c4 
39.834700 1 132 Rx d 6 d1 87 da ff eb 3f 
39.834900 1 266 Rx d 8 02 00 04 25 03 00 9f 01 
39.838200 1 129 Rx d 8 b9 26 05 60 00 20 ff 3f 
39.841500 1 241 Rx d 7 28 2a 14 8a 0a 45 00 
39.841700 1 2b4 Rx d 6 23 05 9b 0d 1d 01 
39.842500 1 118 Rx d 8 3f 69 95 00 00 c8 60 00 
39.842800 1 266 Rx d 8 02 00 04 25 03 00 9f 01 
39.843000 1 1d8 Rx d 8 29 2c 00 00 00 00 60 8e 
39.843200 1 257 Rx d 8 fd 8d 2b 10 06 c0 15 01 
39.844300 1 132 Rx d 6 ca 87 da ff e8 3f 
39.848200 1 129 Rx d 8 ae 27 05 60 00 20 ff 3f 
39.852900 1 1d8 Rx d 8 29 26 00 00 00 00 80 a8 
39.853800 1 118 Rx d 8 50 6a 95 00 00 c8 70 00 
39.854000 1 266 Rx d 8 02 00 04 25 03 00 9f 01 
39.854400 1 132 Rx d 6 cc 87 dd ff ed 3f 
39.858200 1 129 Rx d 8 79 28 05 60 00 20 ff 3f 
39.862600 1 118 Rx d 8 41 6b 95 00 00 c8 60 00 
39.862800 1 266 Rx d 8 01 00 04 25 03 00 9f 01 
39.863100 1 1d8 Rx d 8 29 1e 00 00 00 00 a0 c0 
39.863300 1 257 Rx d 8 fe 8e 2b 10 06 c0 15 01 
39.864400 1 132 Rx d 6 de 87 e2 ff 02 40 
39.865000 1 3ae Rx d 8 11 40 00 08 00 00 40 9a 
39.868200 1 129 Rx d 8 2c 29 05 60 00 20 ff 3f 
39.872900 1 1d8 Rx d 8 29 16 00 00 00 00 c0 d8 
39.873800 1 118 Rx d 8 12 6c 95 00 00 c8 30 00 
39.874200 1 23e Rx d 8 f4 01 3a c0 fa fc af d4 
39.874400 1 132 Rx d 6 d9 87 e2 ff ff 3f 
39.875200 1 266 Rx d 8 01 00 04 25 03 00 9f 01 
39.878200 1 129 Rx d 8 f3 2a 05 60 00 20 ff 3f 
39.882100 1 118 Rx d 8 f3 6d 95 00 00 c8 10 00 
39.882500 1 266 Rx d 8 01 00 04 25 03 00 9f 01 
39.882700 1 257 Rx d 8 ff 8f 2b 10 06 c0 15 01 
39.882900 1 1d8 Rx d 8 29 0e 00 00 00 00 e0 f0 
39.883200 1 108 Rx d 8 8a e6 00 9a 00 d8 04 25 
39.883600 1 126 Rx d 5 12 d8 17 34 5c 
39.884400 1 132 Rx d 6 dd 87 e4 ff 0b 40 
39.884900 1 268 Rx d 5 03 03 f8 00 bf 
39.885100 1 279 Rx d 8 4e 06 0d 01 74 05 65 02 
39.887700 1 301 Rx d 8 0b 2d 00 00 00 00 00 00 
39.888400 1 129 Rx d 8 02 2b 05 60 00 20 ff 3f 
39.891500 1 383 Rx d 8 bd 18 3d 00 4b 21 04 58 
39.892900 1 1d8 Rx d 8 29 06 00 00 00 00 00 08 
39.893600 1 118 Rx d 8 04 6e 95 00 00 c8 20 00 
39.894000 1 266 Rx d 8 01 00 03 25 02 00 9f 01 
39.894500 1 132 Rx d 6 d4 87 e7 ff 0c 40 
39.894900 1 3ae Rx d 8 11 40 00 08 00 00 51 ab 
39.895200 1 7d5 Rx d 8 2b f5 0f 00 00 00 00 00 
39.895400 1 7d5 Rx d 8 2c 00 3f 00 00 00 00 00 
39.895700 1 7d5 Rx d 8 32 00 00 00 00 00 00 00 
39.896200 1 7d7 Rx d 8 32 03 00 00 00 00 00 00 
39.898200 1 129 Rx d 8 62 2c 05 60 00 20 ff 3f 
39.902600 1 118 Rx d 8 f5 6f 95 00 00 c8 10 00 
39.903500 1 266 Rx d 8 00 00 03 25 02 00 9f 01 
39.903800 1 1d8 Rx d 8 29 00 00 00 00 00 20 22 
39.904200 1 257 Rx d 8 ec 80 2b 10 02 c0 15 01 
39.904400 1 132 Rx d 6 de 87 eb ff 0b 40 
39.908200 1 129 Rx d 8 70 2d 05 60 00 20 ff 3f 
39.912200 1 22a Rx d 4 00 00 c9 15 
39.912900 1 1d8 Rx d 8 29 f6 3f 00 00 00 40 77 
39.913500 1 118 Rx d 8 c5 60 95 00 00 c8 f0 ff 
39.913900 1 266 Rx d 8 01 00 03 25 02 00 9f 01 
39.914400 1 132 Rx d 6 d3 87 e8 ff 06 40 
39.914600 1 23e Rx d 8 29 1d 73 c0 01 11 b5 80 
39.918200 1 129 Rx d 8 af 2e 05 60 00 20 ff 3f 
39.922100 1 118 Rx d 8 d7 61 95 00 00 c8 00 00 
39.922400 1 266 Rx d 8 00 00 03 25 02 00 9f 01 
39.922600 1 257 Rx d 8 ed 81 2b 10 02 c0 15 01 
39.922900 1 1d8 Rx d 8 29 ee 3f 00 00 00 60 8f 
39.924300 1 132 Rx d 6 da 87 f1 ff 14 40 
39.926600 1 212 Rx d 8 59 04 00 00 81 ff 77 31 
39.926800 1 252 Rx d 8 46 23 8c 4a 00 fc 0f 00 
39.927100 1 292 Rx d 8 c7 45 27 9e 72 01 00 00 
39.927500 1 2d2 Rx d 8 6f 29 a8 4e c4 09 d5 14 
39.928300 1 129 Rx d 8 5e 2f 05 60 00 20 ff 3f 
39.929900 1 3ae Rx d 8 11 40 00 08 00 00 61 bb 
39.932900 1 1d8 Rx d 8 29 e6 3f 00 00 00 80 a7 
39.933500 1 118 Rx d 8 e8 62 95 00 00 c8 10 00 
39.933900 1 266 Rx d 8 00 00 03 25 02 00 9f 01 
39.934600 1 132 Rx d 6 d9 87 f3 ff 1f 40 
39.935300 1 302 Rx d 8 0b 2f 00 00 00 00 00 00 
39.938200 1 129 Rx d 8 bb 20 05 60 00 20 ff 3f 
39.941500 1 241 Rx d 7 27 2a d4 89 0a 45 00 
39.942600 1 118 Rx d 8 c8 63 95 00 00 c8 f0 ff 
39.942800 1 266 Rx d 8 00 00 04 25 02 00 9f 01 
39.943100 1 1d8 Rx d 8 29 dc 3f 00 00 00 a0 bd 
39.943300 1 257 Rx d 8 ee 82 2b 10 02 c0 15 01 
39.944200 1 2b4 Rx d 6 24 05 9b 0d 2a 01 
39.944700 1 132 Rx d 6 df 87 f1 ff 1a 40 
39.948200 1 129 Rx d 8 ac 21 05 60 00 20 ff 3f 
39.953000 1 1d8 Rx d 8 29 d4 3f 00 00 00 c0 d5 
39.953500 1 118 Rx d 8 89 64 95 00 00 c8 b0 ff 
39.954000 1 266 Rx d 8 00 00 03 25 02 00 9f 01 
39.954400 1 132 Rx d 6 e5 87 f7 ff 2e 40 
39.954700 1 23e Rx d 8 17 1d 73 c0 05 11 c5 82 
39.958200 1 129 Rx d 8 e5 22 05 60 00 20 ff 3f 
39.959300 1 3e2 Rx d 7 00 00 80 1a f0 cf 04 
39.962600 1 118 Rx d 8 7a 65 95 00 00 c8 a0 ff 
39.962800 1 266 Rx d 8 00 00 03 25 02 00 9f 01 
39.963100 1 1d8 Rx d 8 29 cc 3f 00 00 00 e0 ed 
39.963300 1 257 Rx d 8 ef 83 2b 10 02 c0 15 01 
39.964400 1 132 Rx d 6 e6 87 f3 ff 1d 40 
39.967700 1 77a Rx d 8 a1 16 d8 5d f0 5d d8 5d 
39.967900 1 4f Rx d 8 9b a4 5c 31 4d 6a 67 12 
39.968300 1 129 Rx d 8 f2 23 05 60 00 20 ff 3f 
39.970300 1 3ae Rx d 8 11 40 00 08 00 00 71 cb 
39.972900 1 1d8 Rx d 8 29 c4 3f 00 00 00 00 05 
39.973500 1 118 Rx d 8 8b 66 95 00 00 c8 b0 ff 
39.974000 1 266 Rx d 8 00 00 03 25 02 00 9f 01 
39.974400 1 132 Rx d 6 db 87 f5 ff 28 40 
39.978200 1 129 Rx d 8 74 24 05 60 00 20 ff 3f 
39.982600 1 118 Rx d 8 8c 67 95 00 00 c8 b0 ff 
39.982800 1 266 Rx d 8 00 00 04 25 02 00 9f 01 
39.983100 1 1d8 Rx d 8 29 bc 3f 00 00 00 20 1d 
39.983300 1 108 Rx d 8 85 27 fe 63 ff cc 04 25 
39.983800 1 257 Rx d 8 f0 84 2b 10 02 c0 15 01 
39.983900 1 126 Rx d 5 0c 48 16 3c cd 
39.984600 1 132 Rx d 6 d4 87 f2 ff 19 40 
39.985200 1 268 Rx d 5 03 03 f8 00 bf 
39.985500 1 279 Rx d 8 4f 07 0d 01 74 05 65 02 
39.986200 1 332 Rx d 6 a9 19 69 06 08 35 
39.988200 1 129 Rx d 8 63 25 05 60 00 20 ff 3f 
39.988500 1 3f2 Rx d 8 00 c8 ae 5d 00 00 00 00 
39.991800 1 383 Rx d 8 bd 18 3d 00 4b 21 04 58 
39.992900 1 1d8 Rx d 8 29 b4 3f 00 00 00 40 35 
39.993100 1 3ae Rx d 8 11 40 00 08 00 00 80 da 
39.993800 1 118 Rx d 8 8d 68 95 00 00 c8 b0 ff 
39.994300 1 266 Rx d 8 00 00 04 25 02 00 9f 01 
39.994500 1 132 Rx d 6 e6 87 f8 ff 13 40 
39.994700 1 23e Rx d 8 47 1d 73 c0 01 11 d5 be 
39.995200 1 7d5 Rx d 8 2b 04 00 00 00 00 00 00 
39.995700 1 401 Rx d 8 00 2a 37 80 38 80 39 80 
39.996200 1 7d5 Rx d 8 2c 00 3f 00 00 00 00 00 
39.996400 1 7d5 Rx d 8 32 00 00 00 00 00 00 00 
39.996700 1 7d7 Rx d 8 32 03 00 00 00 00 00 00 
39.998200 1 129 Rx d 8 b9 26 05 60 00 20 ff 3f 
40.002100 1 118 Rx d 8 8e 69 95 00 00 c8 b0 ff 
40.002600 1 266 Rx d 8 00 00 03 25 02 00 9f 01 
40.003100 1 1d8 Rx d 8 29 ac 3f 00 00 00 60 4d 
40.003300 1 257 Rx d 8 f1 85 2b 10 02 c0 15 01 
40.004500 1 132 Rx d 6 e7 87 f3 ff 1b 40 
40.005200 1 3dd Rx d 8 e0 d1 ba be 6a e8 ec 3f 
40.008200 1 129 Rx d 8 ae 27 05 60 00 20 ff 3f 
40.011600 1 303 Rx d 8 0b 2d 00 00 00 00 00 00 
40.012200 1 22a Rx d 4 00 00 c9 15 
40.012900 1 1d8 Rx d 8 29 a6 3f 00 00 00 80 67 
40.013500 1 118 Rx d 8 7f 6a 95 00 00 c8 a0 ff 
40.014000 1 266 Rx d 8 00 00 03 25 02 00 9f 01 
40.014400 1 132 Rx d 6 da 87 f3 ff 1a 40 
40.015100 1 401 Rx d 8 01 2a 39 80 3e 80 39 80 
40.018200 1 129 Rx d 8 79 28 05 60 00 20 ff 3f 
40.021800 1 43a Rx d 6 03 00 00 00 00 00 
40.022600 1 118 Rx d 8 90 6b 95 00 00 c8 b0 ff 
40.022800 1 266 Rx d 8 00 00 03 25 03 00 9f 01 
40.023100 1 1d8 Rx d 8 29 9e 3f 00 00 00 a0 7f 
40.023300 1 257 Rx d 8 f2 86 2b 10 02 c0 15 01 
40.024400 1 132 Rx d 6 de 87 f6 ff 3d 40 
40.028200 1 129 Rx d 8 2c 29 05 60 00 20 ff 3f 
40.029400 1 2d2 Rx d 8 6e 29 a8 4e c4 09 d5 14 
40.029600 1 212 Rx d 8 59 04 00 00 81 ff 77 31 
40.029800 1 252 Rx d 8 46 23 8c 4a 00 fc 0f 00 
40.030100 1 292 Rx d 8 c7 45 27 9e 72 01 00 00 
40.031700 1 3ae Rx d 8 11 40 00 08 00 00 90 ea 
40.032900 1 1d8 Rx d 8 29 98 3f 00 00 00 c0 99 
40.033500 1 118 Rx d 8 c1 6c 95 00 00 c8 e0 ff 
40.034000 1 266 Rx d 8 00 00 04 25 02 00 9f 01 
40.034700 1 132 Rx d 6 e5 87 f1 ff 23 40 
40.034900 1 23e Rx d 8 36 1d 73 c0 01 11 e5 bd 
40.035400 1 401 Rx d 8 02 2a 3c 80 39 80 3f 80 
40.038200 1 129 Rx d 8 f3 2a 05 60 00 20 ff 3f 
40.041500 1 241 Rx d 7 28 2a 14 8a 0a 45 00 
40.042400 1 118 Rx d 8 d2 6d 95 00 00 c8 f0 ff 
40.042700 1 266 Rx d 8 00 00 04 25 02 00 9f 01 
40.042900 1 1d8 Rx d 8 29 90 3f 00 00 00 e0 b1 
40.043100 1 257 Rx d 8 f3 87 2b 10 02 c0 15 01 
40.044100 1 2b4 Rx d 6 23 05 9a 0d 18 01 
40.044300 1 132 Rx d 6 e6 87 f0 ff 19 40 
40.048200 1 129 Rx d 8 02 2b 05 60 00 20 ff 3f 
40.052900 1 1d8 Rx d 8 29 8a 3f 00 00 00 00 cb 
40.053500 1 118 Rx d 8 a3 6e 95 00 00 c8 c0 ff 
40.054000 1 266 Rx d 8 00 00 03 25 02 00 9f 01 
40.054400 1 132 Rx d 6 e5 87 f8 ff 13 40 
40.055100 1 401 Rx d 8 03 2a 3d 80 3d 80 3a 80 
40.058200 1 129 Rx d 8 cf 2c 05 60 01 20 ff 3f 
40.062600 1 118 Rx d 8 74 6f 95 00 00 c8 90 ff 
40.062800 1 266 Rx d 8 00 00 03 25 02 00 9f 01 
40.063100 1 1d8 Rx d 8 29 84 3f 00 00 00 20 e5 
40.063300 1 257 Rx d 8 f4 88 2b 10 02 c0 15 01 
40.064400 1 132 Rx d 6 e2 87 f7 ff 20 40 
40.068200 1 129 Rx d 8 70 2d 05 60 00 20 ff 3f 
40.070900 1 3ae Rx d 8 11 40 00 08 00 00 a0 fa 
40.072900 1 1d8 Rx d 8 29 7c 3f 00 00 00 40 fd 
40.073500 1 118 Rx d 8 45 60 95 00 00 c8 70 ff 
40.074000 1 266 Rx d 8 00 00 03 25 02 00 9f 01 
40.074400 1 132 Rx d 6 e9 87 f6 ff 2c 40 
40.075100 1 23e Rx d 8 23 1d 73 c0 01 11 f5 ba 
40.076000 1 401 Rx d 8 04 2a 3f 80 3c 80 33 80 
40.078200 1 129 Rx d 8 af 2e 05 60 00 20 ff 3f 
40.082500 1 118 Rx d 8 26 61 95 00 00 c8 50 ff 
40.082700 1 266 Rx d 8 ff 07 03 25 03 00 9f 01 
40.083000 1 1d8 Rx d 8 29 76 3f 00 00 00 60 17 
40.083200 1 257 Rx d 8 f5 89 2b 10 02 c0 15 01 
40.083700 1 108 Rx d 8 01 c8 fb 53 ff ba 04 25 
40.083900 1 126 Rx d 5 09 28 18 44 b4 
40.084500 1 132 Rx d 6 f3 87 04 00 55 40 
40.085200 1 268 Rx d 5 04 04 f8 00 bf 
40.085400 1 3ae Rx d 8 11 40 00 08 00 00 b1 0b 
40.085600 1 279 Rx d 8 50 08 0d 01 74 05 65 02 
40.088300 1 129 Rx d 8 5e 2f 05 60 00 20 ff 3f 
40.091500 1 383 Rx d 8 bd 18 3d 00 4b 21 04 58 
40.092900 1 1d8 Rx d 8 29 70 3f 00 00 00 80 31 
40.093800 1 118 Rx d 8 27 62 95 00 00 c8 50 ff 
40.094000 1 7d5 Rx d 8 2b 0d 00 00 00 00 00 00 
40.094300 1 266 Rx d 8 fe 07 04 26 03 00 9f 01 
40.094500 1 132 Rx d 6 ea 87 05 00 4e 40 
40.094900 1 401 Rx d 8 05 2a 34 80 38 80 38 80 
40.095200 1 7d5 Rx d 8 2c 00 3f 00 00 00 00 00 
40.095400 1 7d5 Rx d 8 32 00 00 00 00 00 00 00 
40.095700 1 7d7 Rx d 8 32 04 00 00 00 00 00 00 
40.098200 1 129 Rx d 8 bb 20 05 60 00 20 ff 3f 
40.102600 1 118 Rx d 8 38 63 95 00 00 c8 60 ff 
40.103300 1 266 Rx d 8 fe 07 05 26 03 00 9f 01 
40.103500 1 1d8 Rx d 8 29 6a bf ff 07 00 a0 d1 
40.104200 1 257 Rx d 8 f6 8a 2b 10 02 c0 15 01 
40.104400 1 132 Rx d 6 ed 87 11 00 43 40 
40.108200 1 129 Rx d 8 ac 21 05 60 00 20 ff 3f 
40.111800 1 22a Rx d 4 00 00 c9 15 
40.112900 1 1d8 Rx d 8 29 64 7f fc 07 00 c0 a8 
40.113800 1 118 Rx d 8 29 64 95 00 00 c8 50 ff 
40.114300 1 266 Rx d 8 fd 07 05 27 04 00 9f 01 
40.114500 1 132 Rx d 6 ed 87 1f 00 6a 40 
40.114700 1 23e Rx d 8 12 1d 73 c0 01 11 05 b9 
40.115400 1 401 Rx d 8 06 2a 37 80 39 80 3c 80 
40.118200 1 129 Rx d 8 e5 22 05 60 00 20 ff 3f 
40.122500 1 118 Rx d 8 da 65 95 00 00 c8 00 ff 
40.122700 1 266 Rx d 8 fc 07 04 26 04 00 9f 01 
40.123000 1 1d8 Rx d 8 29 5e bf f8 07 00 e0 fe 
40.123200 1 257 Rx d 8 ef 8b 2b 10 02 b8 15 01 
40.124300 1 132 Rx d 6 01 88 25 00 83 40 
40.125000 1 3ae Rx d 8 11 40 00 08 00 00 c1 1b 
40.127300 1 2d2 Rx d 8 6e 29 a8 4e c4 09 d5 14 
40.127500 1 212 Rx d 8 59 04 00 00 81 ff 77 31 
40.127700 1 252 Rx d 8 46 23 8c 4a 00 fc 0f 00 
40.128000 1 292 Rx d 8 c7 45 27 9e 72 01 00 00 
40.128200 1 129 Rx d 8 f2 23 05 60 00 20 ff 3f 
40.132900 1 1d8 Rx d 8 29 58 ff f5 07 00 00 55 
40.133600 1 118 Rx d 8 8a 66 95 00 00 c8 b0 fe 
40.134100 1 266 Rx d 8 fc 07 05 27 05 00 9f 01 
40.134500 1 132 Rx d 6 06 88 27 00 9a 40 
40.135200 1 401 Rx d 8 07 2a 35 80 3b 80 3b 80 
40.138200 1 129 Rx d 8 74 24 05 60 00 20 ff 3f 
40.141500 1 241 Rx d 7 28 2a 14 8a 0a 45 00 
40.142600 1 118 Rx d 8 2b 67 95 00 00 c8 50 fe 
40.142900 1 266 Rx d 8 fc 07 05 27 05 00 9f 01 
40.143100 1 1d8 Rx d 8 29 52 3f f3 07 00 20 ad 
40.143300 1 257 Rx d 8 e0 7c 2b 10 02 b8 15 01 
40.144300 1 2b4 Rx d 6 26 05 9d 0d 21 01 
40.144700 1 132 Rx d 6 03 88 2c 00 9d 40 
40.148200 1 129 Rx d 8 63 25 05 60 00 20 ff 3f 
40.152900 1 1d8 Rx d 8 29 4c bf f0 07 00 40 44 
40.153800 1 118 Rx d 8 cb 68 95 00 00 c8 f0 fd 
40.154300 1 23e Rx d 8 41 1d 73 c0 01 11 15 f8 
40.154500 1 132 Rx d 6 08 88 34 00 a6 40 
40.154700 1 266 Rx d 8 fb 07 06 27 06 00 9f 01 
40.154900 1 401 Rx d 8 08 2a 3c 80 36 80 34 80 
40.158200 1 129 Rx d 8 b9 26 05 60 00 20 ff 3f 
40.159300 1 3e2 Rx d 7 00 00 80 1a f0 cf 04 
40.162600 1 118 Rx d 8 8c 69 95 00 00 c8 b0 fd 
40.162900 1 1d8 Rx d 8 29 46 3f ee 07 00 60 dc 
40.163100 1 266 Rx d 8 fb 07 06 28 05 00 9f 01 
40.163800 1 257 Rx d 8 d9 7d 2b 10 02 b0 15 01 
40.164100 1 23a Rx d 8 52 6e b6 03 08 00 00 00 
40.164500 1 132 Rx d 6 0a 88 36 00 97 40 
40.165100 1 3ae Rx d 8 11 40 00 08 00 00 d1 2b 
40.168500 1 129 Rx d 8 03 27 05 60 01 20 ff 3f 
40.172900 1 1d8 Rx d 8 29 40 7f ec 07 00 80 34 
40.173800 1 118 Rx d 8 5d 6a 95 00 00 c8 80 fd 
40.174300 1 266 Rx d 8 fb 07 06 28 06 00 9f 01 
40.174500 1 132 Rx d 6 14 88 3d 00 a8 40 
40.176000 1 401 Rx d 8 09 2a 37 80 38 80 39 80 
40.178200 1 129 Rx d 8 79 28 05 60 00 20 ff 3f 
40.182600 1 118 Rx d 8 5e 6b 95 00 00 c8 80 fd 
40.182900 1 266 Rx d 8 fb 07 06 28 06 00 9f 01 
40.183100 1 1d8 Rx d 8 29 3a bf ea 07 00 a0 8c 
40.183300 1 257 Rx d 8 da 7e 2b 10 02 b0 15 01 
40.183800 1 108 Rx d 8 fa b9 f9 43 fc d7 04 25 
40.184000 1 126 Rx d 5 16 a8 17 4c 48 
40.184600 1 132 Rx d 6 fe 87 40 00 b5 40 
40.185300 1 268 Rx d 5 06 06 f8 00 bf 
40.185700 1 279 Rx d 8 51 09 0d 01 74 05 65 02 
40.188400 1 129 Rx d 8 2c 29 05 60 00 20 ff 3f 
40.190600 1 3ae Rx d 8 11 40 00 08 00 00 e0 3a 
40.191500 1 383 Rx d 8 bd 18 3d 00 4b 21 04 58 
40.192900 1 1d8 Rx d 8 29 34 3f e9 07 00 c0 25 
40.193700 1 118 Rx d 8 6f 6c 95 00 00 c8 90 fd 
40.194200 1 266 Rx d 8 fa 07 06 28 06 00 9f 01 
40.194400 1 132 Rx d 6 17 88 45 00 bd 40 
40.195100 1 401 Rx d 8 0a 2a 38 80 36 80 38 80 
40.195300 1 23e Rx d 8 30 1d 73 c0 01 11 25 f7 
40.195600 1 7d5 Rx d 8 2b 0f 00 00 00 00 00 00 
40.195800 1 7d5 Rx d 8 2c 00 3f 00 00 00 00 00 
40.196300 1 7d5 Rx d 8 32 00 00 00 00 00 00 00 
40.196600 1 7d7 Rx d 8 32 06 00 00 00 00 00 00 
40.198200 1 129 Rx d 8 f3 2a 05 60 00 20 ff 3f 
40.202600 1 118 Rx d 8 70 6d 95 00 00 c8 90 fd 
40.203100 1 266 Rx d 8 fa 07 06 28 06 00 9f 01 
40.203300 1 1d8 Rx d 8 29 30 3f e8 07 00 e0 40 
40.203500 1 257 Rx d 8 cb 6f 2b 10 02 b0 15 01 
40.204500 1 132 Rx d 6 17 88 43 00 db 40 
40.208200 1 129 Rx d 8 02 2b 05 60 00 20 ff 3f 
40.212000 1 22a Rx d 4 00 00 c9 15 
40.212800 1 1d8 Rx d 8 29 2c bf e6 07 00 00 da 
40.213800 1 118 Rx d 8 61 6e 95 00 00 c8 80 fd 
40.214300 1 266 Rx d 8 fa 07 06 28 06 00 9f 01 
40.214500 1 132 Rx d 6 13 88 49 00 d5 40 
40.215400 1 401 Rx d 8 0b 2a 37 80 39 80 37 80 
40.217800 1 373 Rx d 8 06 dc a6 72 0f de 0a 1f 
40.218200 1 129 Rx d 8 62 2c 05 60 00 20 ff 3f 
40.219200 1 2d7 Rx d 4 a4 cc 00 03 
40.222500 1 118 Rx d 8 52 6f 95 00 00 c8 70 fd 
40.222800 1 266 Rx d 8 fa 07 07 29 07 00 9f 01 
40.223200 1 1d8 Rx d 8 29 28 bf e5 07 00 20 f5 
40.223900 1 257 Rx d 8 b4 60 2b 10 02 a8 15 01 
40.224300 1 132 Rx d 6 1e 88 48 00 c2 40 
40.227300 1 2d2 Rx d 8 6c 29 a7 4e c4 09 d5 14 
40.227500 1 212 Rx d 8 59 04 00 00 81 ff 77 31 
40.227700 1 252 Rx d 8 46 23 8c 4a 00 fc 0f 00 
40.228000 1 292 Rx d 8 c7 45 27 9e 72 01 00 00 
40.228400 1 129 Rx d 8 70 2d 05 60 00 20 ff 3f 
40.231300 1 3ae Rx d 8 11 40 00 08 00 00 f0 4a 
40.232900 1 1d8 Rx d 8 29 22 ff e4 07 00 40 4e 
40.233800 1 118 Rx d 8 33 60 95 00 00 c8 60 fd 
40.234000 1 266 Rx d 8 fa 07 07 28 06 00 9f 01 
40.234300 1 23e Rx d 8 30 1d 73 c0 01 11 35 07 
40.234700 1 132 Rx d 6 1d 88 47 00 c0 40 
40.235200 1 401 Rx d 8 0c 2a 35 80 34 80 31 80 
40.238200 1 129 Rx d 8 af 2e 05 60 00 20 ff 3f 
40.241400 1 241 Rx d 7 28 28 14 0a 0a 45 00 
40.242500 1 118 Rx d 8 04 61 95 00 00 c8 30 fd 
40.242800 1 266 Rx d 8 fa 07 07 29 07 00 9f 01 
40.243000 1 1d8 Rx d 8 29 20 7f e4 07 00 60 ec 
40.243200 1 257 Rx d 8 b5 61 2b 10 02 a8 15 01 
40.244200 1 2b4 Rx d 6 24 05 a2 0d 1d 01 
40.244600 1 132 Rx d 6 12 88 4c 00 c7 40 
40.248200 1 129 Rx d 8 5e 2f 05 60 00 20 ff 3f 
40.252900 1 1d8 Rx d 8 29 1a 7f e3 07 00 80 05 
40.253800 1 118 Rx d 8 e5 62 95 00 00 c8 10 fd 
40.254000 1 266 Rx d 8 fa 07 07 29 07 00 9f 01 
40.254400 1 132 Rx d 6 11 88 4f 00 c9 40 
40.254900 1 401 Rx d 8 0d 2a 31 80 35 80 34 80 
40.258200 1 129 Rx d 8 bb 20 05 60 00 20 ff 3f 
40.262600 1 118 Rx d 8 e6 63 95 00 00 c8 10 fd 
40.263000 1 266 Rx d 8 f9 07 06 28 07 00 9f 01 
40.263200 1 1d8 Rx d 8 29 16 ff e2 07 00 a0 a0 
40.263500 1 257 Rx d 8 a6 52 2b 10 02 a8 15 01 
40.264400 1 132 Rx d 6 1a 88 52 00 ed 40 
40.268400 1 129 Rx d 8 c5 21 05 60 ff 1f ff 3f 
40.270300 1 3ae Rx d 8 11 40 00 08 00 00 00 5a 
40.272900 1 1d8 Rx d 8 29 14 7f e2 07 00 c0 3e 
40.273800 1 118 Rx d 8 f7 64 95 00 00 c8 20 fd 
40.274300 1 23e Rx d 8 0d 1d 73 c0 01 11 45 f4 
40.274500 1 132 Rx d 6 24 88 4d 00 e5 40 
40.275200 1 266 Rx d 8 f9 07 07 28 07 00 9f 01 
40.275800 1 401 Rx d 8 0e 2a 34 80 33 80 31 80 
40.278200 1 129 Rx d 8 8c 22 05 60 ff 1f ff 3f 
40.282500 1 118 Rx d 8 f8 65 95 00 00 c8 20 fd 
40.282800 1 266 Rx d 8 f9 07 07 29 07 00 9f 01 
40.283000 1 1d8 Rx d 8 29 10 ff e1 07 00 e0 d9 
40.283200 1 257 Rx d 8 9f 53 2b 10 02 a0 15 01 
40.283700 1 108 Rx d 8 6b 5a f8 2b fc c0 04 25 
40.283900 1 126 Rx d 5 26 38 17 54 f0 
40.284500 1 132 Rx d 6 26 88 50 00 d4 40 
40.285200 1 268 Rx d 5 07 07 f8 00 bf 
40.285500 1 279 Rx d 8 56 0a 0d 01 78 05 65 02 
40.288300 1 129 Rx d 8 f2 23 05 60 00 20 ff 3f 
40.291500 1 383 Rx d 8 bd 18 3d 00 4b 21 04 58 
40.292700 1 3ae Rx d 8 11 40 00 08 00 00 11 6b 
40.292900 1 1d8 Rx d 8 29 0e bf e1 07 00 00 b7 
40.293600 1 118 Rx d 8 f9 66 95 00 00 c8 20 fd 
40.294100 1 266 Rx d 8 f9 07 07 29 07 00 9f 01 
40.294300 1 7d5 Rx d 8 2b 11 00 00 00 00 00 00 
40.294500 1 132 Rx d 6 16 88 4e 00 cf 40 
40.295700 1 401 Rx d 8 0f 2a 31 80 3a 80 3a 80 
40.296700 1 7d5 Rx d 8 2c 00 3f 00 00 00 00 00 
40.297100 1 7d5 Rx d 8 32 00 00 00 00 00 00 00 
40.297400 1 3b6 Rx d 8 92 6e a2 03 00 00 90 ee 
40.298300 1 129 Rx d 8 74 24 05 60 00 20 ff 3f 
40.299200 1 7d7 Rx d 8 32 07 00 00 00 00 00 00 
40.299700 1 7d5 Rx d 8 42 f8 00 8c 00 00 29 00 
40.300100 1 7d5 Rx d 8 43 a1 b3 91 7c 3f 00 00 
40.300800 1 7d5 Rx d 8 44 93 51 64 58 3f 00 47 
40.301300 1 7d5 Rx d 8 46 4a 49 4d 49 46 4a 4a 
40.302300 1 7d5 Rx d 8 48 4f 4c 00 00 c0 d3 57 
40.302800 1 118 Rx d 8 0a 67 95 00 00 c8 30 fd 
40.303200 1 1d8 Rx d 8 29 0c ff e0 07 00 20 14 
40.303900 1 266 Rx d 8 f9 07 07 29 07 00 9f 01 
40.304400 1 132 Rx d 6 14 88 54 00 da 40 
40.305100 1 257 Rx d 8 a0 54 2b 10 02 a0 15 01 
40.308500 1 129 Rx d 8 63 25 05 60 00 20 ff 3f 
40.312000 1 22a Rx d 4 00 00 d9 15 
40.312800 1 1d8 Rx d 8 29 08 bf e0 07 00 40 f0 
40.313800 1 118 Rx d 8 0b 68 95 00 00 c8 30 fd 
40.314000 1 266 Rx d 8 f9 07 08 29 07 00 9f 01 
40.314300 1 23e Rx d 8 0d 1d 73 c0 01 11 55 04 
40.314500 1 132 Rx d 6 26 88 56 00 db 40 
40.315200 1 401 Rx d 8 10 2a 39 80 35 80 36 80 
40.318200 1 129 Rx d 8 b9 26 05 60 00 20 ff 3f 
40.322600 1 118 Rx d 8 0c 69 95 00 00 c8 30 fd 
40.322900 1 1d8 Rx d 8 29 06 7f e0 07 00 60 ce 
40.323100 1 266 Rx d 8 f9 07 07 28 07 00 9f 01 
40.324000 1 257 Rx d 8 91 45 2b 10 02 a0 15 01 
40.324400 1 132 Rx d 6 16 88 53 00 da 40 
40.324900 1 752 Rx d 8 01 00 00 00 00 85 00 00 
40.327300 1 2d2 Rx d 8 6d 29 a6 4e c4 09 d5 14 
40.327500 1 212 Rx d 8 59 04 00 00 81 ff 77 31 
40.327800 1 252 Rx d 8 46 23 8c 4a 00 fc 0f 00 
40.328000 1 292 Rx d 8 c7 45 27 9e 72 01 00 00 
40.328200 1 129 Rx d 8 ae 27 05 60 00 20 ff 3f 
40.329900 1 3ae Rx d 8 11 40 00 08 00 00 21 7b 
40.332900 1 1d8 Rx d 8 29 02 ff df 07 00 80 69 
40.333500 1 118 Rx d 8 1d 6a 95 00 00 c8 40 fd 
40.334000 1 266 Rx d 8 f9 07 07 29 07 00 9f 01 
40.334700 1 132 Rx d 6 28 88 56 00 fd 40 
40.335100 1 401 Rx d 8 11 2a 37 80 39 80 2a 80 
40.338200 1 129 Rx d 8 79 28 05 60 00 20 ff 3f 
40.341400 1 241 Rx d 7 27 28 d4 09 0a 45 00 
40.342600 1 118 Rx d 8 fe 6b 95 00 00 c8 20 fd 
40.342900 1 266 Rx d 8 f9 07 07 29 07 00 9f 01 
40.343000 1 2b4 Rx d 6 22 05 a3 0d 1b 01 
40.343300 1 1d8 Rx d 8 29 00 7f df 07 00 a0 07 
40.343500 1 257 Rx d 8 8a 46 2b 10 02 98 15 01 
40.344700 1 132 Rx d 6 23 88 55 00 e4 40 
40.348200 1 129 Rx d 8 2c 29 05 60 00 20 ff 3f 
40.352000 1 344 Rx d 8 02 14 14 00 1f 00 20 b0 
40.352900 1 1d8 Rx d 8 29 fe 3e df 07 00 c0 e4 
40.353100 1 6d4 Rx d 8 0b 00 1e 4b 02 00 00 00 
40.353800 1 118 Rx d 8 df 6c 95 00 00 c8 00 fd 
40.354300 1 23e Rx d 8 ed 1c 73 c0 01 11 65 f3 
40.354500 1 132 Rx d 6 16 88 54 00 d9 40 
40.354800 1 266 Rx d 8 f9 07 07 29 07 00 9f 01 
40.356500 1 401 Rx d 8 12 2a 2d 80 2f 80 2d 80 
40.358200 1 129 Rx d 8 f3 2a 05 60 00 20 ff 3f 
40.359400 1 3e2 Rx d 7 00 00 80 1a f0 cf 04 
40.362700 1 118 Rx d 8 e0 6d 95 00 00 c8 00 fd 
40.362900 1 1d8 Rx d 8 29 fe 3e df 07 00 e0 04 
40.363100 1 266 Rx d 8 f9 07 08 29 07 00 9f 01 
40.364100 1 257 Rx d 8 8b 47 2b 10 02 98 15 01 
40.364500 1 132 Rx d 6 24 88 52 00 de 40 
40.368400 1 129 Rx d 8 02 2b 05 60 00 20 ff 3f 
40.370000 1 3ae Rx d 8 11 40 00 08 00 00 31 8b 
40.372800 1 1d8 Rx d 8 29 fc fe de 07 00 00 e1 
40.373500 1 118 Rx d 8 e1 6e 95 00 00 c8 00 fd 
40.374000 1 266 Rx d 8 f9 07 08 29 07 00 9f 01 
40.374500 1 132 Rx d 6 29 88 5c 00 ea 40 
40.376000 1 401 Rx d 8 13 2a 31 80 30 80 30 80 
40.378200 1 129 Rx d 8 62 2c 05 60 00 20 ff 3f 
40.382600 1 118 Rx d 8 d1 6f 95 00 00 c8 f0 fc 
40.382800 1 266 Rx d 8 f9 07 07 29 07 00 9f 01 
40.383100 1 1d8 Rx d 8 29 f8 be de 07 00 20 bd 
40.383300 1 257 Rx d 8 74 38 2b 10 02 90 15 01 
40.383600 1 108 Rx d 8 f8 9b f7 73 fb c6 04 25 
40.384000 1 126 Rx d 5 32 38 17 5c 04 
40.384400 1 132 Rx d 6 26 88 56 00 de 40 
40.385300 1 268 Rx d 5 07 07 f8 00 bf 
40.385500 1 279 Rx d 8 57 0b 0d 01 78 05 65 02 
40.388400 1 129 Rx d 8 70 2d 05 60 00 20 ff 3f 
40.391500 1 383 Rx d 8 bd 18 3d 00 4b 21 04 58 
40.393000 1 1d8 Rx d 8 29 f8 be de 07 00 40 dd 
40.393700 1 118 Rx d 8 c2 60 95 00 00 c8 f0 fc 
40.394100 1 266 Rx d 8 f9 07 07 29 07 00 9f 01 
40.394300 1 132 Rx d 6 2a 88 56 00 e5 40 
40.395100 1 401 Rx d 8 14 2a 30 80 3a 80 37 80 
40.395300 1 23e Rx d 8 f4 01 3a c0 fa fc 7f a4 
40.395500 1 7d5 Rx d 8 2b 10 00 00 00 00 00 00 
40.395800 1 7d5 Rx d 8 2c 00 3f 00 00 00 00 00 
40.396300 1 7d5 Rx d 8 32 00 00 00 00 00 00 00 
40.396500 1 7d7 Rx d 8 32 08 00 00 00 00 00 00 
40.396800 1 3ae Rx d 8 11 40 00 08 00 00 40 9a 
40.398200 1 129 Rx d 8 af 2e 05 60 00 20 ff 3f 
40.402600 1 118 Rx d 8 a3 61 95 00 00 c8 d0 fc 
40.402900 1 266 Rx d 8 f9 07 08 29 07 00 9f 01 
40.403100 1 1d8 Rx d 8 29 f6 be de 07 00 60 fb 
40.403500 1 257 Rx d 8 75 39 2b 10 02 90 15 01 
40.404500 1 132 Rx d 6 23 88 56 00 fa 40 
40.408200 1 129 Rx d 8 5e 2f 05 60 00 20 ff 3f 
40.412000 1 22a Rx d 4 00 00 d9 15 
40.412800 1 1d8 Rx d 8 29 f4 3e de 07 00 80 99 
40.413800 1 118 Rx d 8 84 62 95 00 00 c8 b0 fc 
40.414000 1 266 Rx d 8 f9 07 07 29 07 00 9f 01 
40.414500 1 132 Rx d 6 2c 88 59 00 e0 40 
40.415400 1 401 Rx d 8 15 2a 37 80 34 80 3c 80 
40.418300 1 129 Rx d 8 16 20 05 60 01 20 ff 3f 
40.422600 1 118 Rx d 8 65 63 95 00 00 c8 90 fc 
40.422800 1 1d8 Rx d 8 29 f4 3e de 07 00 a0 b9 
40.423100 1 266 Rx d 8 f9 07 08 29 07 00 9f 01 
40.423900 1 257 Rx d 8 66 2a 2b 10 02 90 15 01 
40.424400 1 132 Rx d 6 2f 88 59 00 da 40 
40.427300 1 2d2 Rx d 8 6d 29 a6 4e c4 09 d5 14 
40.427500 1 212 Rx d 8 59 04 00 00 81 ff 77 31 
40.427700 1 252 Rx d 8 46 23 8c 4a 00 fc 0f 00 
40.428000 1 292 Rx d 8 c7 45 27 9e 72 01 00 00 
40.428300 1 129 Rx d 8 01 21 05 60 01 20 ff 3f 
40.432800 1 1d8 Rx d 8 29 f2 3e de 07 00 c0 d7 
40.433500 1 118 Rx d 8 46 64 95 00 00 c8 70 fc 
40.434000 1 266 Rx d 8 f9 07 08 29 07 00 9f 01 
40.434700 1 132 Rx d 6 23 88 56 00 e1 40 
40.434900 1 23e Rx d 8 f4 01 3a c0 fa fc 8f b4 
40.435200 1 3ae Rx d 8 11 40 00 08 00 00 50 aa 
40.435400 1 401 Rx d 8 16 2a 34 80 33 80 2f 80 
40.438200 1 129 Rx d 8 48 22 05 60 01 20 ff 3f 
40.441400 1 241 Rx d 7 27 28 d4 09 0a 45 00 
40.442500 1 118 Rx d 8 57 65 95 00 00 c8 80 fc 
40.442700 1 2b4 Rx d 6 27 05 a3 0d 14 01 
40.443000 1 266 Rx d 8 f9 07 07 29 08 00 9f 01 
40.443200 1 1d8 Rx d 8 29 f2 3e de 07 00 e0 f7 
40.443500 1 257 Rx d 8 5f 2b 2b 10 02 88 15 01 
40.444600 1 132 Rx d 6 29 88 59 00 f7 40 
40.448200 1 129 Rx d 8 5f 23 05 60 01 20 ff 3f 
40.452900 1 1d8 Rx d 8 29 f0 fe dd 07 00 00 d4 
40.453800 1 118 Rx d 8 58 66 95 00 00 c8 80 fc 
40.454100 1 266 Rx d 8 f9 07 07 29 07 00 9f 01 
40.454500 1 132 Rx d 6 29 88 57 00 e0 40 
40.455000 1 401 Rx d 8 17 2a 31 80 31 80 36 80 
40.458200 1 129 Rx d 8 ea 24 06 60 01 20 ff 3f 
40.462100 1 118 Rx d 8 49 67 95 00 00 c8 70 fc 
40.462600 1 266 Rx d 8 f9 07 08 29 08 00 9f 01 
40.463000 1 1d8 Rx d 8 29 f0 fe dd 07 00 20 f4 
40.463300 1 257 Rx d 8 50 1c 2b 10 02 88 15 01 
40.464400 1 132 Rx d 6 20 88 57 00 e4 40 
40.468200 1 129 Rx d 8 63 25 05 60 00 20 ff 3f 
40.468700 1 77a Rx d 8 00 b0 45 00 f1 0c 5f 61 
40.472900 1 1d8 Rx d 8 29 f0 be dd 07 00 40 d4 
40.473500 1 118 Rx d 8 4a 68 95 00 00 c8 70 fc 
40.474000 1 266 Rx d 8 f9 07 08 29 07 00 9f 01 
40.474500 1 132 Rx d 6 2b 88 55 00 e0 40 
40.475200 1 23e Rx d 8 f4 01 3a c0 fa fc 9f c4 
40.476000 1 3ae Rx d 8 11 40 00 08 00 00 60 ba 
40.476300 1 401 Rx d 8 18 2a 35 80 33 80 34 80 
40.478200 1 129 Rx d 8 8a 26 06 60 00 20 ff 3f 
40.482500 1 118 Rx d 8 7b 69 95 00 00 c8 a0 fc 
40.482700 1 266 Rx d 8 f9 07 07 29 07 00 9f 01 
40.482900 1 1d8 Rx d 8 29 ee be dd 07 00 60 f2 
40.483200 1 257 Rx d 8 49 1d 2b 10 02 80 15 01 
40.483600 1 108 Rx d 8 e6 7c f7 93 fb b3 04 25 
40.483800 1 126 Rx d 5 3a f8 17 64 d4 
40.484400 1 132 Rx d 6 2f 88 59 00 ed 40 
40.485100 1 268 Rx d 5 07 08 f8 00 bf 
40.485300 1 279 Rx d 8 58 0c 0d 01 78 05 65 02 
40.488200 1 129 Rx d 8 9d 27 06 60 00 20 ff 3f 
40.491500 1 383 Rx d 8 bd 18 3d 00 4b 21 04 58 
40.492800 1 1d8 Rx d 8 29 ee fe dd 07 00 80 52 
40.493800 1 118 Rx d 8 ac 6a 95 00 00 c8 d0 fc 
40.494300 1 266 Rx d 8 f9 07 07 29 07 00 9f 01 
40.494500 1 132 Rx d 6 27 88 55 00 e3 40 
40.494900 1 3ae Rx d 8 11 40 00 08 00 00 71 cb 
40.495200 1 401 Rx d 8 19 2a 3b 80 3c 80 3f 80 
40.495400 1 7d5 Rx d 8 2b 0e 00 00 00 00 00 00 
40.495700 1 7d5 Rx d 8 2c 00 3f 00 00 00 00 00 
40.495900 1 7d5 Rx d 8 32 00 00 00 00 00 00 00 
40.496600 1 7d7 Rx d 8 32 07 00 00 00 00 00 00 
40.498200 1 129 Rx d 8 4a 28 06 60 00 20 ff 3f 
40.502600 1 118 Rx d 8 9d 6b 95 00 00 c8 c0 fc 
40.502900 1 1d8 Rx d 8 29 ec fe dd 07 00 a0 70 
40.504400 1 132 Rx d 6 21 88 57 00 e1 40 
40.504700 1 266 Rx d 8 f9 07 07 29 07 00 9f 01 
40.505400 1 257 Rx d 8 39 0e 2b 0f 02 80 15 01 
40.508200 1 129 Rx d 8 1f 29 06 60 00 20 ff 3f 
40.512000 1 22a Rx d 4 00 00 d9 15 
40.512800 1 1d8 Rx d 8 29 ec be dd 07 00 c0 50 
40.513800 1 118 Rx d 8 8e 6c 95 00 00 c8 b0 fc 
40.514100 1 266 Rx d 8 f9 07 07 29 08 00 9f 01 
40.514300 1 23e Rx d 8 f4 01 3a c0 fa fc af d4 
40.514500 1 132 Rx d 6 27 88 56 00 f2 40 
40.514700 1 401 Rx d 8 1a 2a 3d 80 3d 80 3a 80 
40.518400 1 129 Rx d 8 c0 2a 06 60 00 20 ff 3f 
40.522500 1 118 Rx d 8 9f 6d 95 00 00 c8 c0 fc 
40.522700 1 266 Rx d 8 f9 07 08 29 07 00 9f 01 
40.523000 1 1d8 Rx d 8 29 ec 7e dd 07 00 e0 30 
40.523200 1 257 Rx d 8 32 0f 2b 0f 02 78 15 01 
40.524300 1 132 Rx d 6 23 88 57 00 e6 40 
40.527300 1 2d2 Rx d 8 6d 29 a6 4e c4 09 d5 14 
40.527500 1 212 Rx d 8 59 84 00 00 81 ff 77 31 
40.527800 1 252 Rx d 8 46 23 8c 4a 00 fc 0f 00 
40.528000 1 292 Rx d 8 c7 45 27 9e 72 01 02 00 
40.528200 1 129 Rx d 8 9c 2b 06 60 01 20 ff 3f 
40.532800 1 1d8 Rx d 8 29 ec be dd 07 00 00 90 
40.533500 1 118 Rx d 8 b0 6e 95 00 00 c8 d0 fc 
40.534000 1 266 Rx d 8 f9 07 08 29 07 00 9f 01 
40.534600 1 132 Rx d 6 2d 88 57 00 e4 40 
40.535400 1 3ae Rx d 8 11 40 00 08 00 00 81 db 
40.535600 1 401 Rx d 8 1b 2a 36 80 3a 80 3b 80 
40.538200 1 129 Rx d 8 fc 2c 06 60 01 20 ff 3f 
40.541400 1 241 Rx d 7 29 28 54 0a 0a 45 00 
40.542600 1 118 Rx d 8 c1 6f 95 00 00 c8 e0 fc 
40.542900 1 1d8 Rx d 8 29 ec be dd 07 00 20 b0 
40.543100 1 2b4 Rx d 6 23 05 a2 0d 1c 01 
40.543300 1 266 Rx d 8 f9 07 07 29 07 00 9f 01 
40.544300 1 257 Rx d 8 0a f0 2a 0f 02 70 15 01 
40.544700 1 132 Rx d 6 20 88 56 00 e0 40 
40.545600 1 3ae Rx d 8 12 40 00 08 00 00 91 ec 
40.548200 1 129 Rx d 8 36 2d 06 60 02 20 ff 3f 
40.553100 1 1d8 Rx d 8 29 ec be dd 07 00 40 d0 
40.553800 1 118 Rx d 8 a2 60 95 00 00 c8 d0 fc 
40.554000 1 266 Rx d 8 f9 07 08 29 07 00 9f 01 
40.554300 1 23e Rx d 8 f4 01 3a c0 fa fc bf e4 
40.554500 1 132 Rx d 6 21 88 56 00 e9 40 
40.554900 1 401 Rx d 8 1c 2a 3b 80 3b 80 3a 80 
40.558200 1 129 Rx d 8 e9 2e 06 60 02 20 ff 3f 
40.559300 1 3e2 Rx d 7 00 00 80 0a f0 cf 04 
40.562600 1 118 Rx d 8 b3 61 95 00 00 c8 e0 fc 
40.562900 1 1d8 Rx d 8 29 ec be dd 07 00 60 f0 
40.563200 1 266 Rx d 8 f9 07 07 29 07 00 9f 01 
40.564200 1 257 Rx d 8 0b f1 2a 0f 02 70 15 01 
40.564400 1 132 Rx d 6 2b 88 56 00 eb 40 
40.568400 1 129 Rx d 8 41 2f 07 60 03 20 ff 3f 
40.572800 1 1d8 Rx d 8 29 ec be dd 07 00 80 10 
40.573500 1 118 Rx d 8 b4 62 95 00 00 c8 e0 fc 
40.574000 1 266 Rx d 8 f9 07 08 29 07 00 9f 01 
40.574400 1 132 Rx d 6 27 88 57 00 e1 40 
40.576000 1 401 Rx d 8 1d 2a 3b 80 3d 80 3c 80 
40.578500 1 129 Rx d 8 a4 20 07 60 03 20 ff 3f 
40.582600 1 118 Rx d 8 a5 63 95 00 00 c8 d0 fc 
40.582900 1 1d8 Rx d 8 29 ea be dd 07 00 a0 2e 
40.583100 1 266 Rx d 8 f9 07 07 29 07 00 9f 01 
40.583600 1 108 Rx d 8 d7 6d f7 9b fb ab 04 25 
40.584000 1 257 Rx d 8 f4 e2 2a 0f 02 68 15 01 
40.584200 1 126 Rx d 5 3e a8 17 6c 90 
40.584600 1 132 Rx d 6 1c 88 55 00 da 40 
40.585300 1 268 Rx d 5 07 07 f8 00 bf 
40.585500 1 279 Rx d 8 59 0d 0d 01 78 05 65 02 
40.586400 1 3ae Rx d 8 12 40 00 08 00 00 a1 fc 
40.588200 1 129 Rx d 8 7e 21 08 60 04 20 ff 3f 
40.591500 1 383 Rx d 8 bd 18 3d 00 4b 21 c4 57 
40.592900 1 1d8 Rx d 8 29 ea fe dd 07 00 c0 8e 
40.593600 1 118 Rx d 8 a6 64 95 00 00 c8 d0 fc 
40.594100 1 266 Rx d 8 f9 07 07 29 07 00 9f 01 
40.594500 1 132 Rx d 6 22 88 55 00 e1 40 
40.594700 1 23e Rx d 8 f4 01 3a c0 fa fc cf f4 
40.595500 1 3ae Rx d 8 12 40 00 08 00 00 b0 0b 
40.595700 1 401 Rx d 8 1e 2a 39 80 3b 80 3a 80 
40.596900 1 7d5 Rx d 8 2b 0c 00 00 00 00 00 00 
40.597200 1 7d5 Rx d 8 2c 00 3f 00 00 00 00 00 
40.597800 1 7d5 Rx d 8 32 00 00 00 00 00 00 00 
40.598100 1 7d7 Rx d 8 32 08 00 00 00 00 00 00 
40.598300 1 129 Rx d 8 37 22 08 60 04 20 ff 3f 
40.600000 1 3ae Rx d 8 13 40 00 08 00 00 c0 1c 
40.602600 1 118 Rx d 8 a7 65 95 00 00 c8 d0 fc 
40.602900 1 1d8 Rx d 8 29 ea fe dd 07 00 e0 ae 
40.603600 1 266 Rx d 8 f9 07 07 29 07 00 9f 01 
40.604300 1 257 Rx d 8 f5 e3 2a 0f 02 68 15 01 
40.604500 1 132 Rx d 6 22 88 55 00 e4 40 
40.608200 1 129 Rx d 8 8d 23 08 60 05 20 ff 3f 
40.612000 1 22a Rx d 4 00 00 d9 15 
40.612800 1 1d8 Rx d 8 29 ea be dd 07 00 00 8e 
40.613800 1 118 Rx d 8 c8 66 95 00 00 c8 f0 fc 
40.614100 1 266 Rx d 8 f9 07 07 29 07 00 9f 01 
40.614500 1 132 Rx d 6 1c 88 56 00 e9 40 
40.615200 1 401 Rx d 8 1f 2a 39 80 33 80 34 80 
40.618200 1 129 Rx d 8 27 24 09 60 06 20 ff 3f 
40.619700 1 3ae Rx d 8 14 40 00 08 00 00 d0 2d 
40.622600 1 118 Rx d 8 da 67 95 00 00 c8 00 fd 
40.622900 1 1d8 Rx d 8 29 ea be dd 07 00 20 ae 
40.623100 1 266 Rx d 8 f9 07 07 29 07 00 9f 01 
40.624000 1 257 Rx d 8 e6 d4 2a 0f 02 68 15 01 
40.624400 1 132 Rx d 6 11 88 55 00 e3 40 
40.627200 1 2d2 Rx d 8 6d 29 a6 4e c4 09 d5 14 
40.627400 1 212 Rx d 8 59 44 02 00 81 ff 77 31 
40.627700 1 252 Rx d 8 46 23 8c 4a 00 fc 0f 00 
40.627900 1 292 Rx d 8 c7 45 27 9e 72 01 09 00 
40.628300 1 129 Rx d 8 9d 25 09 60 07 20 ff 3f 
40.632800 1 1d8 Rx d 8 29 ea fe dd 07 00 40 0e 
40.633800 1 118 Rx d 8 db 68 95 00 00 c8 00 fd 
40.634000 1 266 Rx d 8 f9 07 07 29 07 00 9f 01 
40.634700 1 132 Rx d 6 1d 88 54 00 d3 40 
40.635000 1 23e Rx d 8 f4 01 3a c0 fa fc df 04 
40.635200 1 401 Rx d 8 20 2a 32 80 36 80 36 80 
40.638200 1 129 Rx d 8 74 26 0a 60 07 20 ff 3f 
40.641400 1 241 Rx d 7 26 28 94 09 0a 45 00 
40.642500 1 118 Rx d 8 ec 69 95 00 00 c8 10 fd 
40.642700 1 266 Rx d 8 f9 07 07 29 07 00 9f 01 
40.642900 1 2b4 Rx d 6 26 05 a2 0d 17 01 
40.643100 1 1d8 Rx d 8 29 ea fe dd 07 00 60 2e 
40.643400 1 257 Rx d 8 df d5 2a 0f 02 60 15 01 
40.644300 1 132 Rx d 6 1f 88 54 00 db 40 
40.648200 1 129 Rx d 8 aa 27 0a 60 08 20 ff 3f 
40.650400 1 3ae Rx d 8 15 40 00 08 00 00 e0 3e 
40.652900 1 1d8 Rx d 8 29 ea fe dd 07 00 80 4e 
40.653500 1 118 Rx d 8 cc 6a 95 00 00 c8 f0 fc 
40.654000 1 266 Rx d 8 f9 07 07 29 07 00 9f 01 
40.654400 1 132 Rx d 6 19 88 54 00 e1 40 
40.655400 1 401 Rx d 8 21 2a 36 80 35 80 37 80 
40.658200 1 129 Rx d 8 24 28 0b 60 09 20 ff 3f 
40.662600 1 118 Rx d 8 ad 6b 95 00 00 c8 d0 fc 
40.662900 1 1d8 Rx d 8 29 ec fe dd 07 00 a0 70 
40.663200 1 266 Rx d 8 f9 07 07 29 07 00 9f 01 
40.664200 1 257 Rx d 8 d0 c6 2a 0f 02 60 15 01 
40.664400 1 132 Rx d 6 23 88 53 00 ea 40 
40.668200 1 129 Rx d 8 71 29 0b 60 09 20 ff 3f 
40.672900 1 1d8 Rx d 8 29 ea 3e de 07 00 c0 cf 
40.673800 1 118 Rx d 8 8e 6c 95 00 00 c8 b0 fc 
40.674300 1 266 Rx d 8 f9 07 07 29 07 00 9f 01 
40.674500 1 132 Rx d 6 18 88 53 00 e1 40 
40.675200 1 23e Rx d 8 f4 01 3a c0 fa fc ef 14 
40.676000 1 3ae Rx d 8 16 40 00 08 00 00 f0 4f 
40.676300 1 401 Rx d 8 22 2a 3f 80 3e 80 3f 80 
40.678200 1 129 Rx d 8 3c 2a 0c 60 09 20 ff 3f 
40.682600 1 118 Rx d 8 7f 6d 95 00 00 c8 a0 fc 
40.682900 1 1d8 Rx d 8 29 ec 3e de 07 00 e0 f1 
40.683100 1 266 Rx d 8 f9 07 07 29 07 00 9f 01 
40.683800 1 257 Rx d 8 c9 c7 2a 0f 02 58 15 01 
40.684100 1 108 Rx d 8 a4 4e f7 9b fb 97 04 25 
40.684200 1 126 Rx d 5 40 e8 16 74 d9 
40.684600 1 132 Rx d 6 2f 88 54 00 df 40 
40.685500 1 268 Rx d 5 07 07 f8 00 bf 
40.685900 1 279 Rx d 8 5a 0e 0d 01 78 05 65 02 
40.688400 1 129 Rx d 8 15 2b 0c 60 0a 20 ff 3f 
40.690400 1 3ae Rx d 8 16 40 00 08 00 00 01 60 
40.691500 1 383 Rx d 8 bd 18 3d 00 4b 21 c4 57 
40.692800 1 1d8 Rx d 8 29 ec 3e de 07 00 00 11 
40.693600 1 118 Rx d 8 70 6e 95 00 00 c8 90 fc 
40.694100 1 266 Rx d 8 f9 07 07 29 07 00 9f 01 
40.694300 1 7d5 Rx d 8 2b 0a 00 00 00 00 00 00 
40.694500 1 132 Rx d 6 18 88 53 00 d5 40 
40.695000 1 401 Rx d 8 23 02 3e 80 00 00 00 00 
40.695500 1 7d5 Rx d 8 2c 00 3f 00 00 00 00 00 
40.695700 1 7d5 Rx d 8 32 00 00 00 00 00 00 00 
40.696200 1 7d7 Rx d 8 32 07 00 00 00 00 00 00 
40.698200 1 129 Rx d 8 81 2c 0d 60 0a 20 ff 3f 
40.702700 1 118 Rx d 8 81 6f 95 00 00 c8 a0 fc 
40.702900 1 1d8 Rx d 8 29 ec 3e de 07 00 20 31 
40.704300 1 266 Rx d 8 f9 07 07 29 07 00 9f 01 
40.704500 1 132 Rx d 6 2d 88 54 00 da 40 
40.705000 1 257 Rx d 8 c9 c8 2a 0f fa 5f 15 01 
40.705700 1 3ae Rx d 8 17 40 00 08 00 00 11 71 
40.708200 1 129 Rx d 8 3e 2d 0d 60 0b 20 ff 3f 
40.712000 1 22a Rx d 4 00 00 d9 15 
40.712800 1 1d8 Rx d 8 29 ec 3e de 07 00 40 51 
40.713500 1 118 Rx d 8 82 60 95 00 00 c8 b0 fc 
40.714000 1 266 Rx d 8 f9 07 07 29 07 00 9f 01 
40.714400 1 132 Rx d 6 16 88 51 00 db 40 
40.714700 1 23e Rx d 8 f4 01 3a c0 fa fc ff 24 
40.718200 1 129 Rx d 8 d2 2e 0e 60 0b 20 ff 3f 
40.722400 1 118 Rx d 8 93 61 95 00 00 c8 c0 fc 
40.722700 1 266 Rx d 8 f9 07 07 29 07 00 9f 01 
40.722900 1 1d8 Rx d 8 29 ec 7e de 07 00 60 b1 
40.723200 1 257 Rx d 8 b2 b9 2a 0f fa 57 15 01 
40.724300 1 132 Rx d 6 1f 88 52 00 e1 40 
40.727200 1 2d2 Rx d 8 6d 29 a6 4e c4 09 d5 14 
40.727400 1 212 Rx d 8 59 84 03 00 81 ff 77 31 
40.727700 1 252 Rx d 8 46 23 8c 4a 00 fc 0f 00 
40.727900 1 292 Rx d 8 c7 45 27 9e 72 01 0e 00 
40.728300 1 129 Rx d 8 d7 2f 0f 60 0b 20 ff 3f 
40.729900 1 3ae Rx d 8 18 40 00 08 00 00 21 82 
40.732800 1 1d8 Rx d 8 29 ec 7e de 07 00 80 d1 
40.733500 1 118 Rx d 8 84 62 95 00 00 c8 b0 fc 
40.733900 1 266 Rx d 8 f9 07 07 29 07 00 9f 01 
40.734600 1 132 Rx d 6 28 88 52 00 e3 40 
40.738300 1 129 Rx d 8 00 20 0f 60 0c 20 ff 3f 
40.741400 1 241 Rx d 7 28 28 14 0a 0a 45 00 
40.741600 1 2b4 Rx d 6 25 05 a3 0d 18 01 
40.742600 1 118 Rx d 8 85 63 95 00 00 c8 b0 fc 
40.742900 1 1d8 Rx d 8 29 ee 7e de 07 00 a0 f3 
40.743100 1 266 Rx d 8 f9 07 07 29 07 00 9f 01 
40.744100 1 257 Rx d 8 b3 ba 2a 0f fa 57 15 01 
40.744800 1 132 Rx d 6 1d 88 53 00 da 40 
40.748200 1 129 Rx d 8 00 21 10 60 0b 20 ff 3f 
40.752900 1 1d8 Rx d 8 29 ee 7e de 07 00 c0 13 
40.753600 1 118 Rx d 8 86 64 95 00 00 c8 b0 fc 
40.754000 1 266 Rx d 8 f9 07 07 29 07 00 9f 01 
40.754500 1 132 Rx d 6 24 88 51 00 d5 40 
40.754700 1 23e Rx d 8 f4 01 3a c0 fa fc 0f 34 
40.755300 1 3ae Rx d 8 1a 40 00 08 00 00 31 94 
40.758200 1 129 Rx d 8 7b 22 10 60 0c 20 ff 3f 
40.759300 1 3e2 Rx d 7 00 00 80 0a 00 c0 04 
40.762500 1 118 Rx d 8 87 65 95 00 00 c8 b0 fc 
40.762700 1 266 Rx d 8 f9 07 07 29 07 00 9f 01 
40.762900 1 1d8 Rx d 8 29 ee be de 07 00 e0 73 
40.763200 1 257 Rx d 8 9c ab 2a 0f fa 4f 15 01 
40.764500 1 132 Rx d 6 1e 88 50 00 cf 40 
40.768300 1 129 Rx d 8 aa 23 11 60 0b 20 ff 3f 
40.772800 1 1d8 Rx d 8 29 ee be de 07 00 00 93 
40.773600 1 118 Rx d 8 88 66 95 00 00 c8 b0 fc 
40.774000 1 266 Rx d 8 f9 07 07 29 07 00 9f 01 
40.774500 1 132 Rx d 6 23 88 50 00 d1 40 
40.778400 1 129 Rx d 8 2c 24 11 60 0b 20 ff 3f 
40.779800 1 3ae Rx d 8 1c 40 00 08 00 00 41 a6 
40.782400 1 118 Rx d 8 99 67 95 00 00 c8 c0 fc 
40.782900 1 266 Rx d 8 f9 07 07 29 07 00 9f 01 
40.783100 1 108 Rx d 8 11 9f f7 cb fb 83 04 25 
40.783400 1 1d8 Rx d 8 29 f0 be de 07 00 20 b5 
40.783500 1 126 Rx d 5 40 a8 17 7c a2 
40.784000 1 257 Rx d 8 9d ac 2a 0f fa 4f 15 01 
40.784400 1 132 Rx d 6 1a 88 4e 00 da 40 
40.785300 1 268 Rx d 5 07 07 f8 00 bf 
40.785500 1 279 Rx d 8 5b 0f 0d 01 78 05 65 02 
40.788400 1 129 Rx d 8 3a 25 12 60 0c 20 ff 3f 
40.791600 1 383 Rx d 8 bd 18 3d 00 4b 21 c4 57 
40.792800 1 1d8 Rx d 8 29 f0 be de 07 00 40 d5 
40.793600 1 118 Rx d 8 9a 68 95 00 00 c8 c0 fc 
40.794100 1 266 Rx d 8 f9 07 07 29 07 00 9f 01 
40.794500 1 132 Rx d 6 22 88 4f 00 dc 40 
40.795200 1 23e Rx d 8 f4 01 3a c0 fa fc 1f 44 
40.795700 1 7d5 Rx d 8 2b 07 00 00 00 00 00 00 
40.796200 1 7d5 Rx d 8 2c 00 3f 00 00 00 00 00 
40.796400 1 7d5 Rx d 8 32 00 00 00 00 00 00 00 
40.796700 1 7d7 Rx d 8 32 07 00 00 00 00 00 00 
40.798200 1 129 Rx d 8 14 26 13 60 0c 20 ff 3f 
40.800000 1 3ae Rx d 8 1c 40 00 08 00 00 50 b5 
40.802600 1 118 Rx d 8 bb 69 95 00 00 c8 e0 fc 
40.802900 1 1d8 Rx d 8 29 f0 fe de 07 00 60 35 
40.803600 1 266 Rx d 8 f9 07 07 29 07 00 9f 01 
40.804300 1 257 Rx d 8 8e 9d 2a 0f fa 4f 15 01 
40.804500 1 132 Rx d 6 21 88 50 00 de 40 
40.808200 1 129 Rx d 8 03 27 13 60 0c 20 ff 3f 
40.812100 1 22a Rx d 4 00 00 d9 15 
40.812800 1 1d8 Rx d 8 29 f0 fe de 07 00 80 55 
40.813500 1 118 Rx d 8 dd 6a 95 00 00 c8 00 fd 
40.814000 1 266 Rx d 8 f9 07 07 29 07 00 9f 01 
40.814400 1 132 Rx d 6 22 88 4f 00 df 40 
40.818200 1 129 Rx d 8 eb 28 14 60 0d 20 ff 3f 
40.822500 1 118 Rx d 8 de 6b 95 00 00 c8 00 fd 
40.823000 1 266 Rx d 8 f9 07 07 29 07 00 9f 01 
40.823200 1 1d8 Rx d 8 29 f0 fe de 07 00 a0 75 
40.823900 1 257 Rx d 8 87 9e 2a 0f fa 47 15 01 
40.824300 1 132 Rx d 6 19 88 50 00 da 40 
40.827300 1 2d2 Rx d 8 6d 29 a6 4e c4 09 d5 14 
40.827500 1 212 Rx d 8 59 c4 04 00 81 ff 77 31 
40.827700 1 252 Rx d 8 46 23 8c 4a 00 fc 0f 00 
40.828000 1 292 Rx d 8 c7 45 27 9e 72 01 13 00 
40.828300 1 129 Rx d 8 4a 29 15 60 0d 20 ff 3f 
40.832800 1 1d8 Rx d 8 29 f0 fe de 07 00 c0 95 
40.833500 1 118 Rx d 8 be 6c 95 00 00 c8 e0 fc 
40.833900 1 266 Rx d 8 fa 07 07 29 07 00 9f 01 
40.834600 1 132 Rx d 6 26 88 4f 00 de 40 
40.834900 1 23e Rx d 8 f4 01 3a c0 fa fc 2f 54 
40.835300 1 3ae Rx d 8 1f 40 00 08 00 00 60 c8 
40.838200 1 129 Rx d 8 a6 2a 16 60 0d 20 ff 3f 
40.841400 1 241 Rx d 7 28 28 14 0a 0a 45 00 
40.841600 1 2b4 Rx d 6 24 05 a1 0d 25 01 
40.842500 1 118 Rx d 8 9f 6d 95 00 00 c8 c0 fc 
40.842700 1 266 Rx d 8 fa 07 07 29 07 00 9f 01 
40.842900 1 1d8 Rx d 8 29 f2 fe de 07 00 e0 b7 
40.843200 1 257 Rx d 8 78 8f 2a 0f fa 47 15 01 
40.844300 1 132 Rx d 6 28 88 50 00 db 40 
40.848200 1 129 Rx d 8 7b 2b 17 60 0e 20 ff 3f 
40.852900 1 1d8 Rx d 8 29 f2 fe de 07 00 00 d7 
40.853500 1 118 Rx d 8 a0 6e 95 00 00 c8 c0 fc 
40.854000 1 266 Rx d 8 f9 07 07 29 07 00 9f 01 
40.854400 1 132 Rx d 6 30 88 4e 00 d0 40 
40.855100 1 3ae Rx d 8 21 40 00 08 00 00 70 da 
40.858200 1 129 Rx d 8 1b 2c 17 60 0e 20 ff 3f 
40.862600 1 118 Rx d 8 b1 6f 95 00 00 c8 d0 fc 
40.862900 1 1d8 Rx d 8 29 f2 fe de 07 00 20 f7 
40.863100 1 266 Rx d 8 fa 07 07 29 07 00 9f 01 
40.864000 1 257 Rx d 8 61 80 2a 0f fa 3f 15 01 
40.864400 1 132 Rx d 6 27 88 4e 00 ce 40 
40.868200 1 129 Rx d 8 5b 2d 18 60 0f 20 ff 3f 
40.872800 1 1d8 Rx d 8 29 f2 3e df 07 00 40 58 
40.873500 1 118 Rx d 8 d3 60 95 00 00 c8 00 fd 
40.874000 1 266 Rx d 8 fa 07 07 29 07 00 9f 01 
40.874400 1 132 Rx d 6 2d 88 4d 00 ce 40 
40.875100 1 23e Rx d 8 f4 01 3a c0 fa fc 3f 64 
40.878400 1 129 Rx d 8 70 2e 19 60 0f 20 ff 3f 
40.882600 1 118 Rx d 8 e4 61 95 00 00 c8 10 fd 
40.882800 1 1d8 Rx d 8 29 f2 3e df 07 00 60 78 
40.883100 1 266 Rx d 8 fa 07 07 29 07 00 9f 01 
40.883500 1 108 Rx d 8 e8 90 f7 cb fb 69 04 25 
40.884000 1 257 Rx d 8 62 81 2a 0f fa 3f 15 01 
40.884200 1 126 Rx d 5 40 e8 16 04 69 
40.884600 1 132 Rx d 6 29 88 4d 00 ce 40 
40.885200 1 268 Rx d 5 07 07 f8 00 bf 
40.885700 1 279 Rx d 8 4c 00 0d 01 78 05 65 02 
40.887800 1 301 Rx d 8 0d 33 ec 80 fd 00 00 00 
40.888200 1 129 Rx d 8 a2 2f 1a 60 10 20 ff 3f 
40.891600 1 383 Rx d 8 bd 18 3d 00 4b 21 c4 57 
40.892900 1 1d8 Rx d 8 29 f4 3e df 07 00 80 9a 
40.893600 1 118 Rx d 8 d5 62 95 00 00 c8 00 fd 
40.894100 1 266 Rx d 8 fa 07 07 29 07 00 9f 01 
40.894300 1 7d5 Rx d 8 2b 06 00 00 00 00 00 00 
40.894500 1 132 Rx d 6 1d 88 4c 00 d1 40 
40.895000 1 3ae Rx d 8 24 40 00 08 00 00 80 ed 
40.895200 1 7d5 Rx d 8 2c 00 3f 00 00 00 00 00 
40.895500 1 7d5 Rx d 8 32 00 00 00 00 00 00 00 
40.895700 1 7d7 Rx d 8 32 07 00 00 00 00 00 00 
40.896200 1 3ae Rx d 8 24 40 00 08 00 00 91 fe 
40.898200 1 129 Rx d 8 1e 20 1b 60 11 20 ff 3f 
40.902600 1 118 Rx d 8 b5 63 95 00 00 c8 e0 fc 
40.902900 1 1d8 Rx d 8 29 f4 7e df 07 00 a0 fa 
40.904300 1 266 Rx d 8 fa 07 07 29 07 00 9f 01 
40.904500 1 132 Rx d 6 23 88 4c 00 d3 40 
40.904900 1 257 Rx d 8 4b 72 2a 0f fa 37 15 01 
40.908200 1 129 Rx d 8 9b 21 1c 60 11 20 ff 3f 
40.912100 1 22a Rx d 4 00 00 d9 15 
40.912800 1 1d8 Rx d 8 29 f4 7e df 07 00 c0 1a 
40.913500 1 118 Rx d 8 a6 64 95 00 00 c8 d0 fc 
40.914000 1 266 Rx d 8 fa 07 07 29 07 00 9f 01 
40.914400 1 132 Rx d 6 17 88 4c 00 d6 40 
40.914700 1 23e Rx d 8 f4 01 3a c0 fa fc 4f 74 
40.915600 1 3ae Rx d 8 25 40 00 08 00 00 a1 0f 
40.918300 1 129 Rx d 8 26 22 1d 60 11 20 ff 3f 
40.922500 1 118 Rx d 8 a7 65 95 00 00 c8 d0 fc 
40.922700 1 266 Rx d 8 fa 07 07 29 07 00 9f 01 
40.922900 1 1d8 Rx d 8 29 f6 7e df 07 00 e0 3c 
40.923200 1 257 Rx d 8 4c 73 2a 0f fa 37 15 01 
40.924300 1 132 Rx d 6 15 88 4d 00 db 40 
40.926400 1 2d2 Rx d 8 6d 29 a6 4e c4 09 d5 14 
40.926600 1 212 Rx d 8 59 c4 05 00 81 ff 77 31 
40.926800 1 252 Rx d 8 46 23 8c 4a 00 fc 0f 00 
40.927100 1 292 Rx d 8 c7 45 27 9e 72 01 17 00 
40.928300 1 129 Rx d 8 02 23 1e 60 11 20 ff 3f 
40.929000 1 782 Rx d 8 5e b2 02 74 01 00 00 00 
40.932800 1 1d8 Rx d 8 29 f6 7e df 07 00 00 5c 
40.933500 1 118 Rx d 8 b8 66 95 00 00 c8 e0 fc 
40.934000 1 266 Rx d 8 fa 07 07 29 07 00 9f 01 
40.934700 1 132 Rx d 6 17 88 4c 00 dc 40 
40.935600 1 302 Rx d 8 0d b2 c0 40 81 00 00 00 
40.938200 1 129 Rx d 8 5c 24 1e 60 12 20 ff 3f 
40.941400 1 241 Rx d 7 28 28 14 0a 0a 45 00 
40.941600 1 2b4 Rx d 6 23 05 a1 0d 16 01 
40.942700 1 118 Rx d 8 da 67 95 00 00 c8 00 fd 
40.942900 1 1d8 Rx d 8 29 f6 be df 07 00 20 bc 
40.943100 1 266 Rx d 8 fa 07 07 29 07 00 9f 01 
40.944100 1 257 Rx d 8 35 64 2a 0f fa 2f 15 01 
40.944300 1 132 Rx d 6 26 88 4b 00 db 40 
40.944800 1 3ae Rx d 8 28 40 00 08 00 00 b1 22 
40.948200 1 129 Rx d 8 bf 25 1f 60 12 20 ff 3f 
40.952900 1 1d8 Rx d 8 29 f8 be df 07 00 40 de 
40.953500 1 118 Rx d 8 eb 68 95 00 00 c8 10 fd 
40.954000 1 266 Rx d 8 fa 07 07 29 07 00 9f 01 
40.954400 1 132 Rx d 6 1b 88 4c 00 c7 40 
40.954900 1 23e Rx d 8 f4 01 3a c0 fa fc 5f 84 
40.958200 1 129 Rx d 8 03 26 20 60 11 20 ff 3f 
40.959400 1 3e2 Rx d 7 00 00 80 0a 00 c0 04 
40.962100 1 118 Rx d 8 ec 69 95 00 00 c8 10 fd 
40.962400 1 266 Rx d 8 fa 07 07 28 07 00 9f 01 
40.962700 1 257 Rx d 8 36 65 2a 0f fa 2f 15 01 
40.962900 1 1d8 Rx d 8 29 f8 be df 07 00 60 fe 
40.964300 1 132 Rx d 6 1f 88 4c 00 d3 40 
40.964700 1 3ae Rx d 8 2a 40 00 08 00 00 c1 34 
40.967300 1 4f Rx d 8 c3 a4 5c e1 4b 6a 67 12 
40.968300 1 129 Rx d 8 e0 27 21 60 11 20 ff 3f 
40.969400 1 77a Rx d 8 a1 16 d8 5d f0 5d d8 5d 
40.972800 1 1d8 Rx d 8 29 f8 fe df 07 00 80 5e 
40.973500 1 118 Rx d 8 dd 6a 95 00 00 c8 00 fd 
40.974000 1 266 Rx d 8 fa 07 07 29 07 00 9f 01 
40.974400 1 132 Rx d 6 16 88 4a 00 d0 40 
40.978400 1 129 Rx d 8 37 28 21 60 11 20 ff 3f 
40.982600 1 118 Rx d 8 ee 6b 95 00 00 c8 10 fd 
40.982900 1 1d8 Rx d 8 29 fa fe df 07 00 a0 80 
40.983100 1 108 Rx d 8 22 c1 f7 e3 fb 5a 04 25 
40.983600 1 266 Rx d 8 fa 07 07 29 07 00 9f 01 
40.983800 1 126 Rx d 5 40 58 17 0c e2 
40.984400 1 132 Rx d 6 19 88 4b 00 ca 40 
40.985100 1 257 Rx d 8 1f 56 2a 0f fa 27 15 01 
40.985800 1 268 Rx d 5 07 07 f8 00 bf 
40.986000 1 279 Rx d 8 4d 01 0d 01 78 05 65 02 
40.986500 1 332 Rx d 6 18 04 8e 8d 8e 00 
40.988300 1 129 Rx d 8 fc 29 22 60 10 20 ff 3f 
40.988900 1 3f2 Rx d 8 01 f3 84 39 00 00 00 00 
40.991800 1 383 Rx d 8 bd 18 3d 00 4b 21 c4 57 
40.992800 1 1d8 Rx d 8 29 fa fe df 07 00 c0 a0 
40.993700 1 118 Rx d 8 df 6c 95 00 00 c8 00 fd 
40.994100 1 266 Rx d 8 fa 07 07 29 07 00 9f 01 
40.994300 1 132 Rx d 6 1b 88 4c 00 ca 40 
40.994800 1 7d5 Rx d 8 2b 03 00 00 00 00 00 00 
40.995100 1 7d5 Rx d 8 2c 00 3f 00 00 00 00 00 
40.995300 1 23e Rx d 8 f4 01 3a c0 fa fc 6f 94 
40.995800 1 3ae Rx d 8 2c 40 00 08 00 00 d1 46 
40.996300 1 401 Rx d 8 00 2a 77 80 76 80 75 80 
40.996500 1 7d5 Rx d 8 32 00 00 00 00 00 00 00 
40.996800 1 7d7 Rx d 8 32 07 00 00 00 00 00 00 
40.998200 1 129 Rx d 8 33 2a 22 60 0f 20 ff 3f 
41.002400 1 118 Rx d 8 bf 6d 95 00 00 c8 e0 fc 
41.002900 1 266 Rx d 8 fa 07 07 28 07 00 9f 01 
41.003100 1 1d8 Rx d 8 29 fa 3e e0 07 00 e0 01 
41.003500 1 257 Rx d 8 20 57 2a 0f fa 27 15 01 
41.004500 1 132 Rx d 6 28 88 4a 00 c5 40 
41.005400 1 3ae Rx d 8 2c 40 00 08 00 00 e0 55 
41.005600 1 3dd Rx d 8 d1 b9 c9 0c 00 00 a9 00 
41.008200 1 129 Rx d 8 9b 2b 23 60 0e 20 ff 3f 
41.011700 1 303 Rx d 8 0d 63 62 c8 40 00 00 00 
41.012100 1 22a Rx d 4 00 00 d9 15 
41.012800 1 1d8 Rx d 8 29 fa 3e e0 07 00 00 21 
41.013400 1 118 Rx d 8 b0 6e 95 00 00 c8 d0 fc 
41.013900 1 266 Rx d 8 fa 07 07 29 07 00 9f 01 
41.014400 1 132 Rx d 6 2c 88 4a 00 c4 40 
41.015300 1 3ae Rx d 8 2e 40 00 08 00 00 f0 67 
41.015500 1 401 Rx d 8 01 2a 77 80 78 80 79 80 
41.018300 1 129 Rx d 8 23 2c 23 60 0d 20 ff 3f 
41.021900 1 43a Rx d 6 04 6d 00 00 0c 00 
41.022600 1 118 Rx d 8 d1 6f 95 00 00 c8 f0 fc 
41.022900 1 1d8 Rx d 8 29 fc 3e e0 07 00 20 43 
41.023100 1 266 Rx d 8 fa 07 07 28 07 00 9f 01 
41.024000 1 257 Rx d 8 10 48 2a 0e fa 27 15 01 
41.024400 1 132 Rx d 6 28 88 4a 00 c2 40 
41.028500 1 129 Rx d 8 ae 2d 23 60 0b 20 ff 3f 
41.028700 1 212 Rx d 8 59 84 06 00 81 ff 77 31 
41.028900 1 252 Rx d 8 46 23 8d 4a 00 fc 0f 00 
41.029100 1 292 Rx d 8 c7 45 27 9e 72 01 1a 00 
41.029400 1 2d2 Rx d 8 6d 29 a7 4e c4 09 d5 14 
41.032800 1 1d8 Rx d 8 29 fc 7e e0 07 00 40 a3 
41.033500 1 118 Rx d 8 e3 60 95 00 00 c8 10 fd 
41.033900 1 266 Rx d 8 fa 07 07 28 07 00 9f 01 
41.034600 1 132 Rx d 6 28 88 4a 00 c6 40 
41.035100 1 23e Rx d 8 f4 01 3a c0 fa fc 7f a4 
41.035300 1 401 Rx d 8 02 2a 78 80 77 80 7b 80 
41.038200 1 129 Rx d 8 dc 2e 23 60 0a 20 ff 3f 
41.041400 1 241 Rx d 7 27 28 d4 09 0a 45 00 
41.041600 1 2b4 Rx d 6 22 05 a1 0d 24 01 
41.042700 1 118 Rx d 8 f4 61 95 00 00 c8 20 fd 
41.042900 1 1d8 Rx d 8 29 fc 7e e0 07 00 60 c3 
41.043100 1 266 Rx d 8 fa 07 07 28 07 00 9f 01 
41.044100 1 257 Rx d 8 09 49 2a 0e fa 1f 15 01 
41.044300 1 132 Rx d 6 25 88 48 00 c4 40 
41.048200 1 129 Rx d 8 58 2f 23 60 08 20 ff 3f 
41.052900 1 1d8 Rx d 8 29 fe 7e e0 07 00 80 e5 
41.053600 1 118 Rx d 8 05 62 95 00 00 c8 30 fd 
41.054000 1 266 Rx d 8 fa 07 07 28 07 00 9f 01 
41.054500 1 132 Rx d 6 22 88 49 00 cc 40 
41.055200 1 401 Rx d 8 03 2a 7b 80 79 80 79 80 
41.055400 1 3ae Rx d 8 2e 40 00 08 00 00 00 77 
41.058200 1 129 Rx d 8 74 20 23 60 07 20 ff 3f 
41.062700 1 118 Rx d 8 f6 63 95 00 00 c8 20 fd 
41.062900 1 1d8 Rx d 8 29 fe be e0 07 00 a0 45 
41.063300 1 266 Rx d 8 fa 07 07 28 07 00 9f 01 
41.064000 1 257 Rx d 8 fa 3a 2a 0e fa 1f 15 01 
41.064400 1 132 Rx d 6 1d 88 47 00 c4 40 
41.068200 1 129 Rx d 8 16 21 23 60 05 20 ff 3f 
41.070700 1 3ae Rx d 8 2f 40 00 08 00 00 10 88 
41.072800 1 1d8 Rx d 8 29 fe be e0 07 00 c0 65 
41.073500 1 118 Rx d 8 07 64 95 00 00 c8 30 fd 
41.073900 1 266 Rx d 8 fa 07 07 28 07 00 9f 01 
41.074400 1 132 Rx d 6 30 88 47 00 c2 40 
41.075100 1 23e Rx d 8 f4 01 3a c0 fa fc 8f b4 
41.075700 1 401 Rx d 8 04 2a 7c 80 78 80 70 80 
41.078400 1 129 Rx d 8 5f 22 23 60 05 20 ff 3f 
41.082400 1 118 Rx d 8 08 65 95 00 00 c8 30 fd 
41.082700 1 266 Rx d 8 fa 07 07 28 07 00 9f 01 
41.082900 1 1d8 Rx d 8 29 00 bf e0 07 00 e0 88 
41.083200 1 257 Rx d 8 f3 3b 2a 0e fa 17 15 01 
41.083600 1 108 Rx d 8 9a 12 f8 13 fc 4f 04 25 
41.083800 1 126 Rx d 5 3e d8 17 14 68 
41.084400 1 132 Rx d 6 21 88 48 00 c2 40 
41.085200 1 268 Rx d 5 07 07 f8 00 bf 
41.085500 1 279 Rx d 8 4e 02 0d 01 78 05 65 02 
41.088200 1 129 Rx d 8 d7 23 23 60 03 20 ff 3f 
41.091600 1 383 Rx d 8 bd 18 3d 00 45 21 c4 57 
41.092800 1 1d8 Rx d 8 29 00 ff e0 07 00 00 e8 
41.093600 1 118 Rx d 8 09 66 95 00 00 c8 30 fd 
41.094100 1 266 Rx d 8 fa 07 07 28 07 00 9f 01 
41.094500 1 132 Rx d 6 26 88 48 00 c6 40 
41.095000 1 401 Rx d 8 05 2a 72 80 73 80 75 80 
41.095200 1 7d5 Rx d 8 2b 01 00 00 00 00 00 00 
41.095500 1 7d5 Rx d 8 2c 00 3f 00 00 00 00 00 
41.095700 1 7d5 Rx d 8 32 00 00 00 00 00 00 00 
41.096200 1 7d7 Rx d 8 32 07 00 00 00 00 00 00 
41.098200 1 129 Rx d 8 fc 24 23 60 02 20 ff 3f 
41.102400 1 118 Rx d 8 fa 67 95 00 00 c8 20 fd 
41.102900 1 266 Rx d 8 fa 07 07 28 07 00 9f 01 
41.103100 1 1d8 Rx d 8 29 00 ff e0 07 00 20 08 
41.103500 1 257 Rx d 8 f4 3c 2a 0e fa 17 15 01 
41.104500 1 132 Rx d 6 23 88 46 00 bf 40 
41.105700 1 3ae Rx d 8 2f 40 00 08 00 00 21 99 
41.108200 1 129 Rx d 8 eb 25 23 60 02 20 ff 3f 
41.112100 1 22a Rx d 4 00 00 d9 15 
41.112800 1 1d8 Rx d 8 29 02 3f e1 07 00 40 6b 
41.113600 1 118 Rx d 8 0b 68 95 00 00 c8 30 fd 
41.114100 1 266 Rx d 8 fa 07 07 28 07 00 9f 01 
41.114300 1 132 Rx d 6 1a 88 46 00 c0 40 
41.114500 1 23e Rx d 8 f4 01 3a c0 fa fc 9f c4 
41.115500 1 401 Rx d 8 06 2a 73 80 75 80 78 80 
41.118200 1 129 Rx d 8 e9 26 23 60 01 20 ff 3f 
41.122400 1 118 Rx d 8 fc 69 95 00 00 c8 20 fd 
41.122700 1 266 Rx d 8 fa 07 07 28 07 00 9f 01 
41.122900 1 1d8 Rx d 8 29 02 3f e1 07 00 60 8b 
41.123200 1 257 Rx d 8 dd 2d 2a 0e fa 0f 15 01 
41.124500 1 132 Rx d 6 22 88 46 00 bd 40 
41.127300 1 2d2 Rx d 8 6c 29 a6 4e c4 09 d5 14 
41.127500 1 212 Rx d 8 59 44 07 00 81 ff 77 31 
41.127700 1 252 Rx d 8 46 23 8d 4a 00 fc 0f 00 
41.127900 1 292 Rx d 8 c7 45 27 9e 72 01 1d 00 
41.128300 1 129 Rx d 8 fe 27 23 60 01 20 ff 3f 
41.132900 1 1d8 Rx d 8 29 02 3f e1 07 00 80 ab 
41.133400 1 118 Rx d 8 dd 6a 95 00 00 c8 00 fd 
41.133900 1 266 Rx d 8 fa 07 07 28 07 00 9f 01 
41.134600 1 132 Rx d 6 20 88 44 00 c0 40 
41.135100 1 401 Rx d 8 07 2a 74 80 77 80 79 80 
41.138200 1 129 Rx d 8 84 28 23 60 00 20 ff 3f 
41.141400 1 241 Rx d 7 28 28 14 0a 0a 45 00 
41.141600 1 2b4 Rx d 6 24 05 a1 0d 1c 01 
41.142700 1 118 Rx d 8 bd 6b 95 00 00 c8 e0 fc 
41.142900 1 1d8 Rx d 8 29 04 3f e1 07 00 a0 cd 
41.143100 1 266 Rx d 8 fa 07 07 28 07 00 9f 01 
41.144100 1 257 Rx d 8 de 2e 2a 0e fa 0f 15 01 
41.144300 1 132 Rx d 6 35 88 46 00 bf 40 
41.144800 1 3ae Rx d 8 2f 40 00 08 00 00 31 a9 
41.148200 1 129 Rx d 8 b8 29 23 60 ff 1f ff 3f 
41.152900 1 1d8 Rx d 8 29 04 7f e1 07 00 c0 2d 
41.153500 1 118 Rx d 8 be 6c 95 00 00 c8 e0 fc 
41.154000 1 266 Rx d 8 fa 07 07 28 07 00 9f 01 
41.154400 1 132 Rx d 6 2b 88 45 00 c0 40 
41.154700 1 401 Rx d 8 08 2a 78 80 77 80 79 80 
41.154900 1 23e Rx d 8 f4 01 3a c0 fa fc af d4 
41.158200 1 129 Rx d 8 a3 2a 23 60 01 20 ff 3f 
41.159400 1 3e2 Rx d 7 00 00 80 fa 0f c0 04 
41.162400 1 118 Rx d 8 bf 6d 95 00 00 c8 e0 fc 
41.162600 1 266 Rx d 8 fa 07 07 28 07 00 9f 01 
41.163000 1 1d8 Rx d 8 29 04 7f e1 07 00 e0 4d 
41.163300 1 257 Rx d 8 cf 1f 2a 0e fa 0f 15 01 
41.164000 1 23a Rx d 8 53 ed 88 17 08 00 00 00 
41.164400 1 132 Rx d 6 23 88 44 00 bf 40 
41.168300 1 129 Rx d 8 96 2b 23 60 ff 1f ff 3f 
41.172800 1 1d8 Rx d 8 29 06 7f e1 07 00 00 6f 
41.173400 1 118 Rx d 8 d0 6e 95 00 00 c8 f0 fc 
41.173900 1 266 Rx d 8 fa 07 07 28 07 00 9f 01 
41.174400 1 132 Rx d 6 22 88 44 00 bd 40 
41.175900 1 401 Rx d 8 09 2a 78 80 7b 80 78 80 
41.178400 1 129 Rx d 8 9f 2c 23 60 00 20 ff 3f 
41.182400 1 118 Rx d 8 e2 6f 95 00 00 c8 00 fd 
41.182600 1 266 Rx d 8 fa 07 06 28 06 00 9f 01 
41.182900 1 1d8 Rx d 8 29 06 bf e1 07 00 20 cf 
41.183100 1 257 Rx d 8 b8 10 2a 0e fa 07 15 01 
41.183800 1 108 Rx d 8 18 73 f8 33 fc 4c 04 25 
41.184000 1 126 Rx d 5 3d b0 18 1c 48 
41.184600 1 132 Rx d 6 29 88 44 00 bb 40 
41.185300 1 268 Rx d 5 07 07 f8 00 bf 
41.185500 1 279 Rx d 8 4f 03 0d 01 78 05 65 02 
41.186400 1 3ae Rx d 8 2f 40 00 08 00 00 41 b9 
41.188400 1 129 Rx d 8 8d 2d 23 60 00 20 ff 3f 
41.191600 1 383 Rx d 8 bd 18 3d 00 45 21 c4 57 
41.192800 1 1d8 Rx d 8 29 06 bf e1 07 00 40 ef 
41.193400 1 118 Rx d 8 d3 60 95 00 00 c8 00 fd 
41.193900 1 266 Rx d 8 fa 07 07 28 06 00 9f 01 
41.194300 1 132 Rx d 6 29 88 43 00 b7 40 
41.194800 1 401 Rx d 8 0a 2a 7b 80 78 80 7d 80 
41.195100 1 7d5 Rx d 8 2b 00 00 00 00 00 00 00 
41.195300 1 23e Rx d 8 f4 01 3a c0 fa fc bf e4 
41.195600 1 7d5 Rx d 8 2c 00 3f 00 00 00 00 00 
41.195800 1 7d5 Rx d 8 32 00 00 00 00 00 00 00 
41.196300 1 7d7 Rx d 8 32 07 00 00 00 00 00 00 
41.198200 1 129 Rx d 8 52 2e 23 60 00 20 ff 3f 
41.202400 1 118 Rx d 8 d4 61 95 00 00 c8 00 fd 
41.202900 1 266 Rx d 8 fa 07 07 28 07 00 9f 01 
41.203100 1 1d8 Rx d 8 29 08 ff e1 07 00 60 51 
41.203600 1 257 Rx d 8 a9 01 2a 0e fa 07 15 01 
41.204500 1 132 Rx d 6 22 88 45 00 b7 40 
41.205700 1 3ae Rx d 8 2f 40 00 08 00 00 50 c8 
41.208200 1 129 Rx d 8 a3 2f 23 60 00 20 ff 3f 
41.212100 1 22a Rx d 4 00 00 d9 15 
41.212900 1 1d8 Rx d 8 29 08 ff e1 07 00 80 71 
41.213500 1 118 Rx d 8 e5 62 95 00 00 c8 10 fd 
41.214000 1 266 Rx d 8 fa 07 07 28 06 00 9f 01 
41.214400 1 132 Rx d 6 20 88 43 00 b8 40 
41.215100 1 401 Rx d 8 0b 2a 78 80 7d 80 79 80 
41.217600 1 373 Rx d 8 06 00 a7 a3 0f de 0a 1f 
41.218200 1 129 Rx d 8 2f 20 23 60 ff 1f ff 3f 
41.219300 1 2d7 Rx d 4 a4 dc 00 03 
41.222100 1 118 Rx d 8 e6 63 95 00 00 c8 10 fd 
41.222400 1 266 Rx d 8 fa 07 07 28 06 00 9f 01 
41.222600 1 257 Rx d 8 a1 02 2a 0e fa ff 14 01 
41.223100 1 1d8 Rx d 8 29 08 ff e1 07 00 a0 91 
41.224400 1 132 Rx d 6 1f 88 42 00 b3 40 
41.227300 1 2d2 Rx d 8 6d 29 a7 4e c4 09 d5 14 
41.227500 1 212 Rx d 8 59 c4 07 00 81 ff 77 31 
41.227700 1 252 Rx d 8 46 23 8d 4a 00 fc 0f 00 
41.227900 1 292 Rx d 8 c7 45 27 9e 72 01 1f 00 
41.228300 1 129 Rx d 8 51 21 23 60 00 20 ff 3f 
41.232800 1 1d8 Rx d 8 29 0a 3f e2 07 00 c0 f4 
41.233500 1 118 Rx d 8 c6 64 95 00 00 c8 f0 fc 
41.234000 1 266 Rx d 8 fa 07 07 28 06 00 9f 01 
41.234600 1 132 Rx d 6 25 88 44 00 b6 40 
41.234900 1 23e Rx d 8 f4 01 3a c0 fa fc cf f4 
41.235400 1 401 Rx d 8 0c 2a 7c 80 76 80 77 80 
41.238200 1 129 Rx d 8 18 22 23 60 00 20 ff 3f 
41.241400 1 241 Rx d 7 28 28 14 0a 0a 45 00 
41.241600 1 2b4 Rx d 6 25 05 a2 0d 22 01 
41.242400 1 118 Rx d 8 b7 65 95 00 00 c8 e0 fc 
41.242700 1 266 Rx d 8 fa 07 06 28 06 00 9f 01 
41.242900 1 1d8 Rx d 8 29 0a 3f e2 07 00 e0 14 
41.243200 1 257 Rx d 8 91 f3 29 0e fa ff 14 01 
41.244300 1 132 Rx d 6 21 88 43 00 b7 40 
41.244800 1 3ae Rx d 8 2f 40 00 08 00 00 60 d8 
41.248200 1 129 Rx d 8 66 23 23 60 ff 1f ff 3f 
41.252900 1 1d8 Rx d 8 29 0a 7f e2 07 00 00 74 
41.253500 1 118 Rx d 8 d9 66 95 00 00 c8 00 fd 
41.254000 1 266 Rx d 8 fa 07 07 28 06 00 9f 01 
41.254400 1 132 Rx d 6 23 88 42 00 b7 40 
41.254800 1 401 Rx d 8 0d 2a 70 80 78 80 75 80 
41.258200 1 129 Rx d 8 e0 24 23 60 ff 1f ff 3f 
41.262400 1 118 Rx d 8 ea 67 95 00 00 c8 10 fd 
41.262600 1 266 Rx d 8 fa 07 06 28 06 00 9f 01 
41.262900 1 1d8 Rx d 8 29 0c 3f e2 07 00 20 56 
41.263100 1 257 Rx d 8 8a f4 29 0e fa f7 14 01 
41.264400 1 132 Rx d 6 2a 88 42 00 bb 40 
41.268300 1 129 Rx d 8 33 25 23 60 01 20 ff 3f 
41.272800 1 1d8 Rx d 8 29 0c 7f e2 07 00 40 b6 
41.273500 1 118 Rx d 8 db 68 95 00 00 c8 00 fd 
41.273900 1 266 Rx d 8 fb 07 06 28 06 00 9f 01 
41.274400 1 132 Rx d 6 29 88 42 00 bd 40 
41.275100 1 23e Rx d 8 f4 01 3a c0 fa fc df 04 
41.276000 1 401 Rx d 8 0e 2a 79 80 75 80 78 80 
41.278400 1 129 Rx d 8 44 26 23 60 00 20 ff 3f 
41.282400 1 118 Rx d 8 dc 69 95 00 00 c8 00 fd 
41.282600 1 266 Rx d 8 fa 07 07 28 06 00 9f 01 
41.282800 1 1d8 Rx d 8 29 0c 7f e2 07 00 60 d6 
41.283100 1 257 Rx d 8 8b f5 29 0e fa f7 14 01 
41.283800 1 108 Rx d 8 f0 64 f8 33 fc 33 04 25 
41.284000 1 126 Rx d 5 3c b8 16 24 55 
41.284600 1 132 Rx d 6 25 88 42 00 bd 40 
41.285300 1 268 Rx d 5 06 06 f8 00 bf 
41.285500 1 279 Rx d 8 50 04 0d 01 78 05 65 02 
41.285700 1 3ae Rx d 8 2f 40 00 08 00 00 70 e8 
41.288400 1 129 Rx d 8 53 27 23 60 00 20 ff 3f 
41.291600 1 383 Rx d 8 bd 18 3d 00 45 21 c4 57 
41.292800 1 1d8 Rx d 8 29 0e 7f e2 07 00 80 f8 
41.293400 1 118 Rx d 8 0d 6a 95 00 00 c8 30 fd 
41.293900 1 266 Rx d 8 fb 07 06 28 06 00 9f 01 
41.294300 1 7d5 Rx d 8 2b 00 00 00 00 00 00 00 
41.294500 1 132 Rx d 6 15 88 42 00 c4 40 
41.296700 1 401 Rx d 8 0f 2a 74 80 7e 80 7c 80 
41.297400 1 3b6 Rx d 8 96 6e a2 03 00 00 a0 02 
41.298300 1 129 Rx d 8 ed 28 23 60 ff 1f ff 3f 
41.298700 1 7d5 Rx d 8 2c 00 3f 00 00 00 00 00 
41.299200 1 7d5 Rx d 8 32 00 00 00 00 00 00 00 
41.299700 1 7d7 Rx d 8 32 06 00 00 00 00 00 00 
41.300400 1 7d5 Rx d 8 42 f8 00 8d 00 00 29 00 
41.301100 1 7d5 Rx d 8 43 a2 b4 91 7b 3f 00 00 
41.301600 1 7d5 Rx d 8 44 93 51 64 58 3f 00 47 
41.302500 1 118 Rx d 8 1e 6b 95 00 00 c8 40 fd 
41.303500 1 266 Rx d 8 fb 07 06 28 06 00 9f 01 
41.303900 1 1d8 Rx d 8 29 0e bf e2 07 00 a0 58 
41.304400 1 132 Rx d 6 19 88 40 00 bc 40 
41.304600 1 257 Rx d 8 74 e6 29 0e fa ef 14 01 
41.307700 1 3ae Rx d 8 2f 40 00 08 00 00 81 f9 
41.308400 1 129 Rx d 8 d1 29 23 60 00 20 ff 3f 
41.308900 1 7d5 Rx d 8 46 4a 49 4d 49 46 4a 4a 
41.309100 1 7d5 Rx d 8 48 4f 4c 00 00 c0 13 58 
41.312100 1 22a Rx d 4 00 00 d9 15 
41.312800 1 1d8 Rx d 8 29 0e bf e2 07 00 c0 78 
41.313400 1 118 Rx d 8 1f 6c 95 00 00 c8 40 fd 
41.313900 1 266 Rx d 8 fb 07 06 28 06 00 9f 01 
41.314300 1 132 Rx d 6 27 88 40 00 c2 40 
41.314600 1 401 Rx d 8 10 2a 7d 80 78 80 81 80 
41.314800 1 23e Rx d 8 f4 01 3a c0 fa fc ef 14 
41.318200 1 129 Rx d 8 0e 2a 23 60 00 20 ff 3f 
41.322400 1 118 Rx d 8 30 6d 95 00 00 c8 50 fd 
41.322600 1 266 Rx d 8 fb 07 06 28 06 00 9f 01 
41.322900 1 1d8 Rx d 8 29 10 bf e2 07 00 e0 9a 
41.323100 1 257 Rx d 8 75 e7 29 0e fa ef 14 01 
41.324300 1 132 Rx d 6 25 88 3f 00 bd 40 
41.324800 1 752 Rx d 8 02 00 00 00 03 00 00 00 
41.327300 1 2d2 Rx d 8 6d 29 a7 4e c4 09 d5 14 
41.327500 1 212 Rx d 8 59 44 08 00 81 ff 77 31 
41.327700 1 252 Rx d 8 46 23 8d 4a 00 fc 0f 00 
41.328000 1 292 Rx d 8 c7 45 27 9e 72 01 21 00 
41.328300 1 129 Rx d 8 ff 2b 23 60 00 20 ff 3f 
41.332800 1 1d8 Rx d 8 29 10 ff e2 07 00 00 fa 
41.333500 1 118 Rx d 8 41 6e 95 00 00 c8 60 fd 
41.333900 1 266 Rx d 8 fb 07 06 28 06 00 9f 01 
41.334600 1 132 Rx d 6 17 88 3e 00 bd 40 
41.335300 1 401 Rx d 8 11 2a 79 80 78 80 73 80 
41.338200 1 129 Rx d 8 9f 2c 23 60 00 20 ff 3f 
41.341400 1 241 Rx d 7 28 28 14 0a 0a 45 00 
41.341600 1 2b4 Rx d 6 26 05 a0 0d 1c 01 
41.342700 1 118 Rx d 8 22 6f 95 00 00 c8 40 fd 
41.342900 1 1d8 Rx d 8 29 12 ff e2 07 00 20 1c 
41.343200 1 266 Rx d 8 fb 07 06 28 06 00 9f 01 
41.344100 1 257 Rx d 8 66 d8 29 0e fa ef 14 01 
41.344300 1 132 Rx d 6 1f 88 40 00 ba 40 
41.345000 1 3ae Rx d 8 2f 40 00 08 00 00 91 09 
41.348200 1 129 Rx d 8 20 2d 23 60 01 20 ff 3f 
41.351600 1 344 Rx d 8 00 00 00 00 00 00 40 87 
41.352300 1 6d4 Rx d 8 0d 00 00 00 94 d1 93 2e 
41.353000 1 1d8 Rx d 8 29 12 3f e3 07 00 40 7d 
41.354000 1 118 Rx d 8 03 60 95 00 00 c8 30 fd 
41.354400 1 132 Rx d 6 16 88 3e 00 b8 40 
41.354600 1 23e Rx d 8 f4 01 3a c0 fa fc ff 24 
41.354800 1 266 Rx d 8 fb 07 06 28 06 00 9f 01 
41.356300 1 401 Rx d 8 12 2a 71 80 76 80 75 80 
41.358200 1 129 Rx d 8 ff 2e 23 60 01 20 ff 3f 
41.359400 1 3e2 Rx d 7 00 00 80 fa 0f c0 04 
41.362400 1 118 Rx d 8 14 61 95 00 00 c8 40 fd 
41.362700 1 266 Rx d 8 fb 07 06 28 06 00 9f 01 
41.362900 1 1d8 Rx d 8 29 12 3f e3 07 00 60 9d 
41.363100 1 257 Rx d 8 5f d9 29 0e fa e7 14 01 
41.364400 1 132 Rx d 6 1f 88 3f 00 b5 40 
41.368400 1 129 Rx d 8 a3 2f 23 60 00 20 ff 3f 
41.372800 1 1d8 Rx d 8 29 14 3f e3 07 00 80 bf 
41.373400 1 118 Rx d 8 15 62 95 00 00 c8 40 fd 
41.373900 1 266 Rx d 8 fb 07 06 28 06 00 9f 01 
41.374300 1 132 Rx d 6 1b 88 3e 00 ac 40 
41.375600 1 401 Rx d 8 13 2a 71 80 73 80 70 80 
41.378400 1 129 Rx d 8 46 20 23 60 00 20 ff 3f 
41.382400 1 118 Rx d 8 f6 63 95 00 00 c8 20 fd 
41.382800 1 266 Rx d 8 fb 07 06 28 06 00 9f 01 
41.383100 1 1d8 Rx d 8 29 14 3f e3 07 00 a0 df 
41.383300 1 257 Rx d 8 60 da 29 0e fa e7 14 01 
41.383600 1 108 Rx d 8 30 95 f8 4b fc 2a 04 25 
41.384000 1 126 Rx d 5 3b f8 17 2c 9d 
41.384400 1 132 Rx d 6 24 88 3e 00 ae 40 
41.385300 1 268 Rx d 5 06 06 f8 00 bf 
41.385500 1 279 Rx d 8 51 05 0d 01 78 05 65 02 
41.386400 1 3ae Rx d 8 2f 40 00 08 00 00 a1 19 
41.388400 1 129 Rx d 8 51 21 23 60 00 20 ff 3f 
41.391600 1 383 Rx d 8 bd 18 3d 00 45 21 c4 57 
41.392800 1 1d8 Rx d 8 29 14 7f e3 07 00 c0 3f 
41.393400 1 118 Rx d 8 e7 64 95 00 00 c8 10 fd 
41.393900 1 266 Rx d 8 fb 07 06 28 06 00 9f 01 
41.394300 1 132 Rx d 6 1e 88 3e 00 ae 40 
41.394800 1 401 Rx d 8 14 2a 76 80 7c 80 7c 80 
41.395100 1 23e Rx d 8 f4 01 3a c0 fa fc 0f 34 
41.395500 1 7d5 Rx d 8 2b 00 00 00 00 00 00 00 
41.395800 1 7d5 Rx d 8 2c 00 3f 00 00 00 00 00 
41.396300 1 7d5 Rx d 8 32 00 00 00 00 00 00 00 
41.396500 1 7d7 Rx d 8 32 06 00 00 00 00 00 00 
41.398200 1 129 Rx d 8 b5 22 23 60 01 20 ff 3f 
41.400000 1 3ae Rx d 8 2f 40 00 08 00 00 b0 28 
41.402400 1 118 Rx d 8 f8 65 95 00 00 c8 20 fd 
41.402800 1 266 Rx d 8 fb 07 06 28 06 00 9f 01 
41.403100 1 1d8 Rx d 8 29 14 7f e3 07 00 e0 5f 
41.403500 1 257 Rx d 8 51 cb 29 0e fa e7 14 01 
41.404400 1 132 Rx d 6 21 88 3e 00 b5 40 
41.408200 1 129 Rx d 8 0f 23 23 60 00 20 ff 3f 
41.412100 1 22a Rx d 4 00 00 d9 15 
41.412800 1 1d8 Rx d 8 29 16 7f e3 07 00 00 81 
41.413400 1 118 Rx d 8 09 66 95 00 00 c8 30 fd 
41.413900 1 266 Rx d 8 fb 07 06 28 06 00 9f 01 
41.414400 1 132 Rx d 6 22 88 3d 00 b7 40 
41.415300 1 401 Rx d 8 15 2a 7f 80 80 80 80 80 
41.418200 1 129 Rx d 8 89 24 23 60 00 20 ff 3f 
41.422400 1 118 Rx d 8 fa 67 95 00 00 c8 20 fd 
41.422900 1 266 Rx d 8 fb 07 06 28 06 00 9f 01 
41.423100 1 1d8 Rx d 8 29 16 7f e3 07 00 20 a1 
41.423300 1 257 Rx d 8 4a cc 29 0e fa df 14 01 
41.424400 1 132 Rx d 6 1d 88 3e 00 ba 40 
41.427200 1 2d2 Rx d 8 6d 29 a7 4e c4 09 d5 14 
41.427500 1 212 Rx d 8 59 84 08 00 81 ff 77 31 
41.427700 1 252 Rx d 8 46 23 8d 4a 00 fc 0f 00 
41.427900 1 292 Rx d 8 c7 45 27 9e 72 01 22 00 
41.428300 1 129 Rx d 8 9e 25 23 60 00 20 ff 3f 
41.432800 1 1d8 Rx d 8 29 16 bf e3 07 00 40 01 
41.433500 1 118 Rx d 8 0b 68 95 00 00 c8 30 fd 
41.433900 1 266 Rx d 8 fb 07 06 28 06 00 9f 01 
41.434600 1 132 Rx d 6 23 88 3c 00 b8 40 
41.434900 1 23e Rx d 8 f4 01 3a c0 fa fc 1f 44 
41.435100 1 401 Rx d 8 16 2a 81 80 74 80 78 80 
41.438200 1 129 Rx d 8 44 26 23 60 00 20 ff 3f 
41.440100 1 3ae Rx d 8 2f 40 00 08 00 00 c0 38 
41.441400 1 241 Rx d 7 27 28 d4 09 0a 45 00 
41.441600 1 2b4 Rx d 6 24 05 a0 0d 1d 01 
41.442400 1 118 Rx d 8 0c 69 95 00 00 c8 30 fd 
41.442700 1 266 Rx d 8 fb 07 06 28 06 00 9f 01 
41.442900 1 1d8 Rx d 8 29 18 bf e3 07 00 60 23 
41.443100 1 257 Rx d 8 3b bd 29 0e fa df 14 01 
41.444800 1 132 Rx d 6 1e 88 3d 00 b5 40 
41.448200 1 129 Rx d 8 53 27 23 60 00 20 ff 3f 
41.452900 1 1d8 Rx d 8 29 18 bf e3 07 00 80 43 
41.453700 1 118 Rx d 8 fd 6a 95 00 00 c8 20 fd 
41.454200 1 266 Rx d 8 fb 07 06 28 06 00 9f 01 
41.454400 1 132 Rx d 6 1b 88 3b 00 ad 40 
41.455300 1 401 Rx d 8 17 2a 73 80 78 80 76 80 
41.458200 1 129 Rx d 8 84 28 23 60 00 20 ff 3f 
41.462400 1 118 Rx d 8 fe 6b 95 00 00 c8 20 fd 
41.462900 1 266 Rx d 8 fb 07 06 28 06 00 9f 01 
41.463100 1 1d8 Rx d 8 29 18 ff e3 07 00 a0 a3 
41.463300 1 257 Rx d 8 34 be 29 0e fa d7 14 01 
41.464400 1 132 Rx d 6 1e 88 3b 00 a8 40 
41.468100 1 77a Rx d 8 00 2f 39 00 f1 0c 5f 61 
41.468300 1 129 Rx d 8 b8 29 23 60 ff 1f ff 3f 
41.472800 1 1d8 Rx d 8 29 1a ff e3 07 00 c0 c5 
41.473500 1 118 Rx d 8 ff 6c 95 00 00 c8 20 fd 
41.474000 1 266 Rx d 8 fb 07 06 28 06 00 9f 01 
41.474400 1 132 Rx d 6 16 88 3b 00 a8 40 
41.475100 1 23e Rx d 8 f4 01 3a c0 fa fc 2f 54 
41.476200 1 401 Rx d 8 18 2a 79 80 78 80 79 80 
41.478400 1 129 Rx d 8 67 2a 23 60 ff 1f ff 3f 
41.480000 1 3ae Rx d 8 2f 40 00 08 00 00 d0 48 
41.482400 1 118 Rx d 8 00 6d 95 00 00 c8 20 fd 
41.482600 1 266 Rx d 8 fb 07 06 28 06 00 9f 01 
41.482800 1 1d8 Rx d 8 29 1a 3f e4 07 00 e0 26 
41.483100 1 257 Rx d 8 35 bf 29 0e fa d7 14 01 
41.483500 1 108 Rx d 8 76 c6 f8 6b fc 1f 04 25 
41.483700 1 126 Rx d 5 39 58 17 34 03 
41.484300 1 132 Rx d 6 14 88 3b 00 ac 40 
41.485000 1 268 Rx d 5 06 06 f8 00 bf 
41.485400 1 279 Rx d 8 52 06 0d 01 78 05 65 02 
41.488300 1 129 Rx d 8 52 2b 23 60 01 20 ff 3f 
41.491600 1 383 Rx d 8 bd 18 3d 00 45 21 c4 57 
41.492800 1 1d8 Rx d 8 29 1c 3f e4 07 00 00 48 
41.493600 1 118 Rx d 8 01 6e 95 00 00 c8 20 fd 
41.494100 1 266 Rx d 8 fb 07 06 28 06 00 9f 01 
41.494400 1 7d5 Rx d 8 2b 00 00 00 00 00 00 00 
41.494600 1 132 Rx d 6 15 88 3b 00 ab 40 
41.495000 1 401 Rx d 8 19 2a 7c 80 7f 80 81 80 
41.495300 1 7d5 Rx d 8 2c 00 3f 00 00 00 00 00 
41.495500 1 7d5 Rx d 8 32 00 00 00 00 00 00 00 
41.495800 1 7d7 Rx d 8 32 06 00 00 00 00 00 00 
41.498200 1 129 Rx d 8 9f 2c 23 60 00 20 ff 3f 
41.499800 1 3ae Rx d 8 2f 40 00 08 00 00 e1 59 
94.502200 1 3ae Rx d 8 f7 3f 00 08 00 00 90 cf 
94.505300 1 132 Rx d 6 de 87 f6 ff 27 40 
94.509000 1 1d8 Rx d 8 29 de 3f 00 00 00 c0 df 
94.509500 1 118 Rx d 8 7c 64 95 00 03 c8 a0 ff 
94.509800 1 129 Rx d 8 30 21 eb 5f 00 20 ff 3f 
94.510000 1 266 Rx d 8 00 00 03 25 02 00 9f 01 
94.512500 1 22a Rx d 4 00 00 c9 15 
94.515400 1 132 Rx d 6 d9 87 f3 ff 27 40 
94.515600 1 401 Rx d 8 1a 2a 36 80 36 80 32 80 
94.517200 1 23e Rx d 8 f4 01 3a c0 fa fc 0f 34 
94.518700 1 118 Rx d 8 7c 65 95 00 02 c8 a0 ff 
94.518900 1 266 Rx d 8 00 00 03 25 02 00 9f 01 
94.519200 1 1d8 Rx d 8 29 d8 3f 00 00 00 e0 f9 
94.519400 1 257 Rx d 8 43 bb 2b 10 06 d8 15 01 
94.519600 1 129 Rx d 8 79 22 eb 5f 00 20 ff 3f 
94.525400 1 132 Rx d 6 d4 87 f4 ff 1d 40 
94.528400 1 2d2 Rx d 8 6e 29 a8 4e c4 09 d5 14 
94.528600 1 212 Rx d 8 59 04 00 00 81 ff 77 31 
94.528800 1 252 Rx d 8 46 23 8c 4a 00 fc 0f 00 
94.529100 1 1d8 Rx d 8 29 d2 3f 00 00 00 00 13 
94.529600 1 118 Rx d 8 7c 66 95 00 01 c8 a0 ff 
94.529800 1 129 Rx d 8 6e 23 eb 5f 00 20 ff 3f 
94.530000 1 266 Rx d 8 00 00 03 25 02 00 9f 01 
94.530500 1 292 Rx d 8 c7 45 27 5e 72 01 00 00 
94.535500 1 132 Rx d 6 d5 87 f2 ff 19 40 
94.536000 1 401 Rx d 8 1b 2a 2f 80 34 80 34 80 
94.537000 1 3ae Rx d 8 f7 3f 00 08 00 00 a1 e0 
94.538700 1 118 Rx d 8 6d 67 95 00 01 c8 90 ff 
94.539100 1 266 Rx d 8 00 00 03 25 02 00 9f 01 
94.539600 1 1d8 Rx d 8 29 cc 3f 00 00 00 20 2d 
94.539800 1 129 Rx d 8 e8 24 eb 5f 00 20 ff 3f 
94.540400 1 257 Rx d 8 44 bc 2b 10 06 d8 15 01 
94.541700 1 2b4 Rx d 6 25 05 9a 0d 22 01 
94.544500 1 241 Rx d 7 28 2a 14 8a 0a 45 00 
94.545300 1 132 Rx d 6 df 87 f2 ff 11 40 
94.549000 1 1d8 Rx d 8 29 c6 3f 00 00 00 40 47 
94.549800 1 118 Rx d 8 7d 68 95 00 00 c8 a0 ff 
94.550100 1 129 Rx d 8 ff 25 eb 5f 00 20 ff 3f 
94.550300 1 266 Rx d 8 00 00 04 25 02 00 9f 01 
94.555300 1 132 Rx d 6 e4 87 f5 ff 1b 40 
94.556300 1 401 Rx d 8 1c 2a 35 80 34 80 34 80 
94.556900 1 23e Rx d 8 f4 01 3a c0 fa fc 1f 44 
94.558600 1 118 Rx d 8 9e 69 95 00 00 c8 c0 ff 
94.558800 1 266 Rx d 8 00 00 03 25 02 00 9f 01 
94.559000 1 257 Rx d 8 45 bd 2b 10 06 d8 15 01 
94.559300 1 1d8 Rx d 8 29 c0 3f 00 00 00 60 61 
94.559800 1 129 Rx d 8 25 26 eb 5f 00 20 ff 3f 
94.562900 1 3e2 Rx d 7 00 00 80 2a 00 c0 04 
94.565400 1 132 Rx d 6 d3 87 f5 ff 1f 40 
94.569000 1 1d8 Rx d 8 29 ba 3f 00 00 00 80 7b 
94.569700 1 118 Rx d 8 bf 6a 95 00 00 c8 e0 ff 
94.569900 1 129 Rx d 8 32 27 eb 5f 00 20 ff 3f 
94.570400 1 266 Rx d 8 00 00 03 25 02 00 9f 01 
94.575400 1 132 Rx d 6 d0 87 f7 ff 2f 40 
94.575600 1 401 Rx d 8 1d 2a 35 80 36 80 35 80 
94.577100 1 3ae Rx d 8 f7 3f 00 08 00 00 b1 f0 
94.578800 1 118 Rx d 8 c0 6b 95 00 00 c8 e0 ff 
94.579200 1 266 Rx d 8 00 00 03 25 02 00 9f 01 
94.579500 1 1d8 Rx d 8 29 b2 3f 00 00 00 a0 93 
94.579700 1 108 Rx d 8 59 b9 fd 93 ff df 04 25 
94.579900 1 129 Rx d 8 e5 28 eb 5f 00 20 ff 3f 
94.580200 1 257 Rx d 8 46 be 2b 10 06 d8 15 01 
94.580400 1 126 Rx d 5 08 00 19 4c 94 
94.581200 1 268 Rx d 5 03 03 f8 00 bf 
94.581400 1 279 Rx d 8 51 09 0d 01 74 05 65 02 
94.585300 1 132 Rx d 6 d7 87 f4 ff 29 40 
94.589000 1 1d8 Rx d 8 29 ac 3f 00 00 00 c0 ad 
94.589800 1 118 Rx d 8 a1 6c 95 00 00 c8 c0 ff 
94.590000 1 129 Rx d 8 b0 29 eb 5f 00 20 ff 3f 
94.590600 1 266 Rx d 8 00 00 03 25 02 00 9f 01 
94.592900 1 7d5 Rx d 8 2b 02 00 00 00 00 00 00 
94.593200 1 7d5 Rx d 8 2c 00 3f 00 00 00 00 00 
94.593400 1 7d5 Rx d 8 32 00 00 00 00 00 00 00 
94.595000 1 7d7 Rx d 8 32 04 00 00 00 00 00 00 
94.595300 1 383 Rx d 8 bd 18 3b 00 35 01 04 55 
94.595500 1 132 Rx d 6 eb 87 f4 ff 23 40 
94.596200 1 401 Rx d 8 1e 2a 32 80 34 80 33 80 
94.597000 1 23e Rx d 8 f4 01 3a c0 fa fc 2f 54 
94.598500 1 118 Rx d 8 a2 6d 95 00 00 c8 c0 ff 
94.598800 1 266 Rx d 8 00 00 03 25 02 00 9f 01 
94.599000 1 257 Rx d 8 47 bf 2b 10 06 d8 15 01 
94.599200 1 1d8 Rx d 8 29 a6 3f 00 00 00 e0 c7 
94.599700 1 129 Rx d 8 6f 2a eb 5f 00 20 ff 3f 
94.605300 1 132 Rx d 6 dd 87 f1 ff 1f 40 
94.609000 1 1d8 Rx d 8 29 a0 3f 00 00 00 00 e1 
94.609600 1 118 Rx d 8 d3 6e 95 00 00 c8 f0 ff 
94.609800 1 129 Rx d 8 9e 2b eb 5f 00 20 ff 3f 
94.610000 1 266 Rx d 8 00 00 03 25 02 00 9f 01 
94.612500 1 22a Rx d 4 00 00 c9 15 
94.615300 1 132 Rx d 6 e2 87 f6 ff 1b 40 
94.615600 1 401 Rx d 8 1f 2a 31 80 2c 80 2d 80 
94.617000 1 3ae Rx d 8 f7 3f 00 08 00 00 c1 00 
94.618700 1 118 Rx d 8 e5 6f 95 00 00 c8 00 00 
94.619000 1 266 Rx d 8 00 00 04 25 02 00 9f 01 
94.619200 1 1d8 Rx d 8 29 98 3f 00 00 00 20 f9 
94.619500 1 257 Rx d 8 38 b0 2b 10 06 d8 15 01 
94.619700 1 129 Rx d 8 fe 2c eb 5f 00 20 ff 3f 
94.625400 1 132 Rx d 6 e8 87 f8 ff 25 40 
94.628300 1 2d2 Rx d 8 6f 29 a8 4e c4 09 d5 14 
94.628500 1 212 Rx d 8 59 04 00 00 81 ff 77 31 
94.628700 1 252 Rx d 8 46 23 8c 4a 00 fc 0f 00 
94.629000 1 292 Rx d 8 c7 45 27 5e 72 01 00 00 
94.629200 1 1d8 Rx d 8 29 92 3f 00 00 00 40 13 
94.629700 1 129 Rx d 8 ec 2d eb 5f 00 20 ff 3f 
94.630100 1 118 Rx d 8 a5 60 95 00 00 c8 d0 ff 
94.630600 1 266 Rx d 8 ff 07 04 25 03 00 9f 01 
94.635500 1 132 Rx d 6 db 87 00 00 33 40 
94.635800 1 401 Rx d 8 20 2a 2c 80 30 80 30 80 
94.636700 1 23e Rx d 8 f4 01 3a c0 fa fc 3f 64 
94.638600 1 2b4 Rx d 6 27 05 9c 0d 1f 01 
94.638800 1 118 Rx d 8 86 61 95 00 00 c8 b0 ff 
94.639000 1 266 Rx d 8 ff 07 04 26 03 00 9f 01 
94.639300 1 3ae Rx d 8 f7 3f 00 08 00 00 d0 0f 
94.639500 1 1d8 Rx d 8 29 8a 3f 00 00 00 60 2b 
94.639800 1 129 Rx d 8 33 2e eb 5f 00 20 ff 3f 
94.640400 1 257 Rx d 8 39 b1 2b 10 06 d8 15 01 
94.644700 1 241 Rx d 7 28 2a 14 8a 0a 45 00 
94.645400 1 132 Rx d 6 f2 87 10 00 70 40 
94.649000 1 1d8 Rx d 8 29 84 3f 00 00 00 80 45 
94.649700 1 118 Rx d 8 87 62 95 00 00 c8 b0 ff 
94.650000 1 129 Rx d 8 c2 2f eb 5f 00 20 ff 3f 
94.650400 1 266 Rx d 8 fe 07 04 25 03 00 9f 01 
94.655600 1 132 Rx d 6 ef 87 08 00 60 40 
94.656800 1 401 Rx d 8 21 2a 2f 80 2f 80 30 80 
94.658600 1 118 Rx d 8 68 63 95 00 00 c8 90 ff 
94.658900 1 266 Rx d 8 fe 07 04 26 04 00 9f 01 
94.659100 1 1d8 Rx d 8 29 7c ff ff 07 00 a0 23 
94.659300 1 257 Rx d 8 3a b2 2b 10 06 d8 15 01 
94.659800 1 129 Rx d 8 8a 20 eb 5f 01 20 ff 3f 
94.665400 1 132 Rx d 6 01 88 1a 00 7d 40 
94.669000 1 1d8 Rx d 8 29 76 ff fb 07 00 c0 39 
94.669700 1 118 Rx d 8 f9 64 95 00 00 c8 20 ff 
94.669900 1 129 Rx d 8 30 21 eb 5f 00 20 ff 3f 
94.670200 1 266 Rx d 8 fd 07 04 26 04 00 9f 01 
94.675400 1 132 Rx d 6 02 88 1e 00 75 40 
94.675600 1 401 Rx d 8 22 2a 39 80 36 80 38 80 
94.676700 1 23e Rx d 8 f4 01 3a c0 fa fc 4f 74 
94.678000 1 3ae Rx d 8 f7 3f 00 08 00 00 e0 1f 
94.678700 1 118 Rx d 8 a9 65 95 00 00 c8 d0 fe 
94.679200 1 266 Rx d 8 fd 07 05 27 05 00 9f 01 
94.679400 1 1d8 Rx d 8 29 6e 7f f8 07 00 e0 ce 
94.679700 1 129 Rx d 8 79 22 eb 5f 00 20 ff 3f 
94.679900 1 257 Rx d 8 3b b3 2b 10 06 d8 15 01 
94.680100 1 108 Rx d 8 ca 8a fb 3b fe da 04 25 
94.680600 1 126 Rx d 5 0b f8 17 54 95 
94.681200 1 268 Rx d 5 05 05 f8 00 bf 
94.681400 1 279 Rx d 8 52 0a 0d 01 74 05 65 02 
94.685400 1 132 Rx d 6 03 88 26 00 79 40 
94.689000 1 1d8 Rx d 8 29 68 7f f5 07 00 00 e5 
94.689800 1 118 Rx d 8 7a 66 95 00 00 c8 a0 fe 
94.690000 1 129 Rx d 8 6e 23 eb 5f 00 20 ff 3f 
94.690700 1 266 Rx d 8 fc 07 05 27 05 00 9f 01 
94.693000 1 7d5 Rx d 8 2b 0e 00 00 00 00 00 00 
94.693300 1 7d5 Rx d 8 2c 00 3f 00 00 00 00 00 
94.693500 1 7d5 Rx d 8 32 00 00 00 00 00 00 00 
94.693800 1 7d7 Rx d 8 32 05 00 00 00 00 00 00 
94.695200 1 383 Rx d 8 bd 18 3b 00 35 01 04 55 
94.695400 1 132 Rx d 6 00 88 2a 00 8e 40 
94.695600 1 401 Rx d 8 23 02 37 80 00 00 00 00 
94.698600 1 118 Rx d 8 5b 67 95 00 00 c8 80 fe 
94.698900 1 266 Rx d 8 fc 07 05 27 05 00 9f 01 
94.699100 1 1d8 Rx d 8 29 62 ff f2 07 00 20 7c 
94.699400 1 257 Rx d 8 38 b4 2b 10 02 d8 15 01 
94.699800 1 129 Rx d 8 e8 24 eb 5f 00 20 ff 3f 
94.705300 1 132 Rx d 6 04 88 2f 00 93 40 
94.709000 1 1d8 Rx d 8 29 5a ff f0 07 00 40 92 
94.709800 1 118 Rx d 8 2c 68 95 00 00 c8 50 fe 
94.710000 1 129 Rx d 8 ff 25 eb 5f 00 20 ff 3f 
94.710200 1 266 Rx d 8 fc 07 06 28 05 00 9f 01 
94.712500 1 22a Rx d 4 00 00 c9 15 
94.715400 1 132 Rx d 6 06 88 38 00 ae 40 
94.717200 1 3ae Rx d 8 f7 3f 00 08 00 00 f0 2f 
94.717700 1 23e Rx d 8 f4 01 3a c0 fa fc 5f 84 
94.718800 1 118 Rx d 8 fd 69 95 00 00 c8 20 fe 
94.719000 1 266 Rx d 8 fb 07 05 27 05 00 9f 01 
94.719300 1 1d8 Rx d 8 29 54 ff ee 07 00 60 aa 
94.719500 1 257 Rx d 8 39 b5 2b 10 02 d8 15 01 
94.719700 1 129 Rx d 8 88 26 eb 5f 01 20 ff 3f 
94.725400 1 132 Rx d 6 07 88 37 00 a9 40 
94.728300 1 2d2 Rx d 8 6d 29 a8 4e c4 09 d5 14 
94.728500 1 212 Rx d 8 59 04 00 00 81 ff 77 31 
94.728800 1 252 Rx d 8 46 23 8c 4a 00 fc 0f 00 
94.729000 1 292 Rx d 8 c7 45 27 5e 72 01 00 00 
94.729200 1 1d8 Rx d 8 29 4c 3f ed 07 00 80 01 
94.729700 1 118 Rx d 8 cd 6a 95 00 00 c8 f0 fd 
94.729900 1 129 Rx d 8 9f 27 eb 5f 01 20 ff 3f 
94.730400 1 266 Rx d 8 fb 07 06 28 06 00 9f 01 
94.735500 1 132 Rx d 6 0e 88 3b 00 c1 40 
94.737000 1 3ae Rx d 8 f7 3f 00 08 00 00 01 40 
94.738400 1 2b4 Rx d 6 27 05 a2 0d 1c 01 
94.738900 1 118 Rx d 8 9e 6b 95 00 00 c8 c0 fd 
94.739100 1 1d8 Rx d 8 29 46 bf eb 07 00 a0 99 
94.739600 1 266 Rx d 8 fb 07 05 27 06 00 9f 01 
94.739800 1 129 Rx d 8 90 28 eb 5f 02 20 ff 3f 
94.740700 1 257 Rx d 8 32 b6 2b 10 02 d0 15 01 
94.744500 1 241 Rx d 7 28 2a 14 8a 0a 45 00 
94.745400 1 132 Rx d 6 13 88 39 00 bc 40 
94.749000 1 1d8 Rx d 8 29 40 bf ea 07 00 c0 b2 
94.749800 1 118 Rx d 8 9f 6c 95 00 00 c8 c0 fd 
94.750000 1 129 Rx d 8 57 29 ec 5f 02 20 ff 3f 
94.750300 1 266 Rx d 8 fa 07 06 27 06 00 9f 01 
94.755300 1 132 Rx d 6 1a 88 40 00 ae 40 
94.757000 1 23e Rx d 8 f4 01 3a c0 fa fc 6f 94 
94.758600 1 118 Rx d 8 c0 6d 95 00 00 c8 e0 fd 
94.758900 1 266 Rx d 8 fb 07 06 27 06 00 9f 01 
94.759100 1 1d8 Rx d 8 29 3a bf e9 07 00 e0 cb 
94.759300 1 257 Rx d 8 23 a7 2b 10 02 d0 15 01 
94.759800 1 129 Rx d 8 88 2a ec 5f 02 20 ff 3f 
94.762900 1 3e2 Rx d 7 00 00 80 2a 00 c0 04 
94.765400 1 132 Rx d 6 13 88 3e 00 ae 40 
94.769100 1 1d8 Rx d 8 29 36 7f e8 07 00 00 a6 
94.769700 1 118 Rx d 8 b1 6e 95 00 00 c8 d0 fd 
94.769900 1 129 Rx d 8 d4 2b ec 5f 03 20 ff 3f 
94.770200 1 266 Rx d 8 fa 07 06 28 06 00 9f 01 
94.775300 1 132 Rx d 6 12 88 46 00 bd 40 
94.777000 1 3ae Rx d 8 f7 3f 00 08 00 00 11 50 
94.778700 1 118 Rx d 8 a2 6f 95 00 00 c8 c0 fd 
94.779200 1 266 Rx d 8 fa 07 07 29 06 00 9f 01 
94.779500 1 1d8 Rx d 8 29 30 bf e7 07 00 20 ff 
94.779700 1 108 Rx d 8 21 6b f9 b3 fc dc 04 25 
94.779900 1 129 Rx d 8 b4 2c ec 5f 03 20 ff 3f 
94.780200 1 257 Rx d 8 1c a8 2b 10 02 c8 15 01 
94.780300 1 126 Rx d 5 1b 48 18 5c fe 
94.781200 1 268 Rx d 5 06 06 f8 00 bf 
94.781600 1 279 Rx d 8 53 0b 0d 01 74 05 65 02 
94.785400 1 132 Rx d 6 13 88 46 00 b3 40 
94.789000 1 1d8 Rx d 8 29 2c bf e6 07 00 40 1a 
94.789800 1 129 Rx d 8 a6 2d ec 5f 03 20 ff 3f 
94.790000 1 118 Rx d 8 93 60 95 00 00 c8 c0 fd 
94.790600 1 266 Rx d 8 fa 07 07 28 06 00 9f 01 
94.792300 1 7d5 Rx d 8 2b 13 00 00 00 00 00 00 
94.792600 1 7d5 Rx d 8 2c 00 3f 00 00 00 00 00 
94.792800 1 7d5 Rx d 8 32 00 00 00 00 00 00 00 
94.793100 1 7d7 Rx d 8 32 06 00 00 00 00 00 00 
94.795600 1 132 Rx d 6 0a 88 48 00 bd 40 
94.796100 1 383 Rx d 8 bd 18 3b 00 35 01 04 55 
94.797100 1 23e Rx d 8 f4 01 3a c0 fa fc 7f a4 
94.798600 1 118 Rx d 8 a4 61 95 00 00 c8 d0 fd 
94.798900 1 266 Rx d 8 fa 07 07 28 06 00 9f 01 
94.799100 1 1d8 Rx d 8 29 28 3f e6 07 00 60 b6 
94.799300 1 257 Rx d 8 1d a9 2b 10 02 c8 15 01 
94.799800 1 129 Rx d 8 4b 2e ec 5f 04 20 ff 3f 
94.805300 1 132 Rx d 6 19 88 4c 00 d0 40 
94.809000 1 1d8 Rx d 8 29 22 7f e5 07 00 80 0f 
94.809800 1 118 Rx d 8 a5 62 95 00 00 c8 d0 fd 
94.810000 1 129 Rx d 8 4e 2f ed 5f 04 20 ff 3f 
94.810300 1 266 Rx d 8 fa 07 07 28 06 00 9f 01 
94.812500 1 22a Rx d 4 00 00 d9 15 
94.815300 1 132 Rx d 6 0f 88 49 00 d0 40 
94.817000 1 3ae Rx d 8 f7 3f 00 08 00 00 21 60 
94.818700 1 118 Rx d 8 a6 63 95 00 00 c8 d0 fd 
94.818900 1 266 Rx d 8 f9 07 07 28 07 00 9f 01 
94.819200 1 1d8 Rx d 8 29 1e bf e4 07 00 a0 6a 
94.819400 1 257 Rx d 8 0e 9a 2b 10 02 c8 15 01 
94.819700 1 129 Rx d 8 99 20 ed 5f 03 20 ff 3f 
94.825400 1 132 Rx d 6 18 88 53 00 f8 40 
94.828200 1 2d2 Rx d 8 6d 29 a6 4e c4 09 d5 14 
94.828400 1 212 Rx d 8 59 04 00 00 81 ff 77 31 
94.828700 1 252 Rx d 8 46 23 8c 4a 00 fc 0f 00 
94.828900 1 292 Rx d 8 c7 45 27 5e 72 01 00 00 
94.829100 1 1d8 Rx d 8 29 1a bf e3 07 00 c0 85 
94.829600 1 118 Rx d 8 87 64 95 00 00 c8 b0 fd 
94.829800 1 129 Rx d 8 bc 21 ed 5f 04 20 ff 3f 
94.830100 1 266 Rx d 8 fa 07 07 28 07 00 9f 01 
94.835500 1 132 Rx d 6 1b 88 4c 00 d5 40 
94.836700 1 23e Rx d 8 f4 01 3a c0 fa fc 8f b4 
94.838600 1 118 Rx d 8 68 65 95 00 00 c8 90 fd 
94.838800 1 2b4 Rx d 6 25 05 a1 0d 22 01 
94.839000 1 266 Rx d 8 f9 07 07 28 07 00 9f 01 
94.839300 1 1d8 Rx d 8 29 16 3f e3 07 00 e0 21 
94.839500 1 257 Rx d 8 0f 9b 2b 10 02 c8 15 01 
94.839800 1 129 Rx d 8 c7 22 ed 5f 03 20 ff 3f 
94.840600 1 3ae Rx d 8 f7 3f 00 08 00 00 30 6f 
94.844500 1 241 Rx d 7 28 2a 14 8a 0a 45 00 
94.845500 1 132 Rx d 6 1a 88 52 00 d9 40 
94.849000 1 1d8 Rx d 8 29 12 7f e2 07 00 00 7c 
94.849700 1 118 Rx d 8 29 66 95 00 00 c8 50 fd 
94.850000 1 129 Rx d 8 e2 23 ed 5f 04 20 ff 3f 
94.850200 1 266 Rx d 8 f9 07 07 28 07 00 9f 01 
94.855300 1 132 Rx d 6 23 88 51 00 cf 40 
94.857200 1 3ae Rx d 8 f9 3f 00 08 00 00 40 81 
94.858800 1 118 Rx d 8 2a 67 95 00 00 c8 50 fd 
94.859000 1 266 Rx d 8 f9 07 08 29 07 00 9f 01 
94.859500 1 1d8 Rx d 8 29 10 ff e1 07 00 20 19 
94.859700 1 129 Rx d 8 57 24 ee 5f 04 20 ff 3f 
94.860000 1 257 Rx d 8 08 9c 2b 10 02 c0 15 01 
94.865400 1 132 Rx d 6 16 88 55 00 cf 40 
94.869100 1 1d8 Rx d 8 29 0c 7f e1 07 00 40 b5 
94.869700 1 118 Rx d 8 2b 68 95 00 00 c8 50 fd 
94.869900 1 129 Rx d 8 40 25 ee 5f 04 20 ff 3f 
94.870200 1 266 Rx d 8 f9 07 08 29 07 00 9f 01 
94.875400 1 132 Rx d 6 2a 88 56 00 e0 40 
94.876700 1 23e Rx d 8 f4 01 3a c0 fa fc 9f c4 
94.878700 1 118 Rx d 8 1c 69 95 00 00 c8 40 fd 
94.879200 1 266 Rx d 8 f9 07 08 29 07 00 9f 01 
94.879500 1 1d8 Rx d 8 29 0a bf e0 07 00 60 12 
94.879700 1 108 Rx d 8 37 2c f8 13 fc d2 04 25 
94.879900 1 129 Rx d 8 9a 26 ee 5f 04 20 ff 3f 
94.880200 1 257 Rx d 8 f1 8d 2b 10 02 b8 15 01 
94.880300 1 126 Rx d 5 2a 08 17 64 d4 
94.881200 1 268 Rx d 5 07 07 f8 00 bf 
94.881400 1 279 Rx d 8 58 0c 0d 01 78 05 65 02 
94.885400 1 132 Rx d 6 15 88 53 00 d6 40 
94.889000 1 1d8 Rx d 8 29 06 7f e0 07 00 80 ee 
94.889800 1 118 Rx d 8 fd 6a 95 00 00 c8 20 fd 
94.890000 1 129 Rx d 8 8d 27 ee 5f 04 20 ff 3f 
94.890900 1 266 Rx d 8 f9 07 08 2a 07 00 9f 01 
94.891600 1 301 Rx d 8 12 5c 0a d0 26 6f 00 ae 
94.893600 1 7d5 Rx d 8 2b 14 00 00 00 00 00 00 
94.893900 1 7d5 Rx d 8 2c 00 3f 00 00 00 00 00 
94.894100 1 7d5 Rx d 8 32 00 00 00 00 00 00 00 
94.894400 1 7d7 Rx d 8 32 07 00 00 00 00 00 00 
94.895300 1 383 Rx d 8 bd 18 3b 00 35 01 04 55 
94.895500 1 132 Rx d 6 10 88 5a 00 f9 40 
94.897900 1 3ae Rx d 8 f9 3f 00 08 00 00 50 91 
94.898600 1 118 Rx d 8 de 6b 95 00 00 c8 00 fd 
94.898900 1 266 Rx d 8 f9 07 07 29 07 00 9f 01 
94.899100 1 1d8 Rx d 8 29 02 ff df 07 00 a0 89 
94.899300 1 257 Rx d 8 f2 8e 2b 10 02 b8 15 01 
94.899800 1 129 Rx d 8 03 28 ef 5f 05 20 ff 3f 
94.905300 1 132 Rx d 6 19 88 5a 00 f7 40 
94.909000 1 1d8 Rx d 8 29 00 7f df 07 00 c0 27 
94.909800 1 118 Rx d 8 ce 6c 95 00 00 c8 f0 fc 
94.910100 1 129 Rx d 8 56 29 ef 5f 05 20 ff 3f 
94.910300 1 266 Rx d 8 f9 07 07 29 08 00 9f 01 
94.912300 1 3ae Rx d 8 fa 3f 00 08 00 00 60 a2 
94.912500 1 22a Rx d 4 00 00 d9 15 
94.915400 1 132 Rx d 6 20 88 5b 00 e8 40 
94.917200 1 23e Rx d 8 f4 01 3a c0 fa fc af d4 
94.918700 1 118 Rx d 8 9f 6d 95 00 00 c8 c0 fc 
94.918900 1 266 Rx d 8 f9 07 07 29 07 00 9f 01 
94.919100 1 1d8 Rx d 8 29 fe fe de 07 00 e0 c3 
94.919400 1 257 Rx d 8 db 7f 2b 10 02 b0 15 01 
94.919600 1 129 Rx d 8 89 2a ef 5f 05 20 ff 3f 
94.925400 1 132 Rx d 6 2c 88 55 00 e1 40 
94.928300 1 2d2 Rx d 8 6d 29 a6 4e c4 09 d5 14 
94.928500 1 212 Rx d 8 59 04 00 00 81 ff 77 31 
94.928800 1 252 Rx d 8 46 23 8c 4a 00 fc 0f 00 
94.929000 1 292 Rx d 8 c7 45 27 5e 72 01 00 00 
94.929200 1 1d8 Rx d 8 29 fc be de 07 00 00 a1 
94.929700 1 129 Rx d 8 78 2b ef 5f 05 20 ff 3f 
94.930000 1 118 Rx d 8 90 6e 95 00 00 c8 b0 fc 
94.930200 1 266 Rx d 8 f8 07 07 29 08 00 9f 01 
94.935500 1 132 Rx d 6 21 88 5a 00 e6 40 
94.938800 1 118 Rx d 8 81 6f 95 00 00 c8 a0 fc 
94.939000 1 2b4 Rx d 6 21 05 a0 0d 1c 01 
94.939300 1 1d8 Rx d 8 29 fa 3e de 07 00 20 3f 
94.939500 1 266 Rx d 8 f9 07 08 2a 07 00 9f 01 
94.939800 1 129 Rx d 8 18 2c ef 5f 05 20 ff 3f 
94.940600 1 257 Rx d 8 cc 70 2b 10 02 b0 15 01 
94.941000 1 302 Rx d 8 12 5c 0a d0 26 6f 00 ae 
94.944600 1 241 Rx d 7 28 2a 14 8a 0a 45 00 
94.944800 1 4f Rx d 8 ed a6 5c f1 3b 6a 67 12 
94.945600 1 132 Rx d 6 17 88 5c 00 dc 40 
94.947100 1 3ae Rx d 8 fa 3f 00 08 00 00 71 b3 
94.949000 1 1d8 Rx d 8 29 f8 fe dd 07 00 40 1c 
94.949600 1 118 Rx d 8 52 60 95 00 00 c8 80 fc 
94.949800 1 129 Rx d 8 2f 2d f0 5f 05 20 ff 3f 
94.950100 1 266 Rx d 8 f9 07 08 29 08 00 9f 01 
94.955300 1 132 Rx d 6 20 88 5c 00 ef 40 
94.957000 1 23e Rx d 8 f4 01 3a c0 fa fc bf e4 
94.958600 1 118 Rx d 8 43 61 95 00 00 c8 70 fc 
94.958900 1 266 Rx d 8 f9 07 08 29 08 00 9f 01 
94.959100 1 1d8 Rx d 8 29 f6 fe dd 07 00 60 3a 
94.959600 1 257 Rx d 8 b5 61 2b 10 02 a8 15 01 
94.959800 1 129 Rx d 8 92 2e ef 5f 00 20 ff 3f 
94.962900 1 3e2 Rx d 7 00 00 80 1a 00 c0 04 
94.965400 1 132 Rx d 6 20 88 5f 00 08 41 
94.967000 1 3ae Rx d 8 fb 3f 00 08 00 00 81 c4 
94.968100 1 77a Rx d 8 a1 16 d8 5d f0 5d d8 5d 
94.969100 1 1d8 Rx d 8 29 f4 7e dd 07 00 80 d8 
94.969700 1 118 Rx d 8 54 62 95 00 00 c8 80 fc 
94.969900 1 129 Rx d 8 ce 2f ef 5f 01 20 ff 3f 
94.970400 1 266 Rx d 8 f9 07 07 29 07 00 9f 01 
94.975400 1 132 Rx d 6 1f 88 5b 00 f2 40 
94.978800 1 118 Rx d 8 65 63 95 00 00 c8 90 fc 
94.979000 1 1d8 Rx d 8 29 f2 7e dd 07 00 a0 f6 
94.979500 1 266 Rx d 8 f8 07 07 29 08 00 9f 01 
94.979700 1 108 Rx d 8 7d 5d f7 23 fb d9 04 25 
94.979900 1 129 Rx d 8 86 20 ef 5f 00 20 ff 3f 
94.980400 1 126 Rx d 5 35 f8 17 6c d7 
94.980600 1 257 Rx d 8 b6 62 2b 10 02 a8 15 01 
94.981300 1 268 Rx d 5 08 08 f8 00 bf 
94.981500 1 279 Rx d 8 59 0d 0d 01 78 05 65 02 
94.985400 1 132 Rx d 6 19 88 5c 00 01 41 
94.986500 1 332 Rx d 6 0c 0b 8e 8e 8e 00 
94.987600 1 3f2 Rx d 8 07 ec ba 18 b0 50 f2 00 
94.989100 1 1d8 Rx d 8 29 f0 3e dd 07 00 c0 d4 
94.989800 1 118 Rx d 8 86 64 95 00 00 c8 b0 fc 
94.990000 1 129 Rx d 8 b4 21 f0 5f 00 20 ff 3f 
94.990700 1 266 Rx d 8 f9 07 07 29 08 00 9f 01 
94.993300 1 7d5 Rx d 8 2b 13 00 00 00 00 00 00 
94.993500 1 7d5 Rx d 8 2c 00 3f 00 00 00 00 00 
94.994200 1 7d5 Rx d 8 32 00 00 00 00 00 00 00 
94.994400 1 7d7 Rx d 8 32 08 00 00 00 00 00 00 
94.995600 1 132 Rx d 6 21 88 59 00 f2 40 
94.996300 1 383 Rx d 8 bd 18 3b 00 35 01 04 55 
94.997000 1 23e Rx d 8 f4 01 3a c0 fa fc cf f4 
94.997500 1 401 Rx d 8 00 2a 74 80 73 80 72 80 
94.998600 1 118 Rx d 8 97 65 95 00 00 c8 c0 fc 
94.998900 1 266 Rx d 8 f9 07 08 2a 08 00 9f 01 
94.999100 1 1d8 Rx d 8 29 ee 3e dd 07 00 e0 f2 
94.999400 1 257 Rx d 8 9f 53 2b 10 02 a0 15 01 
94.999800 1 129 Rx d 8 d8 22 ef 5f 00 20 ff 3f 
95.005300 1 132 Rx d 6 17 88 5f 00 ee 40 
95.007900 1 3ae Rx d 8 fb 3f 00 08 00 00 91 d4 
95.008600 1 3dd Rx d 8 01 ba c9 0c 00 00 a9 00 
95.009200 1 1d8 Rx d 8 29 ee fe dc 07 00 00 d1 
95.009700 1 118 Rx d 8 a8 66 95 00 00 c8 d0 fc 
95.010000 1 129 Rx d 8 cf 23 ef 5f 00 20 ff 3f 
95.010200 1 266 Rx d 8 f9 07 08 29 08 00 9f 01 
95.012600 1 22a Rx d 4 00 00 d9 15 
95.015200 1 303 Rx d 8 12 5c 0a d0 26 6f 00 ae 
95.015400 1 132 Rx d 6 16 88 59 00 ee 40 
95.015600 1 401 Rx d 8 01 2a 75 80 74 80 75 80 
95.018700 1 118 Rx d 8 da 67 95 00 00 c8 00 fd 
95.018900 1 266 Rx d 8 f9 07 08 29 08 00 9f 01 
95.019200 1 1d8 Rx d 8 29 ec 3e dd 07 00 20 30 
95.019400 1 257 Rx d 8 a0 54 2b 10 02 a0 15 01 
95.019600 1 129 Rx d 8 6c 24 f0 5f 00 20 ff 3f 
95.025400 1 132 Rx d 6 1d 88 5a 00 e5 40 
95.025800 1 43a Rx d 6 04 6e 8e 00 1f 00 
95.029000 1 1d8 Rx d 8 29 ec 7e dd 07 00 40 90 
95.029700 1 118 Rx d 8 fb 68 95 00 00 c8 20 fd 
95.029900 1 129 Rx d 8 7b 25 f0 5f 00 20 ff 3f 
95.030200 1 266 Rx d 8 f9 07 08 2a 08 00 9f 01 
95.030400 1 212 Rx d 8 59 44 00 00 81 ff 77 31 
95.030600 1 252 Rx d 8 46 23 8c 4a 00 fc 0f 00 
95.030900 1 292 Rx d 8 c7 45 27 5e 72 01 01 00 
95.031300 1 2d2 Rx d 8 6d 29 a6 4e c4 09 d5 14 
95.035500 1 132 Rx d 6 23 88 5d 00 ee 40 
95.035800 1 401 Rx d 8 02 2a 75 80 74 80 78 80 
95.036800 1 23e Rx d 8 f4 01 3a c0 fa fc df 04 
95.038400 1 2b4 Rx d 6 23 05 a1 0d 1e 01 
95.038800 1 118 Rx d 8 fc 69 95 00 00 c8 20 fd 
95.039100 1 1d8 Rx d 8 29 ea 3e dd 07 00 60 6e 
95.039500 1 266 Rx d 8 f9 07 07 29 08 00 9f 01 
95.039800 1 129 Rx d 8 84 26 ef 5f 00 20 ff 3f 
95.040600 1 257 Rx d 8 89 45 2b 10 02 98 15 01 
95.044600 1 241 Rx d 7 27 28 d4 09 0a 45 00 
95.045400 1 132 Rx d 6 1e 88 5a 00 f2 40 
95.047000 1 3ae Rx d 8 fb 3f 00 08 00 00 a1 e4 
95.049000 1 1d8 Rx d 8 29 e8 3e dd 07 00 80 8c 
95.049700 1 118 Rx d 8 dd 6a 95 00 00 c8 00 fd 
95.050000 1 129 Rx d 8 93 27 ef 5f 00 20 ff 3f 
95.050400 1 266 Rx d 8 f9 07 08 29 08 00 9f 01 
95.052100 1 3ae Rx d 8 fb 3f 00 08 00 00 b0 f3 
95.055400 1 132 Rx d 6 28 88 5c 00 f9 40 
95.056500 1 401 Rx d 8 03 2a 78 80 76 80 76 80 
95.058600 1 118 Rx d 8 bd 6b 95 00 00 c8 e0 fc 
95.058800 1 266 Rx d 8 f9 07 08 29 08 00 9f 01 
95.059100 1 1d8 Rx d 8 29 e8 fe dc 07 00 a0 6b 
95.059600 1 257 Rx d 8 8a 46 2b 10 02 98 15 01 
95.059800 1 129 Rx d 8 61 28 f0 5f 00 20 ff 3f 
95.065400 1 132 Rx d 6 1f 88 5c 00 e1 40 
95.069100 1 1d8 Rx d 8 29 e8 be dc 07 00 c0 4b 
95.069700 1 118 Rx d 8 ae 6c 95 00 00 c8 d0 fc 
95.069900 1 129 Rx d 8 34 29 f0 5f 00 20 ff 3f 
95.070200 1 266 Rx d 8 f9 07 08 29 08 00 9f 01 
95.075400 1 132 Rx d 6 22 88 5d 00 f0 40 
95.075600 1 401 Rx d 8 04 2a 78 80 75 80 6c 80 
95.076700 1 23e Rx d 8 f4 01 3a c0 fa fc ef 14 
95.078700 1 118 Rx d 8 af 6d 95 00 00 c8 d0 fc 
95.079200 1 266 Rx d 8 f9 07 08 29 08 00 9f 01 
95.079500 1 1d8 Rx d 8 29 e6 be dc 07 00 e0 69 
95.079700 1 108 Rx d 8 b9 3e f7 9b fb bc 04 25 
95.079900 1 129 Rx d 8 eb 2a f0 5f 00 20 ff 3f 
95.080200 1 257 Rx d 8 7b 37 2b 10 02 98 15 01 
95.080300 1 126 Rx d 5 3c f8 17 74 e6 
95.081300 1 268 Rx d 5 08 08 f8 00 bf 
95.081600 1 279 Rx d 8 5a 0e 0d 01 78 05 65 02 
